
Circuit: full-wave precision rectifier

Error on line 0 :
  d.x1.d1 x1.4 x1.2 
Unable to find definition of model  - default assumed
Error on line 0 :
  d.x1.d2 2 x1.4 
Unable to find definition of model  - default assumed
                         full-wave precision rectifier
                         Transient Analysis  Thu Jan 27 15:47:24  2022
--------------------------------------------------------------------------------
Index   time            v(4)            v(1)            
--------------------------------------------------------------------------------
0	0.000000e+00	8.374811e-04	0.000000e+00	
1	1.000000e-09	8.375467e-04	3.141593e-05	
2	2.000000e-09	8.376252e-04	6.283185e-05	
3	4.000000e-09	8.377829e-04	1.256637e-04	
4	8.000000e-09	8.380394e-04	2.513274e-04	
5	1.600000e-08	8.380360e-04	5.026548e-04	
6	3.200000e-08	8.341228e-04	1.005310e-03	
7	6.400000e-08	7.984705e-04	2.010619e-03	
8	9.779928e-08	7.033667e-04	3.072455e-03	
9	1.371568e-07	4.960907e-04	4.308908e-03	
10	1.815501e-07	1.208711e-04	5.703563e-03	
11	2.400930e-07	-6.13591e-04	7.542742e-03	
12	3.191364e-07	-2.02146e-03	1.002596e-02	
13	4.191364e-07	-4.40565e-03	1.316754e-02	
14	5.191364e-07	-7.33842e-03	1.630912e-02	
15	6.191364e-07	-1.06853e-02	1.945069e-02	
16	7.191364e-07	-1.43347e-02	2.259226e-02	
17	8.191364e-07	-1.82010e-02	2.573382e-02	
18	9.191364e-07	-2.22215e-02	2.887536e-02	
19	1.019136e-06	-2.63511e-02	3.201690e-02	
20	1.119136e-06	-3.05580e-02	3.515842e-02	
21	1.219136e-06	-3.48196e-02	3.829993e-02	
22	1.319136e-06	-3.91197e-02	4.144142e-02	
23	1.419136e-06	-4.34470e-02	4.458289e-02	
24	1.519136e-06	-4.77937e-02	4.772435e-02	
25	1.619136e-06	-5.21538e-02	5.086579e-02	
26	1.719136e-06	-5.65234e-02	5.400721e-02	
27	1.819136e-06	-6.08997e-02	5.714861e-02	
28	1.919136e-06	-6.52807e-02	6.028999e-02	
29	2.019136e-06	-6.96648e-02	6.343134e-02	
30	2.119136e-06	-7.40513e-02	6.657267e-02	
31	2.219136e-06	-7.84393e-02	6.971397e-02	
32	2.319136e-06	-8.28284e-02	7.285524e-02	
33	2.419136e-06	-8.72183e-02	7.599649e-02	
34	2.519136e-06	-9.16088e-02	7.913770e-02	
35	2.619136e-06	-9.59997e-02	8.227888e-02	
36	2.719136e-06	-1.00391e-01	8.542003e-02	
37	2.819136e-06	-1.04782e-01	8.856115e-02	
38	2.919136e-06	-1.09174e-01	9.170223e-02	
39	3.019136e-06	-1.13566e-01	9.484328e-02	
40	3.119136e-06	-1.17958e-01	9.798429e-02	
41	3.219136e-06	-1.22350e-01	1.011253e-01	
42	3.319136e-06	-1.26742e-01	1.042662e-01	
43	3.419136e-06	-1.31134e-01	1.074071e-01	
44	3.519136e-06	-1.35526e-01	1.105479e-01	
45	3.619136e-06	-1.39916e-01	1.136887e-01	
46	3.719136e-06	-1.44299e-01	1.168295e-01	
47	3.819136e-06	-1.48650e-01	1.199702e-01	
48	3.919136e-06	-1.52867e-01	1.231109e-01	
49	4.004850e-06	-1.56135e-01	1.258028e-01	
50	4.064841e-06	-1.57975e-01	1.276869e-01	
51	4.122063e-06	-1.59073e-01	1.294840e-01	
52	4.186323e-06	-1.59133e-01	1.315020e-01	
53	4.262895e-06	-1.57044e-01	1.339068e-01	
54	4.346390e-06	-1.51638e-01	1.365289e-01	

Index   time            v(4)            v(1)            
--------------------------------------------------------------------------------
55	4.433073e-06	-1.42480e-01	1.392511e-01	
56	4.533073e-06	-1.27918e-01	1.423914e-01	
57	4.633073e-06	-1.10016e-01	1.455317e-01	
58	4.733073e-06	-8.99173e-02	1.486719e-01	
59	4.833073e-06	-6.86980e-02	1.518121e-01	
60	4.933073e-06	-4.72612e-02	1.549522e-01	
61	5.033073e-06	-2.62996e-02	1.580923e-01	
62	5.133073e-06	-6.30219e-03	1.612323e-01	
63	5.233073e-06	1.241929e-02	1.643722e-01	
64	5.333073e-06	2.969832e-02	1.675121e-01	
65	5.433073e-06	4.548044e-02	1.706519e-01	
66	5.533073e-06	5.979214e-02	1.737916e-01	
67	5.633073e-06	7.271365e-02	1.769312e-01	
68	5.733073e-06	8.435679e-02	1.800708e-01	
69	5.833073e-06	9.484825e-02	1.832104e-01	
70	5.933073e-06	1.043178e-01	1.863498e-01	
71	6.033073e-06	1.128909e-01	1.894892e-01	
72	6.133073e-06	1.206841e-01	1.926285e-01	
73	6.233073e-06	1.278028e-01	1.957677e-01	
74	6.333073e-06	1.343410e-01	1.989068e-01	
75	6.433073e-06	1.403811e-01	2.020459e-01	
76	6.533073e-06	1.459948e-01	2.051849e-01	
77	6.633073e-06	1.512444e-01	2.083238e-01	
78	6.733073e-06	1.561832e-01	2.114626e-01	
79	6.833073e-06	1.608571e-01	2.146014e-01	
80	6.933073e-06	1.653054e-01	2.177400e-01	
81	7.033073e-06	1.695616e-01	2.208786e-01	
82	7.133073e-06	1.736543e-01	2.240171e-01	
83	7.233073e-06	1.776081e-01	2.271555e-01	
84	7.333073e-06	1.814437e-01	2.302938e-01	
85	7.433073e-06	1.851787e-01	2.334320e-01	
86	7.533073e-06	1.888283e-01	2.365701e-01	
87	7.633073e-06	1.924053e-01	2.397081e-01	
88	7.733073e-06	1.959205e-01	2.428461e-01	
89	7.833073e-06	1.993832e-01	2.459839e-01	
90	7.933073e-06	2.028012e-01	2.491216e-01	
91	8.033073e-06	2.061813e-01	2.522593e-01	
92	8.133073e-06	2.095290e-01	2.553968e-01	
93	8.233073e-06	2.128492e-01	2.585343e-01	
94	8.333073e-06	2.161459e-01	2.616716e-01	
95	8.433073e-06	2.194227e-01	2.648088e-01	
96	8.533073e-06	2.226825e-01	2.679460e-01	
97	8.633073e-06	2.259277e-01	2.710830e-01	
98	8.733073e-06	2.291605e-01	2.742199e-01	
99	8.833073e-06	2.323826e-01	2.773567e-01	
100	8.933073e-06	2.355956e-01	2.804934e-01	
101	9.033073e-06	2.388008e-01	2.836300e-01	
102	9.133073e-06	2.419993e-01	2.867665e-01	
103	9.233073e-06	2.451920e-01	2.899029e-01	
104	9.333073e-06	2.483797e-01	2.930391e-01	
105	9.433073e-06	2.515630e-01	2.961752e-01	
106	9.533073e-06	2.547426e-01	2.993113e-01	
107	9.633073e-06	2.579190e-01	3.024472e-01	
108	9.733073e-06	2.610924e-01	3.055829e-01	
109	9.833073e-06	2.642634e-01	3.087186e-01	
110	9.933073e-06	2.674321e-01	3.118541e-01	
111	1.003307e-05	2.705989e-01	3.149895e-01	
112	1.013307e-05	2.737640e-01	3.181248e-01	

Index   time            v(4)            v(1)            
--------------------------------------------------------------------------------
113	1.023307e-05	2.769275e-01	3.212600e-01	
114	1.033307e-05	2.800897e-01	3.243950e-01	
115	1.043307e-05	2.832506e-01	3.275299e-01	
116	1.053307e-05	2.864103e-01	3.306647e-01	
117	1.063307e-05	2.895690e-01	3.337994e-01	
118	1.073307e-05	2.927268e-01	3.369339e-01	
119	1.083307e-05	2.958837e-01	3.400683e-01	
120	1.093307e-05	2.990397e-01	3.432025e-01	
121	1.103307e-05	3.021951e-01	3.463366e-01	
122	1.113307e-05	3.053497e-01	3.494706e-01	
123	1.123307e-05	3.085036e-01	3.526045e-01	
124	1.133307e-05	3.116570e-01	3.557382e-01	
125	1.143307e-05	3.148097e-01	3.588717e-01	
126	1.153307e-05	3.179619e-01	3.620051e-01	
127	1.163307e-05	3.211135e-01	3.651384e-01	
128	1.173307e-05	3.242646e-01	3.682716e-01	
129	1.183307e-05	3.274152e-01	3.714045e-01	
130	1.193307e-05	3.305653e-01	3.745374e-01	
131	1.203307e-05	3.337150e-01	3.776701e-01	
132	1.213307e-05	3.368642e-01	3.808026e-01	
133	1.223307e-05	3.400129e-01	3.839350e-01	
134	1.233307e-05	3.431612e-01	3.870672e-01	
135	1.243307e-05	3.463091e-01	3.901993e-01	
136	1.253307e-05	3.494566e-01	3.933313e-01	
137	1.263307e-05	3.526037e-01	3.964631e-01	
138	1.273307e-05	3.557504e-01	3.995947e-01	
139	1.283307e-05	3.588968e-01	4.027261e-01	
140	1.293307e-05	3.620427e-01	4.058574e-01	
141	1.303307e-05	3.651882e-01	4.089886e-01	
142	1.313307e-05	3.683334e-01	4.121196e-01	
143	1.323307e-05	3.714783e-01	4.152504e-01	
144	1.333307e-05	3.746227e-01	4.183811e-01	
145	1.343307e-05	3.777669e-01	4.215115e-01	
146	1.353307e-05	3.809106e-01	4.246419e-01	
147	1.363307e-05	3.840541e-01	4.277720e-01	
148	1.373307e-05	3.871972e-01	4.309020e-01	
149	1.383307e-05	3.903399e-01	4.340318e-01	
150	1.393307e-05	3.934823e-01	4.371615e-01	
151	1.403307e-05	3.966244e-01	4.402910e-01	
152	1.413307e-05	3.997662e-01	4.434203e-01	
153	1.423307e-05	4.029076e-01	4.465494e-01	
154	1.433307e-05	4.060488e-01	4.496783e-01	
155	1.443307e-05	4.091896e-01	4.528071e-01	
156	1.453307e-05	4.123300e-01	4.559357e-01	
157	1.463307e-05	4.154702e-01	4.590641e-01	
158	1.473307e-05	4.186101e-01	4.621924e-01	
159	1.483307e-05	4.217496e-01	4.653204e-01	
160	1.493307e-05	4.248889e-01	4.684483e-01	
161	1.503307e-05	4.280278e-01	4.715759e-01	
162	1.513307e-05	4.311665e-01	4.747034e-01	
163	1.523307e-05	4.343048e-01	4.778308e-01	
164	1.533307e-05	4.374429e-01	4.809579e-01	
165	1.543307e-05	4.405806e-01	4.840848e-01	
166	1.553307e-05	4.437180e-01	4.872115e-01	
167	1.563307e-05	4.468552e-01	4.903381e-01	
168	1.573307e-05	4.499921e-01	4.934644e-01	
169	1.583307e-05	4.531286e-01	4.965906e-01	
170	1.593307e-05	4.562649e-01	4.997166e-01	

Index   time            v(4)            v(1)            
--------------------------------------------------------------------------------
171	1.603307e-05	4.594009e-01	5.028423e-01	
172	1.613307e-05	4.625366e-01	5.059679e-01	
173	1.623307e-05	4.656720e-01	5.090933e-01	
174	1.633307e-05	4.688071e-01	5.122184e-01	
175	1.643307e-05	4.719419e-01	5.153434e-01	
176	1.653307e-05	4.750765e-01	5.184681e-01	
177	1.663307e-05	4.782107e-01	5.215927e-01	
178	1.673307e-05	4.813447e-01	5.247170e-01	
179	1.683307e-05	4.844784e-01	5.278412e-01	
180	1.693307e-05	4.876118e-01	5.309651e-01	
181	1.703307e-05	4.907449e-01	5.340888e-01	
182	1.713307e-05	4.938778e-01	5.372124e-01	
183	1.723307e-05	4.970103e-01	5.403357e-01	
184	1.733307e-05	5.001426e-01	5.434587e-01	
185	1.743307e-05	5.032746e-01	5.465816e-01	
186	1.753307e-05	5.064063e-01	5.497043e-01	
187	1.763307e-05	5.095378e-01	5.528267e-01	
188	1.773307e-05	5.126689e-01	5.559489e-01	
189	1.783307e-05	5.157998e-01	5.590709e-01	
190	1.793307e-05	5.189304e-01	5.621927e-01	
191	1.803307e-05	5.220608e-01	5.653143e-01	
192	1.813307e-05	5.251908e-01	5.684356e-01	
193	1.823307e-05	5.283206e-01	5.715567e-01	
194	1.833307e-05	5.314500e-01	5.746776e-01	
195	1.843307e-05	5.345792e-01	5.777983e-01	
196	1.853307e-05	5.377082e-01	5.809187e-01	
197	1.863307e-05	5.408368e-01	5.840389e-01	
198	1.873307e-05	5.439652e-01	5.871589e-01	
199	1.883307e-05	5.470933e-01	5.902786e-01	
200	1.893307e-05	5.502211e-01	5.933981e-01	
201	1.903307e-05	5.533486e-01	5.965174e-01	
202	1.913307e-05	5.564758e-01	5.996364e-01	
203	1.923307e-05	5.596028e-01	6.027552e-01	
204	1.933307e-05	5.627295e-01	6.058738e-01	
205	1.943307e-05	5.658559e-01	6.089921e-01	
206	1.953307e-05	5.689820e-01	6.121102e-01	
207	1.963307e-05	5.721079e-01	6.152280e-01	
208	1.973307e-05	5.752334e-01	6.183456e-01	
209	1.983307e-05	5.783587e-01	6.214630e-01	
210	1.993307e-05	5.814837e-01	6.245801e-01	
211	2.003307e-05	5.846084e-01	6.276970e-01	
212	2.013307e-05	5.877329e-01	6.308136e-01	
213	2.023307e-05	5.908570e-01	6.339299e-01	
214	2.033307e-05	5.939809e-01	6.370461e-01	
215	2.043307e-05	5.971045e-01	6.401619e-01	
216	2.053307e-05	6.002277e-01	6.432775e-01	
217	2.063307e-05	6.033508e-01	6.463929e-01	
218	2.073307e-05	6.064735e-01	6.495080e-01	
219	2.083307e-05	6.095959e-01	6.526228e-01	
220	2.093307e-05	6.127181e-01	6.557374e-01	
221	2.103307e-05	6.158399e-01	6.588518e-01	
222	2.113307e-05	6.189615e-01	6.619658e-01	
223	2.123307e-05	6.220828e-01	6.650796e-01	
224	2.133307e-05	6.252038e-01	6.681932e-01	
225	2.143307e-05	6.283245e-01	6.713065e-01	
226	2.153307e-05	6.314449e-01	6.744195e-01	
227	2.163307e-05	6.345651e-01	6.775322e-01	
228	2.173307e-05	6.376849e-01	6.806447e-01	

Index   time            v(4)            v(1)            
--------------------------------------------------------------------------------
229	2.183307e-05	6.408045e-01	6.837569e-01	
230	2.193307e-05	6.439237e-01	6.868689e-01	
231	2.203307e-05	6.470427e-01	6.899805e-01	
232	2.213307e-05	6.501613e-01	6.930919e-01	
233	2.223307e-05	6.532797e-01	6.962031e-01	
234	2.233307e-05	6.563978e-01	6.993139e-01	
235	2.243307e-05	6.595156e-01	7.024245e-01	
236	2.253307e-05	6.626331e-01	7.055348e-01	
237	2.263307e-05	6.657502e-01	7.086448e-01	
238	2.273307e-05	6.688671e-01	7.117545e-01	
239	2.283307e-05	6.719837e-01	7.148640e-01	
240	2.293307e-05	6.751000e-01	7.179732e-01	
241	2.303307e-05	6.782160e-01	7.210821e-01	
242	2.313307e-05	6.813317e-01	7.241907e-01	
243	2.323307e-05	6.844471e-01	7.272990e-01	
244	2.333307e-05	6.875622e-01	7.304070e-01	
245	2.343307e-05	6.906769e-01	7.335148e-01	
246	2.353307e-05	6.937914e-01	7.366222e-01	
247	2.363307e-05	6.969056e-01	7.397294e-01	
248	2.373307e-05	7.000195e-01	7.428363e-01	
249	2.383307e-05	7.031330e-01	7.459429e-01	
250	2.393307e-05	7.062463e-01	7.490492e-01	
251	2.403307e-05	7.093592e-01	7.521551e-01	
252	2.413307e-05	7.124718e-01	7.552608e-01	
253	2.423307e-05	7.155842e-01	7.583662e-01	
254	2.433307e-05	7.186962e-01	7.614713e-01	
255	2.443307e-05	7.218079e-01	7.645761e-01	
256	2.453307e-05	7.249193e-01	7.676806e-01	
257	2.463307e-05	7.280303e-01	7.707848e-01	
258	2.473307e-05	7.311411e-01	7.738887e-01	
259	2.483307e-05	7.342515e-01	7.769923e-01	
260	2.493307e-05	7.373617e-01	7.800956e-01	
261	2.503307e-05	7.404715e-01	7.831985e-01	
262	2.513307e-05	7.435810e-01	7.863012e-01	
263	2.523307e-05	7.466901e-01	7.894035e-01	
264	2.533307e-05	7.497990e-01	7.925056e-01	
265	2.543307e-05	7.529075e-01	7.956073e-01	
266	2.553307e-05	7.560157e-01	7.987087e-01	
267	2.563307e-05	7.591236e-01	8.018098e-01	
268	2.573307e-05	7.622312e-01	8.049106e-01	
269	2.583307e-05	7.653384e-01	8.080110e-01	
270	2.593307e-05	7.684453e-01	8.111112e-01	
271	2.603307e-05	7.715519e-01	8.142110e-01	
272	2.613307e-05	7.746582e-01	8.173105e-01	
273	2.623307e-05	7.777641e-01	8.204097e-01	
274	2.633307e-05	7.808697e-01	8.235085e-01	
275	2.643307e-05	7.839750e-01	8.266070e-01	
276	2.653307e-05	7.870799e-01	8.297052e-01	
277	2.663307e-05	7.901846e-01	8.328031e-01	
278	2.673307e-05	7.932888e-01	8.359006e-01	
279	2.683307e-05	7.963928e-01	8.389979e-01	
280	2.693307e-05	7.994964e-01	8.420947e-01	
281	2.703307e-05	8.025997e-01	8.451913e-01	
282	2.713307e-05	8.057026e-01	8.482875e-01	
283	2.723307e-05	8.088052e-01	8.513834e-01	
284	2.733307e-05	8.119074e-01	8.544789e-01	
285	2.743307e-05	8.150094e-01	8.575741e-01	
286	2.753307e-05	8.181109e-01	8.606690e-01	

Index   time            v(4)            v(1)            
--------------------------------------------------------------------------------
287	2.763307e-05	8.212122e-01	8.637635e-01	
288	2.773307e-05	8.243131e-01	8.668577e-01	
289	2.783307e-05	8.274136e-01	8.699516e-01	
290	2.793307e-05	8.305138e-01	8.730451e-01	
291	2.803307e-05	8.336137e-01	8.761382e-01	
292	2.813307e-05	8.367132e-01	8.792311e-01	
293	2.823307e-05	8.398123e-01	8.823235e-01	
294	2.833307e-05	8.429111e-01	8.854156e-01	
295	2.843307e-05	8.460096e-01	8.885074e-01	
296	2.853307e-05	8.491077e-01	8.915988e-01	
297	2.863307e-05	8.522055e-01	8.946899e-01	
298	2.873307e-05	8.553029e-01	8.977806e-01	
299	2.883307e-05	8.583999e-01	9.008710e-01	
300	2.893307e-05	8.614966e-01	9.039610e-01	
301	2.903307e-05	8.645929e-01	9.070506e-01	
302	2.913307e-05	8.676889e-01	9.101399e-01	
303	2.923307e-05	8.707845e-01	9.132288e-01	
304	2.933307e-05	8.738798e-01	9.163174e-01	
305	2.943307e-05	8.769747e-01	9.194056e-01	
306	2.953307e-05	8.800692e-01	9.224934e-01	
307	2.963307e-05	8.831634e-01	9.255809e-01	
308	2.973307e-05	8.862572e-01	9.286680e-01	
309	2.983307e-05	8.893507e-01	9.317548e-01	
310	2.993307e-05	8.924437e-01	9.348411e-01	
311	3.003307e-05	8.955365e-01	9.379272e-01	
312	3.013307e-05	8.986288e-01	9.410128e-01	
313	3.023307e-05	9.017208e-01	9.440981e-01	
314	3.033307e-05	9.048124e-01	9.471830e-01	
315	3.043307e-05	9.079036e-01	9.502675e-01	
316	3.053307e-05	9.109945e-01	9.533516e-01	
317	3.063307e-05	9.140850e-01	9.564354e-01	
318	3.073307e-05	9.171751e-01	9.595188e-01	
319	3.083307e-05	9.202648e-01	9.626018e-01	
320	3.093307e-05	9.233542e-01	9.656844e-01	
321	3.103307e-05	9.264432e-01	9.687667e-01	
322	3.113307e-05	9.295318e-01	9.718485e-01	
323	3.123307e-05	9.326200e-01	9.749300e-01	
324	3.133307e-05	9.357078e-01	9.780111e-01	
325	3.143307e-05	9.387953e-01	9.810918e-01	
326	3.153307e-05	9.418824e-01	9.841722e-01	
327	3.163307e-05	9.449691e-01	9.872521e-01	
328	3.173307e-05	9.480554e-01	9.903317e-01	
329	3.183307e-05	9.511413e-01	9.934108e-01	
330	3.193307e-05	9.542268e-01	9.964896e-01	
331	3.203307e-05	9.573120e-01	9.995680e-01	
332	3.213307e-05	9.603967e-01	1.002646e+00	
333	3.223307e-05	9.634811e-01	1.005724e+00	
334	3.233307e-05	9.665650e-01	1.008801e+00	
335	3.243307e-05	9.696486e-01	1.011877e+00	
336	3.253307e-05	9.727318e-01	1.014954e+00	
337	3.263307e-05	9.758146e-01	1.018030e+00	
338	3.273307e-05	9.788970e-01	1.021105e+00	
339	3.283307e-05	9.819790e-01	1.024181e+00	
340	3.293307e-05	9.850606e-01	1.027255e+00	
341	3.303307e-05	9.881418e-01	1.030330e+00	
342	3.313307e-05	9.912226e-01	1.033404e+00	
343	3.323307e-05	9.943029e-01	1.036477e+00	
344	3.333307e-05	9.973829e-01	1.039550e+00	

Index   time            v(4)            v(1)            
--------------------------------------------------------------------------------
345	3.343307e-05	1.000463e+00	1.042623e+00	
346	3.353307e-05	1.003542e+00	1.045696e+00	
347	3.363307e-05	1.006620e+00	1.048767e+00	
348	3.373307e-05	1.009699e+00	1.051839e+00	
349	3.383307e-05	1.012777e+00	1.054910e+00	
350	3.393307e-05	1.015854e+00	1.057981e+00	
351	3.403307e-05	1.018931e+00	1.061051e+00	
352	3.413307e-05	1.022008e+00	1.064121e+00	
353	3.423307e-05	1.025084e+00	1.067190e+00	
354	3.433307e-05	1.028160e+00	1.070259e+00	
355	3.443307e-05	1.031236e+00	1.073328e+00	
356	3.453307e-05	1.034311e+00	1.076396e+00	
357	3.463307e-05	1.037386e+00	1.079464e+00	
358	3.473307e-05	1.040460e+00	1.082531e+00	
359	3.483307e-05	1.043534e+00	1.085598e+00	
360	3.493307e-05	1.046607e+00	1.088664e+00	
361	3.503307e-05	1.049680e+00	1.091730e+00	
362	3.513307e-05	1.052752e+00	1.094796e+00	
363	3.523307e-05	1.055825e+00	1.097861e+00	
364	3.533307e-05	1.058896e+00	1.100926e+00	
365	3.543307e-05	1.061968e+00	1.103990e+00	
366	3.553307e-05	1.065038e+00	1.107054e+00	
367	3.563307e-05	1.068109e+00	1.110117e+00	
368	3.573307e-05	1.071179e+00	1.113180e+00	
369	3.583307e-05	1.074248e+00	1.116243e+00	
370	3.593307e-05	1.077317e+00	1.119305e+00	
371	3.603307e-05	1.080386e+00	1.122366e+00	
372	3.613307e-05	1.083454e+00	1.125428e+00	
373	3.623307e-05	1.086522e+00	1.128488e+00	
374	3.633307e-05	1.089589e+00	1.131549e+00	
375	3.643307e-05	1.092656e+00	1.134608e+00	
376	3.653307e-05	1.095723e+00	1.137668e+00	
377	3.663307e-05	1.098789e+00	1.140727e+00	
378	3.673307e-05	1.101854e+00	1.143785e+00	
379	3.683307e-05	1.104920e+00	1.146843e+00	
380	3.693307e-05	1.107984e+00	1.149901e+00	
381	3.703307e-05	1.111049e+00	1.152958e+00	
382	3.713307e-05	1.114112e+00	1.156015e+00	
383	3.723307e-05	1.117176e+00	1.159071e+00	
384	3.733307e-05	1.120239e+00	1.162127e+00	
385	3.743307e-05	1.123301e+00	1.165182e+00	
386	3.753307e-05	1.126363e+00	1.168237e+00	
387	3.763307e-05	1.129425e+00	1.171291e+00	
388	3.773307e-05	1.132486e+00	1.174345e+00	
389	3.783307e-05	1.135547e+00	1.177399e+00	
390	3.793307e-05	1.138607e+00	1.180452e+00	
391	3.803307e-05	1.141667e+00	1.183504e+00	
392	3.813307e-05	1.144726e+00	1.186557e+00	
393	3.823307e-05	1.147785e+00	1.189608e+00	
394	3.833307e-05	1.150843e+00	1.192659e+00	
395	3.843307e-05	1.153901e+00	1.195710e+00	
396	3.853307e-05	1.156958e+00	1.198760e+00	
397	3.863307e-05	1.160015e+00	1.201810e+00	
398	3.873307e-05	1.163072e+00	1.204859e+00	
399	3.883307e-05	1.166128e+00	1.207908e+00	
400	3.893307e-05	1.169184e+00	1.210956e+00	
401	3.903307e-05	1.172239e+00	1.214004e+00	
402	3.913307e-05	1.175293e+00	1.217051e+00	

Index   time            v(4)            v(1)            
--------------------------------------------------------------------------------
403	3.923307e-05	1.178348e+00	1.220098e+00	
404	3.933307e-05	1.181401e+00	1.223145e+00	
405	3.943307e-05	1.184455e+00	1.226191e+00	
406	3.953307e-05	1.187507e+00	1.229236e+00	
407	3.963307e-05	1.190560e+00	1.232281e+00	
408	3.973307e-05	1.193611e+00	1.235325e+00	
409	3.983307e-05	1.196663e+00	1.238369e+00	
410	3.993307e-05	1.199714e+00	1.241413e+00	
411	4.003307e-05	1.202764e+00	1.244456e+00	
412	4.013307e-05	1.205814e+00	1.247498e+00	
413	4.023307e-05	1.208863e+00	1.250540e+00	
414	4.033307e-05	1.211912e+00	1.253582e+00	
415	4.043307e-05	1.214961e+00	1.256623e+00	
416	4.053307e-05	1.218009e+00	1.259663e+00	
417	4.063307e-05	1.221056e+00	1.262703e+00	
418	4.073307e-05	1.224103e+00	1.265743e+00	
419	4.083307e-05	1.227150e+00	1.268782e+00	
420	4.093307e-05	1.230196e+00	1.271820e+00	
