
Circuit: half-wave precision rectifier - b

Error on line 8 :
  d1 4 2
Unable to find definition of model  - default assumed
Error on line 9 :
  d2 3 4
Unable to find definition of model  - default assumed
                       half-wave precision rectifier - b
                       Transient Analysis  Thu Jan 27 15:45:56  2022
--------------------------------------------------------------------------------
Index   time            v(1)            v(3)            v(4)            
--------------------------------------------------------------------------------
0	0.000000e+00	0.000000e+00	1.562910e-06	4.121036e-01	
1	1.000000e-09	3.141593e-05	3.026606e-06	4.121037e-01	
2	2.000000e-09	6.283185e-05	4.490314e-06	4.121037e-01	
3	4.000000e-09	1.256637e-04	7.417767e-06	4.121036e-01	
4	8.000000e-09	2.513274e-04	1.327276e-05	4.121036e-01	
5	1.600000e-08	5.026548e-04	2.498276e-05	4.121029e-01	
6	3.200000e-08	1.005310e-03	4.840026e-05	4.120980e-01	
7	6.400000e-08	2.010619e-03	9.520912e-05	4.120619e-01	
8	1.069700e-07	3.360563e-03	1.579753e-04	4.119303e-01	
9	1.511335e-07	4.747999e-03	2.223467e-04	4.116642e-01	
10	2.041956e-07	6.414993e-03	2.994858e-04	4.111352e-01	
11	2.775656e-07	8.719977e-03	4.058099e-04	4.099871e-01	
12	3.775656e-07	1.186156e-02	5.502680e-04	4.075976e-01	
13	4.775656e-07	1.500314e-02	6.945250e-04	4.042309e-01	
14	5.775656e-07	1.814472e-02	8.389149e-04	3.998775e-01	
15	6.775656e-07	2.128629e-02	9.837030e-04	3.945356e-01	
16	7.775656e-07	2.442785e-02	1.129064e-03	3.882051e-01	
17	8.775656e-07	2.756940e-02	1.275074e-03	3.808858e-01	
18	9.775656e-07	3.071094e-02	1.421727e-03	3.725776e-01	
19	1.077566e-06	3.385246e-02	1.568957e-03	3.632806e-01	
20	1.177566e-06	3.699398e-02	1.716669e-03	3.529960e-01	
21	1.277566e-06	4.013548e-02	1.864755e-03	3.417259e-01	
22	1.377566e-06	4.327696e-02	2.013117e-03	3.294737e-01	
23	1.477566e-06	4.641843e-02	2.161670e-03	3.162440e-01	
24	1.577566e-06	4.955987e-02	2.310352e-03	3.020426e-01	
25	1.677566e-06	5.270130e-02	2.459116e-03	2.868761e-01	
26	1.777566e-06	5.584271e-02	2.607932e-03	2.707524e-01	
27	1.877566e-06	5.898410e-02	2.756780e-03	2.536797e-01	
28	1.977566e-06	6.212546e-02	2.905649e-03	2.356674e-01	
29	2.077566e-06	6.526680e-02	3.054531e-03	2.167250e-01	
30	2.177566e-06	6.840811e-02	3.203425e-03	1.968631e-01	
31	2.277566e-06	7.154939e-02	3.352328e-03	1.760924e-01	
32	2.377566e-06	7.469065e-02	3.501240e-03	1.544243e-01	
33	2.477566e-06	7.783188e-02	3.650160e-03	1.318707e-01	
34	2.577566e-06	8.097307e-02	3.799089e-03	1.084439e-01	
35	2.677566e-06	8.411424e-02	3.948027e-03	8.415671e-02	
36	2.777566e-06	8.725537e-02	4.096973e-03	5.902234e-02	
37	2.877566e-06	9.039647e-02	4.245929e-03	3.305444e-02	
38	2.977566e-06	9.353753e-02	4.394894e-03	6.267046e-03	
39	3.077566e-06	9.667855e-02	4.543869e-03	-2.13254e-02	
40	3.177566e-06	9.981954e-02	4.692853e-03	-4.97081e-02	
41	3.277566e-06	1.029605e-01	4.841848e-03	-7.88659e-02	
42	3.377566e-06	1.061014e-01	4.990852e-03	-1.08783e-01	
43	3.477566e-06	1.092423e-01	5.139866e-03	-1.39444e-01	
44	3.577566e-06	1.123831e-01	5.288885e-03	-1.70833e-01	
45	3.677566e-06	1.155239e-01	5.437900e-03	-2.02934e-01	
46	3.777566e-06	1.186646e-01	5.586870e-03	-2.35729e-01	
47	3.877566e-06	1.218053e-01	5.735641e-03	-2.69202e-01	
48	3.977566e-06	1.249459e-01	5.883622e-03	-3.03337e-01	
49	4.077566e-06	1.280865e-01	6.028467e-03	-3.38114e-01	
50	4.177566e-06	1.312270e-01	6.160691e-03	-3.73518e-01	
51	4.277566e-06	1.343675e-01	6.241232e-03	-4.09524e-01	
52	4.377566e-06	1.375079e-01	6.108541e-03	-4.46097e-01	
53	4.477566e-06	1.406483e-01	5.126693e-03	-4.83145e-01	
54	4.577566e-06	1.437886e-01	1.302427e-03	-5.20398e-01	

Index   time            v(1)            v(3)            v(4)            
--------------------------------------------------------------------------------
55	4.677566e-06	1.469289e-01	-8.59968e-03	-5.57256e-01	
56	4.777566e-06	1.500691e-01	-2.52356e-02	-5.92854e-01	
57	4.877566e-06	1.532093e-01	-4.57938e-02	-6.26215e-01	
58	4.977566e-06	1.563493e-01	-6.71692e-02	-6.56400e-01	
59	5.077566e-06	1.594894e-01	-8.72898e-02	-6.82741e-01	
60	5.177566e-06	1.626293e-01	-1.05016e-01	-7.04992e-01	
61	5.277566e-06	1.657692e-01	-1.20078e-01	-7.23304e-01	
62	5.377566e-06	1.689091e-01	-1.32487e-01	-7.38116e-01	
63	5.477566e-06	1.720488e-01	-1.42571e-01	-7.50012e-01	
64	5.577566e-06	1.751885e-01	-1.50769e-01	-7.59602e-01	
65	5.677566e-06	1.783282e-01	-1.57513e-01	-7.67441e-01	
66	5.777566e-06	1.814677e-01	-1.63176e-01	-7.73994e-01	
67	5.877566e-06	1.846072e-01	-1.68061e-01	-7.79625e-01	
68	5.977566e-06	1.877466e-01	-1.72394e-01	-7.84607e-01	
69	6.077566e-06	1.908860e-01	-1.76347e-01	-7.89137e-01	
70	6.177566e-06	1.940252e-01	-1.80037e-01	-7.93358e-01	
71	6.277566e-06	1.971644e-01	-1.83550e-01	-7.97367e-01	
72	6.377566e-06	2.003035e-01	-1.86945e-01	-8.01232e-01	
73	6.477566e-06	2.034425e-01	-1.90259e-01	-8.04999e-01	
74	6.577566e-06	2.065815e-01	-1.93521e-01	-8.08698e-01	
75	6.677566e-06	2.097204e-01	-1.96747e-01	-8.12351e-01	
76	6.777566e-06	2.128592e-01	-1.99950e-01	-8.15970e-01	
77	6.877566e-06	2.159979e-01	-2.03138e-01	-8.19566e-01	
78	6.977566e-06	2.191365e-01	-2.06316e-01	-8.23143e-01	
79	7.077566e-06	2.222750e-01	-2.09487e-01	-8.26707e-01	
80	7.177566e-06	2.254134e-01	-2.12653e-01	-8.30260e-01	
81	7.277566e-06	2.285518e-01	-2.15815e-01	-8.33804e-01	
82	7.377566e-06	2.316901e-01	-2.18976e-01	-8.37339e-01	
83	7.477566e-06	2.348282e-01	-2.22135e-01	-8.40867e-01	
84	7.577566e-06	2.379663e-01	-2.25292e-01	-8.44389e-01	
85	7.677566e-06	2.411043e-01	-2.28449e-01	-8.47904e-01	
86	7.777566e-06	2.442422e-01	-2.31604e-01	-8.51414e-01	
87	7.877566e-06	2.473800e-01	-2.34759e-01	-8.54918e-01	
88	7.977566e-06	2.505177e-01	-2.37913e-01	-8.58416e-01	
89	8.077566e-06	2.536553e-01	-2.41067e-01	-8.61909e-01	
90	8.177566e-06	2.567928e-01	-2.44220e-01	-8.65398e-01	
91	8.277566e-06	2.599302e-01	-2.47372e-01	-8.68881e-01	
92	8.377566e-06	2.630675e-01	-2.50524e-01	-8.72360e-01	
93	8.477566e-06	2.662047e-01	-2.53676e-01	-8.75834e-01	
94	8.577566e-06	2.693417e-01	-2.56827e-01	-8.79304e-01	
95	8.677566e-06	2.724787e-01	-2.59977e-01	-8.82769e-01	
96	8.777566e-06	2.756156e-01	-2.63127e-01	-8.86230e-01	
97	8.877566e-06	2.787523e-01	-2.66277e-01	-8.89687e-01	
98	8.977566e-06	2.818890e-01	-2.69426e-01	-8.93139e-01	
99	9.077566e-06	2.850255e-01	-2.72575e-01	-8.96588e-01	
100	9.177566e-06	2.881620e-01	-2.75724e-01	-9.00033e-01	
101	9.277566e-06	2.912983e-01	-2.78872e-01	-9.03474e-01	
102	9.377566e-06	2.944345e-01	-2.82020e-01	-9.06912e-01	
103	9.477566e-06	2.975706e-01	-2.85167e-01	-9.10345e-01	
104	9.577566e-06	3.007065e-01	-2.88314e-01	-9.13776e-01	
105	9.677566e-06	3.038424e-01	-2.91461e-01	-9.17203e-01	
106	9.777566e-06	3.069781e-01	-2.94607e-01	-9.20626e-01	
107	9.877566e-06	3.101137e-01	-2.97753e-01	-9.24046e-01	
108	9.977566e-06	3.132492e-01	-3.00898e-01	-9.27463e-01	
109	1.007757e-05	3.163845e-01	-3.04044e-01	-9.30877e-01	
110	1.017757e-05	3.195198e-01	-3.07189e-01	-9.34287e-01	
111	1.027757e-05	3.226549e-01	-3.10333e-01	-9.37695e-01	
112	1.037757e-05	3.257899e-01	-3.13478e-01	-9.41100e-01	

Index   time            v(1)            v(3)            v(4)            
--------------------------------------------------------------------------------
113	1.047757e-05	3.289247e-01	-3.16622e-01	-9.44501e-01	
114	1.057757e-05	3.320594e-01	-3.19765e-01	-9.47900e-01	
115	1.067757e-05	3.351940e-01	-3.22909e-01	-9.51296e-01	
116	1.077757e-05	3.383285e-01	-3.26052e-01	-9.54689e-01	
117	1.087757e-05	3.414628e-01	-3.29195e-01	-9.58080e-01	
118	1.097757e-05	3.445970e-01	-3.32337e-01	-9.61468e-01	
119	1.107757e-05	3.477311e-01	-3.35480e-01	-9.64853e-01	
120	1.117757e-05	3.508650e-01	-3.38621e-01	-9.68236e-01	
121	1.127757e-05	3.539988e-01	-3.41763e-01	-9.71616e-01	
122	1.137757e-05	3.571324e-01	-3.44905e-01	-9.74994e-01	
123	1.147757e-05	3.602659e-01	-3.48046e-01	-9.78369e-01	
124	1.157757e-05	3.633993e-01	-3.51187e-01	-9.81742e-01	
125	1.167757e-05	3.665325e-01	-3.54327e-01	-9.85112e-01	
126	1.177757e-05	3.696655e-01	-3.57468e-01	-9.88480e-01	
127	1.187757e-05	3.727985e-01	-3.60608e-01	-9.91846e-01	
128	1.197757e-05	3.759312e-01	-3.63747e-01	-9.95210e-01	
129	1.207757e-05	3.790639e-01	-3.66887e-01	-9.98571e-01	
130	1.217757e-05	3.821963e-01	-3.70026e-01	-1.00193e+00	
131	1.227757e-05	3.853287e-01	-3.73165e-01	-1.00529e+00	
132	1.237757e-05	3.884608e-01	-3.76304e-01	-1.00864e+00	
133	1.247757e-05	3.915929e-01	-3.79443e-01	-1.01200e+00	
134	1.257757e-05	3.947247e-01	-3.82581e-01	-1.01535e+00	
135	1.267757e-05	3.978564e-01	-3.85719e-01	-1.01870e+00	
136	1.277757e-05	4.009880e-01	-3.88857e-01	-1.02204e+00	
137	1.287757e-05	4.041194e-01	-3.91994e-01	-1.02539e+00	
138	1.297757e-05	4.072506e-01	-3.95131e-01	-1.02873e+00	
139	1.307757e-05	4.103817e-01	-3.98268e-01	-1.03207e+00	
140	1.317757e-05	4.135126e-01	-4.01405e-01	-1.03541e+00	
141	1.327757e-05	4.166433e-01	-4.04542e-01	-1.03875e+00	
142	1.337757e-05	4.197739e-01	-4.07678e-01	-1.04209e+00	
143	1.347757e-05	4.229043e-01	-4.10814e-01	-1.04542e+00	
144	1.357757e-05	4.260346e-01	-4.13950e-01	-1.04875e+00	
145	1.367757e-05	4.291647e-01	-4.17085e-01	-1.05208e+00	
146	1.377757e-05	4.322946e-01	-4.20221e-01	-1.05541e+00	
147	1.387757e-05	4.354243e-01	-4.23356e-01	-1.05874e+00	
148	1.397757e-05	4.385539e-01	-4.26491e-01	-1.06206e+00	
149	1.407757e-05	4.416833e-01	-4.29625e-01	-1.06539e+00	
150	1.417757e-05	4.448125e-01	-4.32760e-01	-1.06871e+00	
151	1.427757e-05	4.479416e-01	-4.35894e-01	-1.07203e+00	
152	1.437757e-05	4.510704e-01	-4.39028e-01	-1.07535e+00	
153	1.447757e-05	4.541991e-01	-4.42161e-01	-1.07867e+00	
154	1.457757e-05	4.573277e-01	-4.45295e-01	-1.08198e+00	
155	1.467757e-05	4.604560e-01	-4.48428e-01	-1.08530e+00	
156	1.477757e-05	4.635841e-01	-4.51561e-01	-1.08861e+00	
157	1.487757e-05	4.667121e-01	-4.54694e-01	-1.09192e+00	
158	1.497757e-05	4.698399e-01	-4.57826e-01	-1.09523e+00	
159	1.507757e-05	4.729675e-01	-4.60958e-01	-1.09854e+00	
160	1.517757e-05	4.760949e-01	-4.64090e-01	-1.10185e+00	
161	1.527757e-05	4.792221e-01	-4.67222e-01	-1.10515e+00	
162	1.537757e-05	4.823492e-01	-4.70353e-01	-1.10846e+00	
163	1.547757e-05	4.854760e-01	-4.73485e-01	-1.11176e+00	
164	1.557757e-05	4.886027e-01	-4.76616e-01	-1.11506e+00	
165	1.567757e-05	4.917291e-01	-4.79746e-01	-1.11836e+00	
166	1.577757e-05	4.948554e-01	-4.82877e-01	-1.12166e+00	
167	1.587757e-05	4.979815e-01	-4.86007e-01	-1.12495e+00	
168	1.597757e-05	5.011073e-01	-4.89137e-01	-1.12825e+00	
169	1.607757e-05	5.042330e-01	-4.92267e-01	-1.13155e+00	
170	1.617757e-05	5.073585e-01	-4.95397e-01	-1.13484e+00	

Index   time            v(1)            v(3)            v(4)            
--------------------------------------------------------------------------------
171	1.627757e-05	5.104838e-01	-4.98526e-01	-1.13813e+00	
172	1.637757e-05	5.136088e-01	-5.01655e-01	-1.14142e+00	
173	1.647757e-05	5.167337e-01	-5.04784e-01	-1.14471e+00	
174	1.657757e-05	5.198584e-01	-5.07913e-01	-1.14800e+00	
175	1.667757e-05	5.229828e-01	-5.11041e-01	-1.15129e+00	
176	1.677757e-05	5.261071e-01	-5.14169e-01	-1.15457e+00	
177	1.687757e-05	5.292311e-01	-5.17297e-01	-1.15786e+00	
178	1.697757e-05	5.323550e-01	-5.20425e-01	-1.16114e+00	
179	1.707757e-05	5.354786e-01	-5.23552e-01	-1.16442e+00	
180	1.717757e-05	5.386020e-01	-5.26679e-01	-1.16770e+00	
181	1.727757e-05	5.417252e-01	-5.29806e-01	-1.17098e+00	
182	1.737757e-05	5.448482e-01	-5.32933e-01	-1.17426e+00	
183	1.747757e-05	5.479710e-01	-5.36059e-01	-1.17754e+00	
184	1.757757e-05	5.510936e-01	-5.39186e-01	-1.18082e+00	
185	1.767757e-05	5.542159e-01	-5.42312e-01	-1.18409e+00	
186	1.777757e-05	5.573380e-01	-5.45437e-01	-1.18737e+00	
187	1.787757e-05	5.604599e-01	-5.48563e-01	-1.19064e+00	
188	1.797757e-05	5.635816e-01	-5.51688e-01	-1.19391e+00	
189	1.807757e-05	5.667031e-01	-5.54813e-01	-1.19718e+00	
190	1.817757e-05	5.698243e-01	-5.57937e-01	-1.20045e+00	
191	1.827757e-05	5.729453e-01	-5.61062e-01	-1.20372e+00	
192	1.837757e-05	5.760661e-01	-5.64186e-01	-1.20699e+00	
193	1.847757e-05	5.791867e-01	-5.67310e-01	-1.21025e+00	
194	1.857757e-05	5.823070e-01	-5.70434e-01	-1.21352e+00	
195	1.867757e-05	5.854271e-01	-5.73557e-01	-1.21678e+00	
196	1.877757e-05	5.885470e-01	-5.76680e-01	-1.22005e+00	
197	1.887757e-05	5.916666e-01	-5.79803e-01	-1.22331e+00	
198	1.897757e-05	5.947860e-01	-5.82926e-01	-1.22657e+00	
199	1.907757e-05	5.979052e-01	-5.86048e-01	-1.22983e+00	
200	1.917757e-05	6.010241e-01	-5.89170e-01	-1.23309e+00	
201	1.927757e-05	6.041428e-01	-5.92292e-01	-1.23635e+00	
202	1.937757e-05	6.072613e-01	-5.95414e-01	-1.23961e+00	
203	1.947757e-05	6.103795e-01	-5.98535e-01	-1.24286e+00	
204	1.957757e-05	6.134975e-01	-6.01656e-01	-1.24612e+00	
205	1.967757e-05	6.166152e-01	-6.04777e-01	-1.24937e+00	
206	1.977757e-05	6.197327e-01	-6.07898e-01	-1.25263e+00	
207	1.987757e-05	6.228499e-01	-6.11018e-01	-1.25588e+00	
208	1.997757e-05	6.259669e-01	-6.14138e-01	-1.25913e+00	
209	2.007757e-05	6.290837e-01	-6.17258e-01	-1.26238e+00	
210	2.017757e-05	6.322002e-01	-6.20377e-01	-1.26563e+00	
211	2.027757e-05	6.353164e-01	-6.23496e-01	-1.26888e+00	
212	2.037757e-05	6.384324e-01	-6.26615e-01	-1.27213e+00	
213	2.047757e-05	6.415482e-01	-6.29734e-01	-1.27538e+00	
214	2.057757e-05	6.446637e-01	-6.32852e-01	-1.27862e+00	
215	2.067757e-05	6.477789e-01	-6.35971e-01	-1.28187e+00	
216	2.077757e-05	6.508939e-01	-6.39089e-01	-1.28511e+00	
217	2.087757e-05	6.540086e-01	-6.42206e-01	-1.28836e+00	
218	2.097757e-05	6.571231e-01	-6.45323e-01	-1.29160e+00	
219	2.107757e-05	6.602373e-01	-6.48441e-01	-1.29484e+00	
220	2.117757e-05	6.633513e-01	-6.51557e-01	-1.29808e+00	
221	2.127757e-05	6.664650e-01	-6.54674e-01	-1.30132e+00	
222	2.137757e-05	6.695784e-01	-6.57790e-01	-1.30456e+00	
223	2.147757e-05	6.726916e-01	-6.60906e-01	-1.30780e+00	
224	2.157757e-05	6.758045e-01	-6.64022e-01	-1.31103e+00	
225	2.167757e-05	6.789171e-01	-6.67137e-01	-1.31427e+00	
226	2.177757e-05	6.820295e-01	-6.70252e-01	-1.31751e+00	
227	2.187757e-05	6.851416e-01	-6.73367e-01	-1.32074e+00	
228	2.197757e-05	6.882534e-01	-6.76482e-01	-1.32397e+00	

Index   time            v(1)            v(3)            v(4)            
--------------------------------------------------------------------------------
229	2.207757e-05	6.913649e-01	-6.79596e-01	-1.32721e+00	
230	2.217757e-05	6.944762e-01	-6.82710e-01	-1.33044e+00	
231	2.227757e-05	6.975872e-01	-6.85823e-01	-1.33367e+00	
232	2.237757e-05	7.006979e-01	-6.88937e-01	-1.33690e+00	
233	2.247757e-05	7.038084e-01	-6.92050e-01	-1.34013e+00	
234	2.257757e-05	7.069186e-01	-6.95163e-01	-1.34336e+00	
235	2.267757e-05	7.100285e-01	-6.98275e-01	-1.34659e+00	
236	2.277757e-05	7.131381e-01	-7.01387e-01	-1.34981e+00	
237	2.287757e-05	7.162474e-01	-7.04499e-01	-1.35304e+00	
238	2.297757e-05	7.193565e-01	-7.07611e-01	-1.35627e+00	
239	2.307757e-05	7.224652e-01	-7.10722e-01	-1.35949e+00	
240	2.317757e-05	7.255737e-01	-7.13833e-01	-1.36272e+00	
241	2.327757e-05	7.286819e-01	-7.16944e-01	-1.36594e+00	
242	2.337757e-05	7.317898e-01	-7.20055e-01	-1.36916e+00	
243	2.347757e-05	7.348974e-01	-7.23165e-01	-1.37238e+00	
244	2.357757e-05	7.380048e-01	-7.26275e-01	-1.37560e+00	
245	2.367757e-05	7.411118e-01	-7.29384e-01	-1.37882e+00	
246	2.377757e-05	7.442185e-01	-7.32494e-01	-1.38204e+00	
247	2.387757e-05	7.473250e-01	-7.35603e-01	-1.38526e+00	
248	2.397757e-05	7.504311e-01	-7.38711e-01	-1.38848e+00	
249	2.407757e-05	7.535370e-01	-7.41820e-01	-1.39170e+00	
250	2.417757e-05	7.566426e-01	-7.44928e-01	-1.39491e+00	
251	2.427757e-05	7.597478e-01	-7.48035e-01	-1.39813e+00	
252	2.437757e-05	7.628528e-01	-7.51143e-01	-1.40134e+00	
253	2.447757e-05	7.659574e-01	-7.54250e-01	-1.40456e+00	
254	2.457757e-05	7.690618e-01	-7.57357e-01	-1.40777e+00	
255	2.467757e-05	7.721659e-01	-7.60463e-01	-1.41098e+00	
256	2.477757e-05	7.752696e-01	-7.63569e-01	-1.41419e+00	
257	2.487757e-05	7.783731e-01	-7.66675e-01	-1.41740e+00	
258	2.497757e-05	7.814762e-01	-7.69781e-01	-1.42061e+00	
259	2.507757e-05	7.845790e-01	-7.72886e-01	-1.42382e+00	
260	2.517757e-05	7.876815e-01	-7.75991e-01	-1.42703e+00	
261	2.527757e-05	7.907838e-01	-7.79096e-01	-1.43024e+00	
262	2.537757e-05	7.938857e-01	-7.82200e-01	-1.43345e+00	
263	2.547757e-05	7.969872e-01	-7.85304e-01	-1.43665e+00	
264	2.557757e-05	8.000885e-01	-7.88407e-01	-1.43986e+00	
265	2.567757e-05	8.031895e-01	-7.91511e-01	-1.44306e+00	
266	2.577757e-05	8.062901e-01	-7.94614e-01	-1.44627e+00	
267	2.587757e-05	8.093904e-01	-7.97716e-01	-1.44947e+00	
268	2.597757e-05	8.124904e-01	-8.00819e-01	-1.45267e+00	
269	2.607757e-05	8.155901e-01	-8.03921e-01	-1.45587e+00	
270	2.617757e-05	8.186894e-01	-8.07022e-01	-1.45908e+00	
271	2.627757e-05	8.217885e-01	-8.10124e-01	-1.46228e+00	
272	2.637757e-05	8.248872e-01	-8.13225e-01	-1.46548e+00	
273	2.647757e-05	8.279856e-01	-8.16326e-01	-1.46868e+00	
274	2.657757e-05	8.310836e-01	-8.19426e-01	-1.47187e+00	
275	2.667757e-05	8.341813e-01	-8.22526e-01	-1.47507e+00	
276	2.677757e-05	8.372787e-01	-8.25626e-01	-1.47827e+00	
277	2.687757e-05	8.403758e-01	-8.28725e-01	-1.48146e+00	
278	2.697757e-05	8.434725e-01	-8.31824e-01	-1.48466e+00	
279	2.707757e-05	8.465689e-01	-8.34923e-01	-1.48785e+00	
280	2.717757e-05	8.496650e-01	-8.38021e-01	-1.49105e+00	
281	2.727757e-05	8.527607e-01	-8.41119e-01	-1.49424e+00	
282	2.737757e-05	8.558561e-01	-8.44217e-01	-1.49743e+00	
283	2.747757e-05	8.589512e-01	-8.47314e-01	-1.50063e+00	
284	2.757757e-05	8.620459e-01	-8.50411e-01	-1.50382e+00	
285	2.767757e-05	8.651403e-01	-8.53508e-01	-1.50701e+00	
286	2.777757e-05	8.682343e-01	-8.56604e-01	-1.51020e+00	

Index   time            v(1)            v(3)            v(4)            
--------------------------------------------------------------------------------
287	2.787757e-05	8.713280e-01	-8.59700e-01	-1.51339e+00	
288	2.797757e-05	8.744214e-01	-8.62796e-01	-1.51658e+00	
289	2.807757e-05	8.775144e-01	-8.65891e-01	-1.51976e+00	
290	2.817757e-05	8.806070e-01	-8.68986e-01	-1.52295e+00	
291	2.827757e-05	8.836993e-01	-8.72080e-01	-1.52614e+00	
292	2.837757e-05	8.867913e-01	-8.75174e-01	-1.52932e+00	
293	2.847757e-05	8.898829e-01	-8.78268e-01	-1.53251e+00	
294	2.857757e-05	8.929742e-01	-8.81362e-01	-1.53569e+00	
295	2.867757e-05	8.960651e-01	-8.84455e-01	-1.53888e+00	
296	2.877757e-05	8.991556e-01	-8.87548e-01	-1.54206e+00	
297	2.887757e-05	9.022458e-01	-8.90640e-01	-1.54524e+00	
298	2.897757e-05	9.053357e-01	-8.93732e-01	-1.54842e+00	
299	2.907757e-05	9.084252e-01	-8.96824e-01	-1.55160e+00	
300	2.917757e-05	9.115143e-01	-8.99915e-01	-1.55478e+00	
301	2.927757e-05	9.146031e-01	-9.03006e-01	-1.55796e+00	
302	2.937757e-05	9.176915e-01	-9.06097e-01	-1.56114e+00	
303	2.947757e-05	9.207795e-01	-9.09187e-01	-1.56432e+00	
304	2.957757e-05	9.238672e-01	-9.12277e-01	-1.56750e+00	
305	2.967757e-05	9.269545e-01	-9.15366e-01	-1.57068e+00	
306	2.977757e-05	9.300415e-01	-9.18455e-01	-1.57385e+00	
307	2.987757e-05	9.331280e-01	-9.21544e-01	-1.57703e+00	
308	2.997757e-05	9.362143e-01	-9.24633e-01	-1.58020e+00	
309	3.007757e-05	9.393001e-01	-9.27721e-01	-1.58338e+00	
310	3.017757e-05	9.423856e-01	-9.30808e-01	-1.58655e+00	
311	3.027757e-05	9.454707e-01	-9.33896e-01	-1.58972e+00	
312	3.037757e-05	9.485554e-01	-9.36983e-01	-1.59290e+00	
313	3.047757e-05	9.516398e-01	-9.40069e-01	-1.59607e+00	
314	3.057757e-05	9.547237e-01	-9.43155e-01	-1.59924e+00	
315	3.067757e-05	9.578073e-01	-9.46241e-01	-1.60241e+00	
316	3.077757e-05	9.608906e-01	-9.49326e-01	-1.60558e+00	
317	3.087757e-05	9.639734e-01	-9.52411e-01	-1.60875e+00	
318	3.097757e-05	9.670559e-01	-9.55496e-01	-1.61191e+00	
319	3.107757e-05	9.701379e-01	-9.58580e-01	-1.61508e+00	
320	3.117757e-05	9.732196e-01	-9.61664e-01	-1.61825e+00	
321	3.127757e-05	9.763010e-01	-9.64748e-01	-1.62142e+00	
322	3.137757e-05	9.793819e-01	-9.67831e-01	-1.62458e+00	
323	3.147757e-05	9.824624e-01	-9.70913e-01	-1.62775e+00	
324	3.157757e-05	9.855426e-01	-9.73996e-01	-1.63091e+00	
325	3.167757e-05	9.886223e-01	-9.77078e-01	-1.63407e+00	
326	3.177757e-05	9.917017e-01	-9.80159e-01	-1.63724e+00	
327	3.187757e-05	9.947807e-01	-9.83240e-01	-1.64040e+00	
328	3.197757e-05	9.978593e-01	-9.86321e-01	-1.64356e+00	
