
Circuit: half-wave precision rectifier - a

Error on line 8 :
  d1 2 4
Unable to find definition of model  - default assumed
Error on line 9 :
  d2 4 3
Unable to find definition of model  - default assumed
                       half-wave precision rectifier - a
                       Transient Analysis  Thu Jan 27 15:44:10  2022
--------------------------------------------------------------------------------
Index   time            v(1)            v(3)            v(4)            
--------------------------------------------------------------------------------
0	0.000000e+00	0.000000e+00	8.313345e-04	4.749203e-01	
1	1.000000e-09	3.141593e-05	8.327744e-04	4.749203e-01	
2	2.000000e-09	6.283185e-05	8.342141e-04	4.749203e-01	
3	4.000000e-09	1.256637e-04	8.370935e-04	4.749203e-01	
4	8.000000e-09	2.513274e-04	8.428504e-04	4.749202e-01	
5	1.600000e-08	5.026548e-04	8.543484e-04	4.749196e-01	
6	3.200000e-08	1.005310e-03	8.772245e-04	4.749146e-01	
7	6.400000e-08	2.010619e-03	9.221161e-04	4.748780e-01	
8	1.066251e-07	3.349727e-03	9.792535e-04	4.747462e-01	
9	1.506179e-07	4.731800e-03	1.034099e-03	4.744791e-01	
10	2.034501e-07	6.391570e-03	1.093587e-03	4.739485e-01	
11	2.765284e-07	8.687390e-03	1.164033e-03	4.727971e-01	
12	3.765284e-07	1.182898e-02	1.240595e-03	4.703903e-01	
13	4.765284e-07	1.497056e-02	1.299311e-03	4.669993e-01	
14	5.765284e-07	1.811213e-02	1.349621e-03	4.626172e-01	
15	6.765284e-07	2.125370e-02	1.398352e-03	4.572455e-01	
16	7.765284e-07	2.439526e-02	1.452899e-03	4.508867e-01	
17	8.765284e-07	2.753681e-02	1.518277e-03	4.435430e-01	
18	9.765284e-07	3.067835e-02	1.597159e-03	4.352153e-01	
19	1.076528e-06	3.381988e-02	1.690627e-03	4.259046e-01	
20	1.176528e-06	3.696139e-02	1.797661e-03	4.156116e-01	
21	1.276528e-06	4.010289e-02	1.916414e-03	4.043380e-01	
22	1.376528e-06	4.324437e-02	2.044580e-03	3.920862e-01	
23	1.476528e-06	4.638584e-02	2.179840e-03	3.788599e-01	
24	1.576528e-06	4.952729e-02	2.320146e-03	3.646641e-01	
25	1.676528e-06	5.266872e-02	2.463854e-03	3.495048e-01	
26	1.776528e-06	5.581013e-02	2.609741e-03	3.333892e-01	
27	1.876528e-06	5.895151e-02	2.756961e-03	3.163252e-01	
28	1.976528e-06	6.209287e-02	2.904960e-03	2.983219e-01	
29	2.076528e-06	6.523421e-02	3.053397e-03	2.793887e-01	
30	2.176528e-06	6.837552e-02	3.202070e-03	2.595359e-01	
31	2.276528e-06	7.151681e-02	3.350868e-03	2.387743e-01	
32	2.376528e-06	7.465807e-02	3.499732e-03	2.171152e-01	
33	2.476528e-06	7.779929e-02	3.648631e-03	1.945705e-01	
34	2.576528e-06	8.094049e-02	3.797550e-03	1.711525e-01	
35	2.676528e-06	8.408165e-02	3.946484e-03	1.468740e-01	
36	2.776528e-06	8.722279e-02	4.095429e-03	1.217481e-01	
37	2.876528e-06	9.036388e-02	4.244384e-03	9.578860e-02	
38	2.976528e-06	9.350495e-02	4.393349e-03	6.900944e-02	
39	3.076528e-06	9.664597e-02	4.542324e-03	4.142507e-02	
40	3.176528e-06	9.978696e-02	4.691308e-03	1.305030e-02	
41	3.276528e-06	1.029279e-01	4.840303e-03	-1.60997e-02	
42	3.376528e-06	1.060688e-01	4.989307e-03	-4.60095e-02	
43	3.476528e-06	1.092097e-01	5.138322e-03	-7.66633e-02	
44	3.576528e-06	1.123505e-01	5.287345e-03	-1.08045e-01	
45	3.676528e-06	1.154913e-01	5.436373e-03	-1.40138e-01	
46	3.776528e-06	1.186320e-01	5.585390e-03	-1.72926e-01	
47	3.876528e-06	1.217727e-01	5.734330e-03	-2.06393e-01	
48	3.976528e-06	1.249133e-01	5.882924e-03	-2.40520e-01	
49	4.076528e-06	1.280539e-01	6.030052e-03	-2.75289e-01	
50	4.176528e-06	1.311944e-01	6.170946e-03	-3.10674e-01	
51	4.276528e-06	1.343349e-01	6.285374e-03	-3.46628e-01	
52	4.376528e-06	1.374754e-01	6.293817e-03	-3.83005e-01	
53	4.476528e-06	1.406157e-01	5.968469e-03	-4.19339e-01	
54	4.576528e-06	1.437561e-01	5.046313e-03	-4.54424e-01	

Index   time            v(1)            v(3)            v(4)            
--------------------------------------------------------------------------------
55	4.676528e-06	1.468963e-01	3.659516e-03	-4.86118e-01	
56	4.776528e-06	1.500365e-01	2.235637e-03	-5.11943e-01	
57	4.876528e-06	1.531767e-01	1.110748e-03	-5.30361e-01	
58	4.951625e-06	1.555348e-01	5.428630e-04	-5.39335e-01	
59	5.037134e-06	1.582198e-01	1.581060e-04	-5.45449e-01	
60	5.116505e-06	1.607121e-01	-1.03701e-05	-5.48298e-01	
61	5.178031e-06	1.626439e-01	-5.80551e-05	-5.49294e-01	
62	5.217029e-06	1.638685e-01	-6.47937e-05	-5.49583e-01	
63	5.252145e-06	1.649710e-01	-6.09758e-05	-5.49701e-01	
64	5.295999e-06	1.663480e-01	-4.81795e-05	-5.49733e-01	
65	5.337624e-06	1.676550e-01	-3.14229e-05	-5.49696e-01	
66	5.385547e-06	1.691596e-01	-1.03623e-05	-5.49627e-01	
67	5.432554e-06	1.706356e-01	9.644216e-06	-5.49568e-01	
68	5.487671e-06	1.723661e-01	3.017075e-05	-5.49540e-01	
69	5.545301e-06	1.741755e-01	4.719633e-05	-5.49571e-01	
70	5.615723e-06	1.763865e-01	6.170681e-05	-5.49696e-01	
71	5.697114e-06	1.789419e-01	7.114120e-05	-5.49939e-01	
72	5.797114e-06	1.820814e-01	7.522689e-05	-5.50337e-01	
73	5.897114e-06	1.852209e-01	7.461169e-05	-5.50794e-01	
74	5.997114e-06	1.883603e-01	7.217245e-05	-5.51268e-01	
75	6.097114e-06	1.914996e-01	6.951821e-05	-5.51738e-01	
76	6.197114e-06	1.946389e-01	6.729988e-05	-5.52194e-01	
77	6.297114e-06	1.977781e-01	6.562453e-05	-5.52636e-01	
78	6.397114e-06	2.009172e-01	6.436738e-05	-5.53065e-01	
79	6.497114e-06	2.040562e-01	6.336247e-05	-5.53484e-01	
80	6.597114e-06	2.071951e-01	6.247814e-05	-5.53895e-01	
81	6.697114e-06	2.103340e-01	6.163930e-05	-5.54299e-01	
82	6.797114e-06	2.134727e-01	6.081169e-05	-5.54698e-01	
83	6.897114e-06	2.166114e-01	5.998912e-05	-5.55090e-01	
84	6.997114e-06	2.197500e-01	5.917420e-05	-5.55477e-01	
85	7.097114e-06	2.228885e-01	5.837434e-05	-5.55858e-01	
86	7.197114e-06	2.260270e-01	5.759315e-05	-5.56233e-01	
87	7.297114e-06	2.291653e-01	5.683416e-05	-5.56603e-01	
88	7.397114e-06	2.323035e-01	5.609672e-05	-5.56968e-01	
89	7.497114e-06	2.354417e-01	5.538130e-05	-5.57327e-01	
90	7.597114e-06	2.385798e-01	5.468570e-05	-5.57682e-01	
91	7.697114e-06	2.417177e-01	5.400987e-05	-5.58032e-01	
92	7.797114e-06	2.448556e-01	5.335167e-05	-5.58377e-01	
93	7.897114e-06	2.479934e-01	5.271135e-05	-5.58717e-01	
94	7.997114e-06	2.511310e-01	5.208706e-05	-5.59053e-01	
95	8.097114e-06	2.542686e-01	5.147924e-05	-5.59385e-01	
96	8.197114e-06	2.574061e-01	5.088621e-05	-5.59712e-01	
97	8.297114e-06	2.605435e-01	5.030848e-05	-5.60035e-01	
98	8.397114e-06	2.636807e-01	4.974446e-05	-5.60354e-01	
99	8.497114e-06	2.668179e-01	4.919466e-05	-5.60670e-01	
100	8.597114e-06	2.699550e-01	4.865757e-05	-5.60981e-01	
101	8.697114e-06	2.730919e-01	4.813372e-05	-5.61289e-01	
102	8.797114e-06	2.762288e-01	4.762167e-05	-5.61593e-01	
103	8.897114e-06	2.793655e-01	4.712196e-05	-5.61893e-01	
104	8.997114e-06	2.825022e-01	4.663321e-05	-5.62190e-01	
105	9.097114e-06	2.856387e-01	4.615600e-05	-5.62484e-01	
106	9.197114e-06	2.887751e-01	4.568899e-05	-5.62774e-01	
107	9.297114e-06	2.919114e-01	4.523278e-05	-5.63061e-01	
108	9.397114e-06	2.950475e-01	4.478608e-05	-5.63345e-01	
109	9.497114e-06	2.981836e-01	4.434950e-05	-5.63625e-01	
110	9.597114e-06	3.013195e-01	4.392180e-05	-5.63903e-01	
111	9.697114e-06	3.044554e-01	4.350361e-05	-5.64178e-01	
112	9.797114e-06	3.075911e-01	4.309372e-05	-5.64449e-01	

Index   time            v(1)            v(3)            v(4)            
--------------------------------------------------------------------------------
113	9.897114e-06	3.107267e-01	4.269276e-05	-5.64718e-01	
114	9.997114e-06	3.138621e-01	4.229959e-05	-5.64984e-01	
115	1.009711e-05	3.169974e-01	4.191481e-05	-5.65248e-01	
116	1.019711e-05	3.201327e-01	4.153734e-05	-5.65509e-01	
117	1.029711e-05	3.232677e-01	4.116779e-05	-5.65767e-01	
118	1.039711e-05	3.264027e-01	4.080510e-05	-5.66022e-01	
119	1.049711e-05	3.295375e-01	4.044987e-05	-5.66275e-01	
120	1.059711e-05	3.326722e-01	4.010110e-05	-5.66526e-01	
121	1.069711e-05	3.358068e-01	3.975938e-05	-5.66774e-01	
122	1.079711e-05	3.389412e-01	3.942373e-05	-5.67019e-01	
123	1.089711e-05	3.420755e-01	3.909476e-05	-5.67263e-01	
124	1.099711e-05	3.452097e-01	3.877151e-05	-5.67504e-01	
125	1.109711e-05	3.483437e-01	3.845458e-05	-5.67743e-01	
126	1.119711e-05	3.514776e-01	3.814305e-05	-5.67979e-01	
127	1.129711e-05	3.546113e-01	3.783751e-05	-5.68214e-01	
128	1.139711e-05	3.577450e-01	3.753706e-05	-5.68446e-01	
129	1.149711e-05	3.608784e-01	3.724230e-05	-5.68676e-01	
130	1.159711e-05	3.640118e-01	3.695236e-05	-5.68905e-01	
131	1.169711e-05	3.671449e-01	3.666782e-05	-5.69131e-01	
132	1.179711e-05	3.702780e-01	3.638783e-05	-5.69355e-01	
133	1.189711e-05	3.734109e-01	3.611298e-05	-5.69577e-01	
134	1.199711e-05	3.765436e-01	3.584245e-05	-5.69798e-01	
135	1.209711e-05	3.796762e-01	3.557680e-05	-5.70016e-01	
136	1.219711e-05	3.828087e-01	3.531525e-05	-5.70233e-01	
137	1.229711e-05	3.859410e-01	3.505835e-05	-5.70448e-01	
138	1.239711e-05	3.890731e-01	3.480533e-05	-5.70661e-01	
139	1.249711e-05	3.922051e-01	3.455675e-05	-5.70872e-01	
140	1.259711e-05	3.953369e-01	3.431185e-05	-5.71081e-01	
141	1.269711e-05	3.984686e-01	3.407119e-05	-5.71289e-01	
142	1.279711e-05	4.016001e-01	3.383402e-05	-5.71495e-01	
143	1.289711e-05	4.047315e-01	3.360091e-05	-5.71700e-01	
144	1.299711e-05	4.078627e-01	3.337112e-05	-5.71903e-01	
145	1.309711e-05	4.109937e-01	3.314519e-05	-5.72104e-01	
146	1.319711e-05	4.141246e-01	3.292243e-05	-5.72304e-01	
147	1.329711e-05	4.172553e-01	3.270336e-05	-5.72502e-01	
148	1.339711e-05	4.203859e-01	3.248732e-05	-5.72699e-01	
149	1.349711e-05	4.235163e-01	3.227481e-05	-5.72894e-01	
150	1.359711e-05	4.266465e-01	3.206517e-05	-5.73088e-01	
151	1.369711e-05	4.297765e-01	3.185892e-05	-5.73280e-01	
152	1.379711e-05	4.329064e-01	3.165541e-05	-5.73471e-01	
153	1.389711e-05	4.360361e-01	3.145515e-05	-5.73660e-01	
154	1.399711e-05	4.391657e-01	3.125751e-05	-5.73848e-01	
155	1.409711e-05	4.422950e-01	3.106298e-05	-5.74035e-01	
156	1.419711e-05	4.454242e-01	3.087094e-05	-5.74220e-01	
157	1.429711e-05	4.485532e-01	3.068189e-05	-5.74404e-01	
158	1.439711e-05	4.516821e-01	3.049523e-05	-5.74587e-01	
159	1.449711e-05	4.548107e-01	3.031144e-05	-5.74768e-01	
160	1.459711e-05	4.579392e-01	3.012993e-05	-5.74948e-01	
161	1.469711e-05	4.610675e-01	2.995118e-05	-5.75127e-01	
162	1.479711e-05	4.641956e-01	2.977460e-05	-5.75305e-01	
163	1.489711e-05	4.673236e-01	2.960068e-05	-5.75481e-01	
164	1.499711e-05	4.704513e-01	2.942885e-05	-5.75656e-01	
165	1.509711e-05	4.735789e-01	2.925956e-05	-5.75830e-01	
166	1.519711e-05	4.767062e-01	2.909228e-05	-5.76003e-01	
167	1.529711e-05	4.798334e-01	2.892744e-05	-5.76174e-01	
168	1.539711e-05	4.829604e-01	2.876453e-05	-5.76345e-01	
169	1.549711e-05	4.860872e-01	2.860397e-05	-5.76514e-01	
170	1.559711e-05	4.892138e-01	2.844526e-05	-5.76683e-01	

Index   time            v(1)            v(3)            v(4)            
--------------------------------------------------------------------------------
171	1.569711e-05	4.923403e-01	2.828882e-05	-5.76850e-01	
172	1.579711e-05	4.954665e-01	2.813415e-05	-5.77016e-01	
173	1.589711e-05	4.985925e-01	2.798166e-05	-5.77181e-01	
174	1.599711e-05	5.017184e-01	2.783087e-05	-5.77345e-01	
175	1.609711e-05	5.048440e-01	2.768219e-05	-5.77507e-01	
176	1.619711e-05	5.079694e-01	2.753514e-05	-5.77669e-01	
177	1.629711e-05	5.110947e-01	2.739013e-05	-5.77830e-01	
178	1.639711e-05	5.142197e-01	2.724668e-05	-5.77990e-01	
179	1.649711e-05	5.173445e-01	2.710519e-05	-5.78149e-01	
180	1.659711e-05	5.204692e-01	2.696522e-05	-5.78307e-01	
181	1.669711e-05	5.235936e-01	2.682713e-05	-5.78464e-01	
182	1.679711e-05	5.267178e-01	2.669050e-05	-5.78619e-01	
183	1.689711e-05	5.298418e-01	2.655570e-05	-5.78774e-01	
184	1.699711e-05	5.329656e-01	2.642229e-05	-5.78928e-01	
185	1.709711e-05	5.360892e-01	2.629065e-05	-5.79082e-01	
186	1.719711e-05	5.392126e-01	2.616035e-05	-5.79234e-01	
187	1.729711e-05	5.423358e-01	2.603176e-05	-5.79385e-01	
188	1.739711e-05	5.454587e-01	2.590447e-05	-5.79535e-01	
189	1.749711e-05	5.485814e-01	2.577883e-05	-5.79685e-01	
190	1.759711e-05	5.517040e-01	2.565444e-05	-5.79834e-01	
191	1.769711e-05	5.548263e-01	2.553164e-05	-5.79981e-01	
192	1.779711e-05	5.579483e-01	2.541006e-05	-5.80128e-01	
193	1.789711e-05	5.610702e-01	2.529001e-05	-5.80275e-01	
194	1.799711e-05	5.641918e-01	2.517113e-05	-5.80420e-01	
195	1.809711e-05	5.673133e-01	2.505373e-05	-5.80564e-01	
196	1.819711e-05	5.704344e-01	2.493747e-05	-5.80708e-01	
197	1.829711e-05	5.735554e-01	2.482265e-05	-5.80851e-01	
198	1.839711e-05	5.766762e-01	2.470892e-05	-5.80993e-01	
199	1.849711e-05	5.797967e-01	2.459658e-05	-5.81134e-01	
200	1.859711e-05	5.829170e-01	2.448529e-05	-5.81274e-01	
201	1.869711e-05	5.860370e-01	2.437536e-05	-5.81414e-01	
202	1.879711e-05	5.891568e-01	2.426645e-05	-5.81553e-01	
203	1.889711e-05	5.922764e-01	2.415885e-05	-5.81691e-01	
204	1.899711e-05	5.953958e-01	2.405222e-05	-5.81829e-01	
205	1.909711e-05	5.985149e-01	2.394687e-05	-5.81965e-01	
206	1.919711e-05	6.016338e-01	2.384247e-05	-5.82101e-01	
207	1.929711e-05	6.047524e-01	2.373931e-05	-5.82237e-01	
208	1.939711e-05	6.078708e-01	2.363706e-05	-5.82371e-01	
209	1.949711e-05	6.109890e-01	2.353601e-05	-5.82505e-01	
210	1.959711e-05	6.141069e-01	2.343585e-05	-5.82638e-01	
211	1.969711e-05	6.172246e-01	2.333685e-05	-5.82770e-01	
212	1.979711e-05	6.203421e-01	2.323870e-05	-5.82902e-01	
213	1.989711e-05	6.234593e-01	2.314169e-05	-5.83033e-01	
214	1.999711e-05	6.265762e-01	2.304551e-05	-5.83164e-01	
215	2.009711e-05	6.296929e-01	2.295043e-05	-5.83293e-01	
216	2.019711e-05	6.328094e-01	2.285615e-05	-5.83423e-01	
217	2.029711e-05	6.359256e-01	2.276294e-05	-5.83551e-01	
218	2.039711e-05	6.390415e-01	2.267051e-05	-5.83679e-01	
219	2.049711e-05	6.421572e-01	2.257911e-05	-5.83806e-01	
220	2.059711e-05	6.452727e-01	2.248847e-05	-5.83932e-01	
221	2.069711e-05	6.483879e-01	2.239884e-05	-5.84058e-01	
222	2.079711e-05	6.515028e-01	2.230994e-05	-5.84183e-01	
223	2.089711e-05	6.546175e-01	2.222201e-05	-5.84308e-01	
224	2.099711e-05	6.577319e-01	2.213480e-05	-5.84432e-01	
225	2.109711e-05	6.608461e-01	2.204854e-05	-5.84556e-01	
226	2.119711e-05	6.639600e-01	2.196297e-05	-5.84678e-01	
227	2.129711e-05	6.670736e-01	2.187833e-05	-5.84801e-01	
228	2.139711e-05	6.701870e-01	2.179435e-05	-5.84922e-01	

Index   time            v(1)            v(3)            v(4)            
--------------------------------------------------------------------------------
229	2.149711e-05	6.733001e-01	2.171128e-05	-5.85043e-01	
230	2.159711e-05	6.764130e-01	2.162885e-05	-5.85164e-01	
231	2.169711e-05	6.795255e-01	2.154730e-05	-5.85284e-01	
232	2.179711e-05	6.826378e-01	2.146638e-05	-5.85403e-01	
233	2.189711e-05	6.857499e-01	2.138632e-05	-5.85522e-01	
234	2.199711e-05	6.888617e-01	2.130687e-05	-5.85640e-01	
235	2.209711e-05	6.919732e-01	2.122824e-05	-5.85758e-01	
236	2.219711e-05	6.950844e-01	2.115022e-05	-5.85875e-01	
237	2.229711e-05	6.981953e-01	2.107299e-05	-5.85992e-01	
238	2.239711e-05	7.013060e-01	2.099636e-05	-5.86108e-01	
239	2.249711e-05	7.044164e-01	2.092051e-05	-5.86223e-01	
240	2.259711e-05	7.075265e-01	2.084522e-05	-5.86338e-01	
241	2.269711e-05	7.106364e-01	2.077070e-05	-5.86453e-01	
242	2.279711e-05	7.137459e-01	2.069672e-05	-5.86567e-01	
243	2.289711e-05	7.168552e-01	2.062349e-05	-5.86680e-01	
244	2.299711e-05	7.199642e-01	2.055080e-05	-5.86793e-01	
245	2.309711e-05	7.230729e-01	2.047883e-05	-5.86906e-01	
246	2.319711e-05	7.261813e-01	2.040739e-05	-5.87018e-01	
247	2.329711e-05	7.292895e-01	2.033665e-05	-5.87129e-01	
248	2.339711e-05	7.323973e-01	2.026642e-05	-5.87240e-01	
249	2.349711e-05	7.355049e-01	2.019687e-05	-5.87351e-01	
250	2.359711e-05	7.386122e-01	2.012783e-05	-5.87461e-01	
251	2.369711e-05	7.417191e-01	2.005945e-05	-5.87570e-01	
252	2.379711e-05	7.448258e-01	1.999155e-05	-5.87679e-01	
253	2.389711e-05	7.479322e-01	1.992431e-05	-5.87788e-01	
254	2.399711e-05	7.510383e-01	1.985755e-05	-5.87896e-01	
255	2.409711e-05	7.541441e-01	1.979141e-05	-5.88004e-01	
256	2.419711e-05	7.572496e-01	1.972574e-05	-5.88111e-01	
257	2.429711e-05	7.603548e-01	1.966068e-05	-5.88218e-01	
258	2.439711e-05	7.634597e-01	1.959608e-05	-5.88324e-01	
259	2.449711e-05	7.665643e-01	1.953208e-05	-5.88430e-01	
260	2.459711e-05	7.696686e-01	1.946852e-05	-5.88536e-01	
261	2.469711e-05	7.727726e-01	1.940555e-05	-5.88641e-01	
262	2.479711e-05	7.758763e-01	1.934300e-05	-5.88745e-01	
263	2.489711e-05	7.789797e-01	1.928104e-05	-5.88849e-01	
264	2.499711e-05	7.820828e-01	1.921949e-05	-5.88953e-01	
265	2.509711e-05	7.851855e-01	1.915850e-05	-5.89056e-01	
266	2.519711e-05	7.882880e-01	1.909792e-05	-5.89159e-01	
267	2.529711e-05	7.913902e-01	1.903788e-05	-5.89262e-01	
268	2.539711e-05	7.944920e-01	1.897825e-05	-5.89364e-01	
269	2.549711e-05	7.975935e-01	1.891915e-05	-5.89465e-01	
270	2.559711e-05	8.006947e-01	1.886043e-05	-5.89566e-01	
271	2.569711e-05	8.037956e-01	1.880224e-05	-5.89667e-01	
272	2.579711e-05	8.068962e-01	1.874443e-05	-5.89768e-01	
273	2.589711e-05	8.099964e-01	1.868713e-05	-5.89868e-01	
274	2.599711e-05	8.130964e-01	1.863020e-05	-5.89967e-01	
275	2.609711e-05	8.161960e-01	1.857377e-05	-5.90066e-01	
276	2.619711e-05	8.192953e-01	1.851770e-05	-5.90165e-01	
277	2.629711e-05	8.223942e-01	1.846212e-05	-5.90264e-01	
278	2.639711e-05	8.254929e-01	1.840690e-05	-5.90362e-01	
279	2.649711e-05	8.285912e-01	1.835214e-05	-5.90459e-01	
280	2.659711e-05	8.316892e-01	1.829774e-05	-5.90557e-01	
281	2.669711e-05	8.347869e-01	1.824380e-05	-5.90654e-01	
282	2.679711e-05	8.378842e-01	1.819019e-05	-5.90750e-01	
283	2.689711e-05	8.409812e-01	1.813705e-05	-5.90846e-01	
284	2.699711e-05	8.440779e-01	1.808423e-05	-5.90942e-01	
285	2.709711e-05	8.471742e-01	1.803186e-05	-5.91038e-01	
286	2.719711e-05	8.502702e-01	1.797981e-05	-5.91133e-01	

Index   time            v(1)            v(3)            v(4)            
--------------------------------------------------------------------------------
287	2.729711e-05	8.533659e-01	1.792819e-05	-5.91228e-01	
288	2.739711e-05	8.564612e-01	1.787689e-05	-5.91322e-01	
289	2.749711e-05	8.595562e-01	1.782602e-05	-5.91416e-01	
290	2.759711e-05	8.626508e-01	1.777546e-05	-5.91510e-01	
291	2.769711e-05	8.657452e-01	1.772531e-05	-5.91603e-01	
292	2.779711e-05	8.688391e-01	1.767546e-05	-5.91696e-01	
293	2.789711e-05	8.719327e-01	1.762603e-05	-5.91789e-01	
294	2.799711e-05	8.750260e-01	1.757688e-05	-5.91881e-01	
295	2.809711e-05	8.781190e-01	1.752814e-05	-5.91973e-01	
296	2.819711e-05	8.812116e-01	1.747969e-05	-5.92064e-01	
297	2.829711e-05	8.843038e-01	1.743162e-05	-5.92156e-01	
298	2.839711e-05	8.873957e-01	1.738384e-05	-5.92247e-01	
299	2.849711e-05	8.904872e-01	1.733644e-05	-5.92337e-01	
300	2.859711e-05	8.935784e-01	1.728932e-05	-5.92428e-01	
301	2.869711e-05	8.966693e-01	1.724257e-05	-5.92517e-01	
302	2.879711e-05	8.997598e-01	1.719609e-05	-5.92607e-01	
303	2.889711e-05	9.028499e-01	1.714998e-05	-5.92696e-01	
304	2.899711e-05	9.059397e-01	1.710414e-05	-5.92785e-01	
305	2.909711e-05	9.090291e-01	1.705865e-05	-5.92874e-01	
306	2.919711e-05	9.121181e-01	1.701342e-05	-5.92963e-01	
307	2.929711e-05	9.152068e-01	1.696855e-05	-5.93051e-01	
308	2.939711e-05	9.182952e-01	1.692393e-05	-5.93138e-01	
309	2.949711e-05	9.213831e-01	1.687965e-05	-5.93226e-01	
310	2.959711e-05	9.244707e-01	1.683562e-05	-5.93313e-01	
311	2.969711e-05	9.275580e-01	1.679194e-05	-5.93400e-01	
312	2.979711e-05	9.306449e-01	1.674849e-05	-5.93486e-01	
313	2.989711e-05	9.337314e-01	1.670537e-05	-5.93573e-01	
314	2.999711e-05	9.368175e-01	1.666250e-05	-5.93659e-01	
315	3.009711e-05	9.399033e-01	1.661995e-05	-5.93744e-01	
316	3.019711e-05	9.429887e-01	1.657763e-05	-5.93830e-01	
317	3.029711e-05	9.460737e-01	1.653563e-05	-5.93915e-01	
318	3.039711e-05	9.491584e-01	1.649386e-05	-5.93999e-01	
319	3.049711e-05	9.522427e-01	1.645240e-05	-5.94084e-01	
320	3.059711e-05	9.553266e-01	1.641117e-05	-5.94168e-01	
321	3.069711e-05	9.584101e-01	1.637024e-05	-5.94252e-01	
322	3.079711e-05	9.614932e-01	1.632954e-05	-5.94336e-01	
323	3.089711e-05	9.645760e-01	1.628913e-05	-5.94419e-01	
324	3.099711e-05	9.676584e-01	1.624894e-05	-5.94502e-01	
325	3.109711e-05	9.707404e-01	1.620904e-05	-5.94585e-01	
326	3.119711e-05	9.738220e-01	1.616935e-05	-5.94667e-01	
327	3.129711e-05	9.769033e-01	1.612995e-05	-5.94750e-01	
328	3.139711e-05	9.799841e-01	1.609077e-05	-5.94832e-01	
