
Circuit: bridge rectifier

                                bridge rectifier
                                Transient Analysis  Mon Jan 17 01:44:00  2022
--------------------------------------------------------------------------------
Index   time            i(vd1)          i(vd2)          
--------------------------------------------------------------------------------
0	0.000000e+00	-7.32338e-32	-7.32338e-32	
1	1.000000e-06	4.619759e-15	-4.61976e-15	
2	2.000000e-06	9.601787e-15	-8.93443e-15	
3	4.000000e-06	2.006703e-14	-1.73531e-14	
4	8.000000e-06	4.467731e-14	-3.30849e-14	
5	1.600000e-05	1.218406e-13	-6.20330e-14	
6	3.200000e-05	7.133432e-13	-1.16419e-13	
7	6.400000e-05	3.822320e-11	-2.23188e-13	
8	9.961474e-05	3.730106e-09	-3.41822e-13	
9	1.345744e-04	3.357715e-07	-4.58220e-13	
10	1.697062e-04	3.083910e-05	-5.75135e-13	
11	2.051819e-04	2.946241e-03	-6.93179e-13	
12	2.407590e-04	2.386940e-01	-8.15991e-13	
13	2.765867e-04	2.705782e+00	-9.91074e-13	
14	3.141171e-04	3.281264e+00	-1.23508e-12	
15	3.729815e-04	3.016938e+00	-1.62722e-12	
16	4.321435e-04	3.161236e+00	-2.01712e-12	
17	5.321435e-04	3.048023e+00	-2.67658e-12	
18	6.321435e-04	3.108072e+00	-3.33140e-12	
19	7.321435e-04	3.029940e+00	-3.98312e-12	
20	8.321435e-04	3.049147e+00	-4.62926e-12	
21	9.321435e-04	2.992490e+00	-5.27063e-12	
22	1.032144e-03	2.985626e+00	-5.90553e-12	
23	1.132144e-03	2.937742e+00	-6.53412e-12	
24	1.232144e-03	2.914391e+00	-7.15521e-12	
25	1.332144e-03	2.868509e+00	-7.76860e-12	
26	1.432144e-03	2.833853e+00	-8.37338e-12	
27	1.532144e-03	2.786424e+00	-8.96919e-12	
28	1.632144e-03	2.743324e+00	-9.55527e-12	
29	1.732144e-03	2.692557e+00	-1.01312e-11	
30	1.832144e-03	2.642626e+00	-1.06962e-11	
31	1.932144e-03	2.587687e+00	-1.12499e-11	
32	2.032144e-03	2.531879e+00	-1.17917e-11	
33	2.132144e-03	2.472452e+00	-1.23211e-11	
34	2.232144e-03	2.411381e+00	-1.28375e-11	
35	2.332144e-03	2.347436e+00	-1.33405e-11	
36	2.432144e-03	2.281548e+00	-1.38295e-11	
37	2.532144e-03	2.213212e+00	-1.43041e-11	
38	2.632144e-03	2.142875e+00	-1.47638e-11	
39	2.732144e-03	2.070368e+00	-1.52081e-11	
40	2.832144e-03	1.995922e+00	-1.56366e-11	
41	2.932144e-03	1.919519e+00	-1.60490e-11	
42	3.032144e-03	1.841303e+00	-1.64447e-11	
43	3.132144e-03	1.761321e+00	-1.68234e-11	
44	3.232144e-03	1.679685e+00	-1.71848e-11	
45	3.332144e-03	1.596473e+00	-1.75285e-11	
46	3.432144e-03	1.511791e+00	-1.78542e-11	
47	3.532144e-03	1.425737e+00	-1.81616e-11	
48	3.632144e-03	1.338418e+00	-1.84503e-11	
49	3.732144e-03	1.249950e+00	-1.87201e-11	
50	3.832144e-03	1.160458e+00	-1.89708e-11	
51	3.932144e-03	1.070076e+00	-1.92021e-11	
52	4.032144e-03	9.789605e-01	-1.94138e-11	
53	4.132144e-03	8.872868e-01	-1.96059e-11	
54	4.232144e-03	7.952669e-01	-1.97780e-11	

Index   time            i(vd1)          i(vd2)          
--------------------------------------------------------------------------------
55	4.332144e-03	7.031631e-01	-1.99302e-11	
56	4.432144e-03	6.113160e-01	-2.00623e-11	
57	4.532144e-03	5.201895e-01	-2.01744e-11	
58	4.632144e-03	4.304468e-01	-2.02665e-11	
59	4.732144e-03	3.430773e-01	-2.03388e-11	
60	4.832144e-03	2.596052e-01	-2.03916e-11	
61	4.932144e-03	1.827691e-01	-2.04254e-11	
62	5.032144e-03	1.153687e-01	-2.04410e-11	
63	5.132144e-03	6.226128e-02	-2.04398e-11	
64	5.232144e-03	2.690287e-02	-2.04233e-11	
65	5.332144e-03	8.669313e-03	-2.03937e-11	
66	5.432144e-03	1.966365e-03	-2.03522e-11	
67	5.532144e-03	3.038749e-04	-2.03000e-11	
68	5.632144e-03	3.163483e-05	-2.02373e-11	
69	5.732144e-03	2.216263e-06	-2.01644e-11	
70	5.832144e-03	1.047120e-07	-2.00813e-11	
71	5.932144e-03	3.346914e-09	-1.99880e-11	
72	6.032144e-03	7.282293e-11	-1.98848e-11	
73	6.132144e-03	1.081883e-12	-1.97716e-11	
74	6.232144e-03	1.977768e-15	-1.96486e-11	
75	6.332144e-03	-1.36265e-13	-1.95159e-11	
76	6.432144e-03	-2.74430e-13	-1.93737e-11	
77	6.532144e-03	-4.21932e-13	-1.92220e-11	
78	6.632144e-03	-5.78704e-13	-1.90610e-11	
79	6.732144e-03	-7.44594e-13	-1.88910e-11	
80	6.832144e-03	-9.19439e-13	-1.87120e-11	
81	6.932144e-03	-1.10306e-12	-1.85242e-11	
82	7.032144e-03	-1.29529e-12	-1.83278e-11	
83	7.132144e-03	-1.49591e-12	-1.81230e-11	
84	7.232144e-03	-1.70474e-12	-1.79100e-11	
85	7.332144e-03	-1.92157e-12	-1.76890e-11	
86	7.432144e-03	-2.14618e-12	-1.74602e-11	
87	7.532144e-03	-2.37834e-12	-1.72239e-11	
88	7.632144e-03	-2.61784e-12	-1.69802e-11	
89	7.732144e-03	-2.86441e-12	-1.67295e-11	
90	7.832144e-03	-3.11784e-12	-1.64719e-11	
91	7.932144e-03	-3.37785e-12	-1.62077e-11	
92	8.032144e-03	-3.64419e-12	-1.59372e-11	
93	8.132144e-03	-3.91660e-12	-1.56606e-11	
94	8.232144e-03	-4.19480e-12	-1.53783e-11	
95	8.332144e-03	-4.47852e-12	-1.50904e-11	
96	8.432144e-03	-4.76748e-12	-1.47973e-11	
97	8.532144e-03	-5.06139e-12	-1.44992e-11	
98	8.632144e-03	-5.35996e-12	-1.41965e-11	
99	8.732144e-03	-5.66288e-12	-1.38894e-11	
100	8.832144e-03	-5.96987e-12	-1.35783e-11	
101	8.932144e-03	-6.28061e-12	-1.32634e-11	
102	9.032144e-03	-6.59480e-12	-1.29450e-11	
103	9.132144e-03	-6.91212e-12	-1.26235e-11	
104	9.232144e-03	-7.23226e-12	-1.22993e-11	
105	9.332144e-03	-7.55490e-12	-1.19725e-11	
106	9.432144e-03	-7.87972e-12	-1.16435e-11	
107	9.532144e-03	-8.20640e-12	-1.13127e-11	
108	9.632144e-03	-8.53461e-12	-1.09803e-11	
109	9.732144e-03	-8.86403e-12	-1.06467e-11	
110	9.832144e-03	-9.19433e-12	-1.03123e-11	
111	9.932144e-03	-9.52518e-12	-9.97729e-12	
112	1.003214e-02	-9.85625e-12	-9.64207e-12	

Index   time            i(vd1)          i(vd2)          
--------------------------------------------------------------------------------
113	1.013214e-02	-1.01872e-11	-9.30696e-12	
114	1.023214e-02	-1.05178e-11	-8.97228e-12	
115	1.033214e-02	-1.08475e-11	-8.63837e-12	
116	1.043214e-02	-1.11762e-11	-8.30554e-12	
117	1.053214e-02	-1.15035e-11	-7.97413e-12	
118	1.063214e-02	-1.18290e-11	-7.64447e-12	
119	1.073214e-02	-1.21525e-11	-7.31687e-12	
120	1.083214e-02	-1.24735e-11	-6.99165e-12	
121	1.093214e-02	-1.27919e-11	-6.66915e-12	
122	1.103214e-02	-1.31073e-11	-6.34966e-12	
123	1.113214e-02	-1.34193e-11	-6.03351e-12	
124	1.123214e-02	-1.37277e-11	-5.72100e-12	
125	1.133214e-02	-1.40321e-11	-5.41244e-12	
126	1.143214e-02	-1.43323e-11	-5.10814e-12	
127	1.153214e-02	-1.46279e-11	-4.80839e-12	
128	1.163214e-02	-1.49186e-11	-4.51349e-12	
129	1.173214e-02	-1.52043e-11	-4.22372e-12	
130	1.183214e-02	-1.54845e-11	-3.93936e-12	
131	1.193214e-02	-1.57590e-11	-3.66071e-12	
132	1.203214e-02	-1.60276e-11	-3.38803e-12	
133	1.213214e-02	-1.62899e-11	-3.12158e-12	
134	1.223214e-02	-1.65457e-11	-2.86163e-12	
135	1.233214e-02	-1.67948e-11	-2.60844e-12	
136	1.243214e-02	-1.70369e-11	-2.36224e-12	
137	1.253214e-02	-1.72717e-11	-2.12329e-12	
138	1.263214e-02	-1.74991e-11	-1.89181e-12	
139	1.273214e-02	-1.77187e-11	-1.66803e-12	
140	1.283214e-02	-1.79305e-11	-1.45218e-12	
141	1.293214e-02	-1.81341e-11	-1.24445e-12	
142	1.303214e-02	-1.83293e-11	-1.04506e-12	
143	1.313214e-02	-1.85161e-11	-8.54202e-13	
144	1.323214e-02	-1.86941e-11	-6.72057e-13	
145	1.333214e-02	-1.88632e-11	-4.98803e-13	
146	1.343214e-02	-1.90233e-11	-3.34608e-13	
147	1.353214e-02	-1.91742e-11	-1.79601e-13	
148	1.363214e-02	-1.93156e-11	-3.04381e-14	
149	1.373214e-02	-1.94476e-11	7.964197e-13	
150	1.383214e-02	-1.95699e-11	1.011426e-10	
151	1.393214e-02	-1.96825e-11	9.180041e-09	
152	1.403214e-02	-1.97852e-11	5.698529e-07	
153	1.413214e-02	-1.98778e-11	2.404351e-05	
154	1.423214e-02	-1.99605e-11	6.860792e-04	
155	1.433214e-02	-2.00336e-11	1.287138e-02	
156	1.443214e-02	-2.01030e-11	1.256994e-01	
157	1.453214e-02	-2.01830e-11	3.840958e-01	
158	1.463214e-02	-2.02647e-11	4.252353e-01	
159	1.473214e-02	-2.03375e-11	3.428280e-01	
160	1.483214e-02	-2.03926e-11	2.597234e-01	
161	1.493214e-02	-2.04246e-11	1.826143e-01	
162	1.503214e-02	-2.04414e-11	1.153194e-01	
163	1.513214e-02	-2.04396e-11	6.224329e-02	
164	1.523214e-02	-2.04232e-11	2.689645e-02	
165	1.533214e-02	-2.03937e-11	8.667393e-03	
166	1.543214e-02	-2.03522e-11	1.965939e-03	
167	1.553214e-02	-2.03000e-11	3.038094e-04	
168	1.563214e-02	-2.02373e-11	3.162802e-05	
169	1.573214e-02	-2.01644e-11	2.215786e-06	
170	1.583214e-02	-2.00813e-11	1.046895e-07	

Index   time            i(vd1)          i(vd2)          
--------------------------------------------------------------------------------
171	1.593214e-02	-1.99880e-11	3.346194e-09	
172	1.603214e-02	-1.98848e-11	7.280731e-11	
173	1.613214e-02	-1.97716e-11	1.081668e-12	
174	1.623214e-02	-1.96486e-11	1.970088e-15	
175	1.633214e-02	-1.95159e-11	-1.36271e-13	
176	1.643214e-02	-1.93737e-11	-2.74436e-13	
177	1.653214e-02	-1.92220e-11	-4.21938e-13	
178	1.663214e-02	-1.90610e-11	-5.78709e-13	
179	1.673214e-02	-1.88910e-11	-7.44600e-13	
180	1.683214e-02	-1.87120e-11	-9.19445e-13	
181	1.693214e-02	-1.85242e-11	-1.10307e-12	
182	1.703214e-02	-1.83278e-11	-1.29529e-12	
183	1.713214e-02	-1.81230e-11	-1.49592e-12	
184	1.723214e-02	-1.79100e-11	-1.70475e-12	
185	1.733214e-02	-1.76890e-11	-1.92158e-12	
186	1.743214e-02	-1.74602e-11	-2.14618e-12	
187	1.753214e-02	-1.72239e-11	-2.37835e-12	
188	1.763214e-02	-1.69802e-11	-2.61784e-12	
189	1.773214e-02	-1.67295e-11	-2.86442e-12	
190	1.783214e-02	-1.64719e-11	-3.11784e-12	
191	1.793214e-02	-1.62077e-11	-3.37785e-12	
192	1.803214e-02	-1.59372e-11	-3.64419e-12	
193	1.813214e-02	-1.56606e-11	-3.91660e-12	
194	1.823214e-02	-1.53783e-11	-4.19480e-12	
195	1.833214e-02	-1.50904e-11	-4.47853e-12	
196	1.843214e-02	-1.47973e-11	-4.76749e-12	
197	1.853214e-02	-1.44992e-11	-5.06139e-12	
198	1.863214e-02	-1.41965e-11	-5.35996e-12	
199	1.873214e-02	-1.38894e-11	-5.66289e-12	
200	1.883214e-02	-1.35783e-11	-5.96987e-12	
201	1.893214e-02	-1.32634e-11	-6.28062e-12	
202	1.903214e-02	-1.29450e-11	-6.59480e-12	
203	1.913214e-02	-1.26235e-11	-6.91212e-12	
204	1.923214e-02	-1.22993e-11	-7.23226e-12	
205	1.933214e-02	-1.19725e-11	-7.55490e-12	
206	1.943214e-02	-1.16435e-11	-7.87973e-12	
207	1.953214e-02	-1.13127e-11	-8.20640e-12	
208	1.963214e-02	-1.09803e-11	-8.53462e-12	
209	1.973214e-02	-1.06467e-11	-8.86403e-12	
210	1.983214e-02	-1.03123e-11	-9.19433e-12	
211	1.993214e-02	-9.97730e-12	-9.52518e-12	
212	2.003214e-02	-9.64208e-12	-9.85626e-12	
213	2.013214e-02	-9.30697e-12	-1.01872e-11	
214	2.023214e-02	-8.97229e-12	-1.05178e-11	
215	2.033214e-02	-8.63837e-12	-1.08475e-11	
216	2.043214e-02	-8.30555e-12	-1.11762e-11	
217	2.053214e-02	-7.97414e-12	-1.15035e-11	
218	2.063214e-02	-7.64447e-12	-1.18290e-11	
219	2.073214e-02	-7.31687e-12	-1.21525e-11	
220	2.083214e-02	-6.99166e-12	-1.24736e-11	
221	2.093214e-02	-6.66915e-12	-1.27919e-11	
222	2.103214e-02	-6.34966e-12	-1.31073e-11	
223	2.113214e-02	-6.03351e-12	-1.34193e-11	
224	2.123214e-02	-5.72100e-12	-1.37277e-11	
225	2.133214e-02	-5.41245e-12	-1.40321e-11	
226	2.143214e-02	-5.10815e-12	-1.43323e-11	
227	2.153214e-02	-4.80840e-12	-1.46279e-11	
228	2.163214e-02	-4.51349e-12	-1.49187e-11	

Index   time            i(vd1)          i(vd2)          
--------------------------------------------------------------------------------
229	2.173214e-02	-4.22372e-12	-1.52043e-11	
230	2.183214e-02	-3.93937e-12	-1.54845e-11	
231	2.193214e-02	-3.66072e-12	-1.57590e-11	
232	2.203214e-02	-3.38803e-12	-1.60276e-11	
233	2.213214e-02	-3.12159e-12	-1.62899e-11	
234	2.223214e-02	-2.86164e-12	-1.65457e-11	
235	2.233214e-02	-2.60844e-12	-1.67948e-11	
236	2.243214e-02	-2.36225e-12	-1.70369e-11	
237	2.253214e-02	-2.12329e-12	-1.72717e-11	
238	2.263214e-02	-1.89182e-12	-1.74991e-11	
239	2.273214e-02	-1.66804e-12	-1.77187e-11	
240	2.283214e-02	-1.45218e-12	-1.79305e-11	
241	2.293214e-02	-1.24446e-12	-1.81341e-11	
242	2.303214e-02	-1.04507e-12	-1.83293e-11	
243	2.313214e-02	-8.54208e-13	-1.85161e-11	
244	2.323214e-02	-6.72062e-13	-1.86941e-11	
245	2.333214e-02	-4.98809e-13	-1.88632e-11	
246	2.343214e-02	-3.34614e-13	-1.90233e-11	
247	2.353214e-02	-1.79606e-13	-1.91742e-11	
248	2.363214e-02	-3.04444e-14	-1.93157e-11	
249	2.373214e-02	7.962672e-13	-1.94476e-11	
250	2.383214e-02	1.011212e-10	-1.95699e-11	
251	2.393214e-02	9.178099e-09	-1.96825e-11	
252	2.403214e-02	5.697324e-07	-1.97852e-11	
253	2.413214e-02	2.403843e-05	-1.98779e-11	
254	2.423214e-02	6.859344e-04	-1.99605e-11	
255	2.433214e-02	1.286874e-02	-2.00337e-11	
256	2.443214e-02	1.256795e-01	-2.01032e-11	
257	2.453214e-02	3.840707e-01	-2.01823e-11	
258	2.463214e-02	4.252321e-01	-2.02669e-11	
259	2.473214e-02	3.428278e-01	-2.03388e-11	
260	2.483214e-02	2.597234e-01	-2.03916e-11	
261	2.493214e-02	1.826143e-01	-2.04254e-11	
262	2.503214e-02	1.153194e-01	-2.04410e-11	
263	2.513214e-02	6.224329e-02	-2.04398e-11	
264	2.523214e-02	2.689645e-02	-2.04234e-11	
265	2.533214e-02	8.667393e-03	-2.03937e-11	
266	2.543214e-02	1.965939e-03	-2.03522e-11	
267	2.553214e-02	3.038094e-04	-2.03000e-11	
268	2.563214e-02	3.162802e-05	-2.02373e-11	
269	2.573214e-02	2.215786e-06	-2.01644e-11	
270	2.583214e-02	1.046895e-07	-2.00813e-11	
271	2.593214e-02	3.346194e-09	-1.99880e-11	
272	2.603214e-02	7.280731e-11	-1.98848e-11	
273	2.613214e-02	1.081668e-12	-1.97716e-11	
274	2.623214e-02	1.970088e-15	-1.96486e-11	
275	2.633214e-02	-1.36271e-13	-1.95159e-11	
276	2.643214e-02	-2.74436e-13	-1.93737e-11	
277	2.653214e-02	-4.21938e-13	-1.92220e-11	
278	2.663214e-02	-5.78709e-13	-1.90610e-11	
279	2.673214e-02	-7.44600e-13	-1.88910e-11	
280	2.683214e-02	-9.19445e-13	-1.87120e-11	
281	2.693214e-02	-1.10307e-12	-1.85242e-11	
282	2.703214e-02	-1.29529e-12	-1.83278e-11	
283	2.713214e-02	-1.49592e-12	-1.81230e-11	
284	2.723214e-02	-1.70475e-12	-1.79100e-11	
285	2.733214e-02	-1.92158e-12	-1.76890e-11	
286	2.743214e-02	-2.14618e-12	-1.74602e-11	

Index   time            i(vd1)          i(vd2)          
--------------------------------------------------------------------------------
287	2.753214e-02	-2.37835e-12	-1.72239e-11	
288	2.763214e-02	-2.61784e-12	-1.69802e-11	
289	2.773214e-02	-2.86442e-12	-1.67295e-11	
290	2.783214e-02	-3.11784e-12	-1.64719e-11	
291	2.793214e-02	-3.37785e-12	-1.62077e-11	
292	2.803214e-02	-3.64419e-12	-1.59372e-11	
293	2.813214e-02	-3.91660e-12	-1.56606e-11	
294	2.823214e-02	-4.19480e-12	-1.53783e-11	
295	2.833214e-02	-4.47853e-12	-1.50904e-11	
296	2.843214e-02	-4.76749e-12	-1.47973e-11	
297	2.853214e-02	-5.06139e-12	-1.44992e-11	
298	2.863214e-02	-5.35996e-12	-1.41965e-11	
299	2.873214e-02	-5.66289e-12	-1.38894e-11	
300	2.883214e-02	-5.96987e-12	-1.35783e-11	
301	2.893214e-02	-6.28062e-12	-1.32634e-11	
302	2.903214e-02	-6.59480e-12	-1.29450e-11	
303	2.913214e-02	-6.91212e-12	-1.26235e-11	
304	2.923214e-02	-7.23226e-12	-1.22993e-11	
305	2.933214e-02	-7.55490e-12	-1.19725e-11	
306	2.943214e-02	-7.87973e-12	-1.16435e-11	
307	2.953214e-02	-8.20640e-12	-1.13127e-11	
308	2.963214e-02	-8.53462e-12	-1.09803e-11	
309	2.973214e-02	-8.86403e-12	-1.06467e-11	
310	2.983214e-02	-9.19433e-12	-1.03123e-11	
311	2.993214e-02	-9.52518e-12	-9.97730e-12	
312	3.003214e-02	-9.85626e-12	-9.64208e-12	
313	3.013214e-02	-1.01872e-11	-9.30697e-12	
314	3.023214e-02	-1.05178e-11	-8.97229e-12	
315	3.033214e-02	-1.08475e-11	-8.63837e-12	
316	3.043214e-02	-1.11762e-11	-8.30555e-12	
317	3.053214e-02	-1.15035e-11	-7.97414e-12	
318	3.063214e-02	-1.18290e-11	-7.64447e-12	
319	3.073214e-02	-1.21525e-11	-7.31687e-12	
320	3.083214e-02	-1.24736e-11	-6.99166e-12	
321	3.093214e-02	-1.27919e-11	-6.66915e-12	
322	3.103214e-02	-1.31073e-11	-6.34966e-12	
323	3.113214e-02	-1.34193e-11	-6.03351e-12	
324	3.123214e-02	-1.37277e-11	-5.72100e-12	
325	3.133214e-02	-1.40321e-11	-5.41245e-12	
326	3.143214e-02	-1.43323e-11	-5.10815e-12	
327	3.153214e-02	-1.46279e-11	-4.80840e-12	
328	3.163214e-02	-1.49187e-11	-4.51349e-12	
329	3.173214e-02	-1.52043e-11	-4.22372e-12	
330	3.183214e-02	-1.54845e-11	-3.93937e-12	
331	3.193214e-02	-1.57590e-11	-3.66072e-12	
332	3.203214e-02	-1.60276e-11	-3.38803e-12	
333	3.213214e-02	-1.62899e-11	-3.12159e-12	
334	3.223214e-02	-1.65457e-11	-2.86164e-12	
335	3.233214e-02	-1.67948e-11	-2.60844e-12	
336	3.243214e-02	-1.70369e-11	-2.36225e-12	
337	3.253214e-02	-1.72717e-11	-2.12329e-12	
338	3.263214e-02	-1.74991e-11	-1.89182e-12	
339	3.273214e-02	-1.77187e-11	-1.66804e-12	
340	3.283214e-02	-1.79305e-11	-1.45218e-12	
341	3.293214e-02	-1.81341e-11	-1.24446e-12	
342	3.303214e-02	-1.83293e-11	-1.04507e-12	
343	3.313214e-02	-1.85161e-11	-8.54208e-13	
344	3.323214e-02	-1.86941e-11	-6.72062e-13	

Index   time            i(vd1)          i(vd2)          
--------------------------------------------------------------------------------
345	3.333214e-02	-1.88632e-11	-4.98809e-13	
346	3.343214e-02	-1.90233e-11	-3.34614e-13	
347	3.353214e-02	-1.91742e-11	-1.79606e-13	
348	3.363214e-02	-1.93157e-11	-3.04444e-14	
349	3.373214e-02	-1.94476e-11	7.962672e-13	
350	3.383214e-02	-1.95699e-11	1.011212e-10	
351	3.393214e-02	-1.96825e-11	9.178099e-09	
352	3.403214e-02	-1.97852e-11	5.697324e-07	
353	3.413214e-02	-1.98779e-11	2.403843e-05	
354	3.423214e-02	-1.99605e-11	6.859344e-04	
355	3.433214e-02	-2.00335e-11	1.286874e-02	
356	3.443214e-02	-2.01039e-11	1.256795e-01	
357	3.453214e-02	-2.01794e-11	3.840707e-01	
358	3.463214e-02	-2.02647e-11	4.252321e-01	
359	3.473214e-02	-2.03393e-11	3.428278e-01	
360	3.483214e-02	-2.03908e-11	2.597234e-01	
361	3.493214e-02	-2.04263e-11	1.826143e-01	
362	3.503214e-02	-2.04405e-11	1.153194e-01	
363	3.513214e-02	-2.04401e-11	6.224329e-02	
364	3.523214e-02	-2.04232e-11	2.689645e-02	
365	3.533214e-02	-2.03937e-11	8.667393e-03	
366	3.543214e-02	-2.03522e-11	1.965939e-03	
367	3.553214e-02	-2.03000e-11	3.038094e-04	
368	3.563214e-02	-2.02373e-11	3.162802e-05	
369	3.573214e-02	-2.01644e-11	2.215786e-06	
370	3.583214e-02	-2.00813e-11	1.046895e-07	
371	3.593214e-02	-1.99880e-11	3.346194e-09	
372	3.603214e-02	-1.98848e-11	7.280731e-11	
373	3.613214e-02	-1.97716e-11	1.081668e-12	
374	3.623214e-02	-1.96486e-11	1.970088e-15	
375	3.633214e-02	-1.95159e-11	-1.36271e-13	
376	3.643214e-02	-1.93737e-11	-2.74436e-13	
377	3.653214e-02	-1.92220e-11	-4.21938e-13	
378	3.663214e-02	-1.90610e-11	-5.78709e-13	
379	3.673214e-02	-1.88910e-11	-7.44600e-13	
380	3.683214e-02	-1.87120e-11	-9.19445e-13	
381	3.693214e-02	-1.85242e-11	-1.10307e-12	
382	3.703214e-02	-1.83278e-11	-1.29529e-12	
383	3.713214e-02	-1.81230e-11	-1.49592e-12	
384	3.723214e-02	-1.79100e-11	-1.70475e-12	
385	3.733214e-02	-1.76890e-11	-1.92158e-12	
386	3.743214e-02	-1.74602e-11	-2.14618e-12	
387	3.753214e-02	-1.72239e-11	-2.37835e-12	
388	3.763214e-02	-1.69802e-11	-2.61784e-12	
389	3.773214e-02	-1.67295e-11	-2.86442e-12	
390	3.783214e-02	-1.64719e-11	-3.11784e-12	
391	3.793214e-02	-1.62077e-11	-3.37785e-12	
392	3.803214e-02	-1.59372e-11	-3.64419e-12	
393	3.813214e-02	-1.56606e-11	-3.91660e-12	
394	3.823214e-02	-1.53783e-11	-4.19480e-12	
395	3.833214e-02	-1.50904e-11	-4.47853e-12	
396	3.843214e-02	-1.47973e-11	-4.76749e-12	
397	3.853214e-02	-1.44992e-11	-5.06139e-12	
398	3.863214e-02	-1.41965e-11	-5.35996e-12	
399	3.873214e-02	-1.38894e-11	-5.66289e-12	
400	3.883214e-02	-1.35783e-11	-5.96987e-12	
401	3.893214e-02	-1.32634e-11	-6.28062e-12	
402	3.903214e-02	-1.29450e-11	-6.59480e-12	

Index   time            i(vd1)          i(vd2)          
--------------------------------------------------------------------------------
403	3.913214e-02	-1.26235e-11	-6.91212e-12	
404	3.923214e-02	-1.22993e-11	-7.23226e-12	
405	3.933214e-02	-1.19725e-11	-7.55490e-12	
406	3.943214e-02	-1.16435e-11	-7.87973e-12	
407	3.953214e-02	-1.13127e-11	-8.20640e-12	
408	3.963214e-02	-1.09803e-11	-8.53462e-12	
409	3.973214e-02	-1.06467e-11	-8.86403e-12	
410	3.983214e-02	-1.03123e-11	-9.19433e-12	
411	3.993214e-02	-9.97730e-12	-9.52518e-12	
412	4.003214e-02	-9.64208e-12	-9.85626e-12	
413	4.013214e-02	-9.30697e-12	-1.01872e-11	
414	4.023214e-02	-8.97229e-12	-1.05178e-11	
415	4.033214e-02	-8.63837e-12	-1.08475e-11	
416	4.043214e-02	-8.30555e-12	-1.11762e-11	
417	4.053214e-02	-7.97414e-12	-1.15035e-11	
418	4.063214e-02	-7.64447e-12	-1.18290e-11	
419	4.073214e-02	-7.31687e-12	-1.21525e-11	
420	4.083214e-02	-6.99166e-12	-1.24736e-11	
421	4.093214e-02	-6.66915e-12	-1.27919e-11	
422	4.103214e-02	-6.34966e-12	-1.31073e-11	
423	4.113214e-02	-6.03351e-12	-1.34193e-11	
424	4.123214e-02	-5.72100e-12	-1.37277e-11	
425	4.133214e-02	-5.41245e-12	-1.40321e-11	
