
Circuit: bridge rectifier

                                bridge rectifier
                                Transient Analysis  Mon Jan 17 01:42:20  2022
--------------------------------------------------------------------------------
Index   time            i(vd1)          i(vd2)          
--------------------------------------------------------------------------------
0	0.000000e+00	-7.32338e-32	-7.32338e-32	
1	1.000000e-06	4.619759e-15	-4.61976e-15	
2	2.000000e-06	9.601787e-15	-8.93443e-15	
3	4.000000e-06	2.006703e-14	-1.73531e-14	
4	8.000000e-06	4.467731e-14	-3.30849e-14	
5	1.600000e-05	1.218406e-13	-6.20330e-14	
6	3.200000e-05	7.133432e-13	-1.16419e-13	
7	6.400000e-05	3.822320e-11	-2.23188e-13	
8	9.961504e-05	3.730254e-09	-3.41823e-13	
9	1.345752e-04	3.358069e-07	-4.58223e-13	
10	1.697073e-04	3.084111e-05	-5.75141e-13	
11	2.051835e-04	2.923041e-03	-6.93392e-13	
12	2.407626e-04	1.609335e-01	-8.26210e-13	
13	2.766991e-04	7.310959e-01	-1.02566e-12	
14	3.174397e-04	6.333597e-01	-1.29971e-12	
15	3.907935e-04	6.819313e-01	-1.78353e-12	
16	4.611432e-04	6.486807e-01	-2.24941e-12	
17	5.611432e-04	6.668744e-01	-2.90630e-12	
18	6.611432e-04	6.491600e-01	-3.56114e-12	
19	7.611432e-04	6.555599e-01	-4.21066e-12	
20	8.611432e-04	6.433895e-01	-4.85594e-12	
21	9.611432e-04	6.436606e-01	-5.49513e-12	
22	1.061143e-03	6.338335e-01	-6.12850e-12	
23	1.161143e-03	6.302230e-01	-6.75477e-12	
24	1.261143e-03	6.210614e-01	-7.37380e-12	
25	1.361143e-03	6.148286e-01	-7.98463e-12	
26	1.461143e-03	6.054566e-01	-8.58692e-12	
27	1.561143e-03	5.972927e-01	-9.17989e-12	
28	1.661143e-03	5.872612e-01	-9.76309e-12	
29	1.761143e-03	5.775538e-01	-1.03358e-11	
30	1.861143e-03	5.666456e-01	-1.08977e-11	
31	1.961143e-03	5.556212e-01	-1.14479e-11	
32	2.061143e-03	5.437458e-01	-1.19862e-11	
33	2.161143e-03	5.315463e-01	-1.25118e-11	
34	2.261143e-03	5.186828e-01	-1.30244e-11	
35	2.361143e-03	5.054077e-01	-1.35233e-11	
36	2.461143e-03	4.915740e-01	-1.40081e-11	
37	2.561143e-03	4.773028e-01	-1.44784e-11	
38	2.661143e-03	4.625387e-01	-1.49336e-11	
39	2.761143e-03	4.473428e-01	-1.53734e-11	
40	2.861143e-03	4.317019e-01	-1.57972e-11	
41	2.961143e-03	4.156510e-01	-1.62047e-11	
42	3.061143e-03	3.991960e-01	-1.65955e-11	
43	3.161143e-03	3.823616e-01	-1.69692e-11	
44	3.261143e-03	3.651623e-01	-1.73255e-11	
45	3.361143e-03	3.476198e-01	-1.76639e-11	
46	3.461143e-03	3.297529e-01	-1.79842e-11	
47	3.561143e-03	3.115836e-01	-1.82861e-11	
48	3.661143e-03	2.931336e-01	-1.85693e-11	
49	3.761143e-03	2.744270e-01	-1.88334e-11	
50	3.861143e-03	2.554891e-01	-1.90784e-11	
51	3.961143e-03	2.363478e-01	-1.93039e-11	
52	4.061143e-03	2.170339e-01	-1.95098e-11	
53	4.161143e-03	1.975828e-01	-1.96959e-11	
54	4.261143e-03	1.780359e-01	-1.98620e-11	

Index   time            i(vd1)          i(vd2)          
--------------------------------------------------------------------------------
55	4.361143e-03	1.584435e-01	-2.00081e-11	
56	4.461143e-03	1.388699e-01	-2.01341e-11	
57	4.561143e-03	1.194005e-01	-2.02399e-11	
58	4.661143e-03	1.001548e-01	-2.03257e-11	
59	4.761143e-03	8.130791e-02	-2.03914e-11	
60	4.861143e-03	6.312613e-02	-2.04375e-11	
61	4.961143e-03	4.608733e-02	-2.04642e-11	
62	5.061143e-03	3.069986e-02	-2.04724e-11	
63	5.161143e-03	1.791968e-02	-2.04631e-11	
64	5.261143e-03	8.641804e-03	-2.04378e-11	
65	5.361143e-03	3.209256e-03	-2.03984e-11	
66	5.461143e-03	8.592908e-04	-2.03466e-11	
67	5.561143e-03	1.587218e-04	-2.02838e-11	
68	5.661143e-03	1.983750e-05	-2.02104e-11	
69	5.761143e-03	1.670622e-06	-2.01268e-11	
70	5.861143e-03	9.494205e-08	-2.00330e-11	
71	5.961143e-03	3.652388e-09	-1.99291e-11	
72	6.061143e-03	9.565511e-11	-1.98153e-11	
73	6.161143e-03	1.662008e-12	-1.96916e-11	
74	6.261143e-03	2.772773e-14	-1.95581e-11	
75	6.361143e-03	-1.14542e-13	-1.94149e-11	
76	6.461143e-03	-2.47867e-13	-1.92623e-11	
77	6.561143e-03	-3.90426e-13	-1.91002e-11	
78	6.661143e-03	-5.42217e-13	-1.89290e-11	
79	6.761143e-03	-7.03088e-13	-1.87487e-11	
80	6.861143e-03	-8.72873e-13	-1.85595e-11	
81	6.961143e-03	-1.05139e-12	-1.83615e-11	
82	7.061143e-03	-1.23847e-12	-1.81551e-11	
83	7.161143e-03	-1.43390e-12	-1.79403e-11	
84	7.261143e-03	-1.63748e-12	-1.77174e-11	
85	7.361143e-03	-1.84901e-12	-1.74865e-11	
86	7.461143e-03	-2.06826e-12	-1.72480e-11	
87	7.561143e-03	-2.29502e-12	-1.70019e-11	
88	7.661143e-03	-2.52904e-12	-1.67486e-11	
89	7.761143e-03	-2.77009e-12	-1.64883e-11	
90	7.861143e-03	-3.01791e-12	-1.62213e-11	
91	7.961143e-03	-3.27226e-12	-1.59477e-11	
92	8.061143e-03	-3.53288e-12	-1.56679e-11	
93	8.161143e-03	-3.79949e-12	-1.53821e-11	
94	8.261143e-03	-4.07182e-12	-1.50906e-11	
95	8.361143e-03	-4.34961e-12	-1.47937e-11	
96	8.461143e-03	-4.63255e-12	-1.44917e-11	
97	8.561143e-03	-4.92038e-12	-1.41847e-11	
98	8.661143e-03	-5.21278e-12	-1.38733e-11	
99	8.761143e-03	-5.50946e-12	-1.35575e-11	
100	8.861143e-03	-5.81013e-12	-1.32378e-11	
101	8.961143e-03	-6.11447e-12	-1.29145e-11	
102	9.061143e-03	-6.42217e-12	-1.25878e-11	
103	9.161143e-03	-6.73293e-12	-1.22580e-11	
104	9.261143e-03	-7.04642e-12	-1.19256e-11	
105	9.361143e-03	-7.36233e-12	-1.15907e-11	
106	9.461143e-03	-7.68034e-12	-1.12538e-11	
107	9.561143e-03	-8.00012e-12	-1.09151e-11	
108	9.661143e-03	-8.32135e-12	-1.05750e-11	
109	9.761143e-03	-8.64369e-12	-1.02338e-11	
110	9.861143e-03	-8.96684e-12	-9.89179e-12	
111	9.961143e-03	-9.29044e-12	-9.54935e-12	
112	1.006114e-02	-9.61419e-12	-9.20680e-12	

Index   time            i(vd1)          i(vd2)          
--------------------------------------------------------------------------------
113	1.016114e-02	-9.93774e-12	-8.86445e-12	
114	1.026114e-02	-1.02608e-11	-8.52265e-12	
115	1.036114e-02	-1.05830e-11	-8.18171e-12	
116	1.046114e-02	-1.09040e-11	-7.84196e-12	
117	1.056114e-02	-1.12235e-11	-7.50374e-12	
118	1.066114e-02	-1.15412e-11	-7.16736e-12	
119	1.076114e-02	-1.18567e-11	-6.83315e-12	
120	1.086114e-02	-1.21698e-11	-6.50142e-12	
121	1.096114e-02	-1.24800e-11	-6.17251e-12	
122	1.106114e-02	-1.27872e-11	-5.84671e-12	
123	1.116114e-02	-1.30910e-11	-5.52435e-12	
124	1.126114e-02	-1.33910e-11	-5.20573e-12	
125	1.136114e-02	-1.36870e-11	-4.89116e-12	
126	1.146114e-02	-1.39787e-11	-4.58094e-12	
127	1.156114e-02	-1.42657e-11	-4.27536e-12	
128	1.166114e-02	-1.45478e-11	-3.97473e-12	
129	1.176114e-02	-1.48248e-11	-3.67932e-12	
130	1.186114e-02	-1.50962e-11	-3.38942e-12	
131	1.196114e-02	-1.53618e-11	-3.10530e-12	
132	1.206114e-02	-1.56215e-11	-2.82724e-12	
133	1.216114e-02	-1.58748e-11	-2.55551e-12	
134	1.226114e-02	-1.61215e-11	-2.29036e-12	
135	1.236114e-02	-1.63615e-11	-2.03204e-12	
136	1.246114e-02	-1.65943e-11	-1.78080e-12	
137	1.256114e-02	-1.68199e-11	-1.53687e-12	
138	1.266114e-02	-1.70380e-11	-1.30050e-12	
139	1.276114e-02	-1.72482e-11	-1.07191e-12	
140	1.286114e-02	-1.74506e-11	-8.51303e-13	
141	1.296114e-02	-1.76447e-11	-6.38898e-13	
142	1.306114e-02	-1.78304e-11	-4.34891e-13	
143	1.316114e-02	-1.80076e-11	-2.39463e-13	
144	1.326114e-02	-1.81760e-11	-5.10777e-14	
145	1.336114e-02	-1.83355e-11	1.822424e-12	
146	1.346114e-02	-1.84859e-11	1.242992e-09	
147	1.356114e-02	-1.86270e-11	5.874543e-07	
148	1.366114e-02	-1.87588e-11	1.925487e-04	
149	1.376114e-02	-1.88893e-11	3.200747e-02	
150	1.386114e-02	-1.90763e-11	2.699465e-01	
151	1.396114e-02	-1.93054e-11	2.303238e-01	
152	1.406114e-02	-1.95097e-11	2.193103e-01	
153	1.416114e-02	-1.96971e-11	1.966796e-01	
154	1.426114e-02	-1.98614e-11	1.784216e-01	
155	1.436114e-02	-2.00071e-11	1.583363e-01	
156	1.446114e-02	-2.01341e-11	1.389015e-01	
157	1.456114e-02	-2.02398e-11	1.193925e-01	
158	1.466114e-02	-2.03242e-11	1.001567e-01	
159	1.476114e-02	-2.03917e-11	8.130749e-02	
160	1.486114e-02	-2.04374e-11	6.312622e-02	
161	1.496114e-02	-2.04641e-11	4.608732e-02	
162	1.506114e-02	-2.04725e-11	3.069986e-02	
163	1.516114e-02	-2.04630e-11	1.791968e-02	
164	1.526114e-02	-2.04378e-11	8.641803e-03	
165	1.536114e-02	-2.03984e-11	3.209256e-03	
166	1.546114e-02	-2.03466e-11	8.592908e-04	
167	1.556114e-02	-2.02838e-11	1.587218e-04	
168	1.566114e-02	-2.02104e-11	1.983750e-05	
169	1.576114e-02	-2.01268e-11	1.670622e-06	
170	1.586114e-02	-2.00330e-11	9.494205e-08	

Index   time            i(vd1)          i(vd2)          
--------------------------------------------------------------------------------
171	1.596114e-02	-1.99291e-11	3.652388e-09	
172	1.606114e-02	-1.98153e-11	9.565511e-11	
173	1.616114e-02	-1.96916e-11	1.662008e-12	
174	1.626114e-02	-1.95581e-11	2.772773e-14	
175	1.636114e-02	-1.94149e-11	-1.14542e-13	
176	1.646114e-02	-1.92623e-11	-2.47867e-13	
177	1.656114e-02	-1.91002e-11	-3.90426e-13	
178	1.666114e-02	-1.89290e-11	-5.42217e-13	
179	1.676114e-02	-1.87487e-11	-7.03088e-13	
180	1.686114e-02	-1.85595e-11	-8.72873e-13	
181	1.696114e-02	-1.83615e-11	-1.05139e-12	
182	1.706114e-02	-1.81551e-11	-1.23847e-12	
183	1.716114e-02	-1.79403e-11	-1.43390e-12	
184	1.726114e-02	-1.77174e-11	-1.63748e-12	
185	1.736114e-02	-1.74865e-11	-1.84901e-12	
186	1.746114e-02	-1.72480e-11	-2.06826e-12	
187	1.756114e-02	-1.70019e-11	-2.29502e-12	
188	1.766114e-02	-1.67486e-11	-2.52904e-12	
189	1.776114e-02	-1.64883e-11	-2.77009e-12	
190	1.786114e-02	-1.62213e-11	-3.01791e-12	
191	1.796114e-02	-1.59477e-11	-3.27226e-12	
192	1.806114e-02	-1.56679e-11	-3.53288e-12	
193	1.816114e-02	-1.53821e-11	-3.79949e-12	
194	1.826114e-02	-1.50906e-11	-4.07182e-12	
195	1.836114e-02	-1.47937e-11	-4.34961e-12	
196	1.846114e-02	-1.44917e-11	-4.63255e-12	
197	1.856114e-02	-1.41847e-11	-4.92038e-12	
198	1.866114e-02	-1.38733e-11	-5.21278e-12	
199	1.876114e-02	-1.35575e-11	-5.50946e-12	
200	1.886114e-02	-1.32378e-11	-5.81013e-12	
201	1.896114e-02	-1.29145e-11	-6.11447e-12	
202	1.906114e-02	-1.25878e-11	-6.42217e-12	
203	1.916114e-02	-1.22580e-11	-6.73293e-12	
204	1.926114e-02	-1.19256e-11	-7.04642e-12	
205	1.936114e-02	-1.15907e-11	-7.36233e-12	
206	1.946114e-02	-1.12538e-11	-7.68034e-12	
207	1.956114e-02	-1.09151e-11	-8.00012e-12	
208	1.966114e-02	-1.05750e-11	-8.32135e-12	
209	1.976114e-02	-1.02338e-11	-8.64369e-12	
210	1.986114e-02	-9.89179e-12	-8.96684e-12	
211	1.996114e-02	-9.54935e-12	-9.29044e-12	
212	2.006114e-02	-9.20680e-12	-9.61419e-12	
213	2.016114e-02	-8.86445e-12	-9.93774e-12	
214	2.026114e-02	-8.52265e-12	-1.02608e-11	
215	2.036114e-02	-8.18171e-12	-1.05830e-11	
216	2.046114e-02	-7.84196e-12	-1.09040e-11	
217	2.056114e-02	-7.50374e-12	-1.12235e-11	
218	2.066114e-02	-7.16736e-12	-1.15412e-11	
219	2.076114e-02	-6.83315e-12	-1.18567e-11	
220	2.086114e-02	-6.50142e-12	-1.21698e-11	
221	2.096114e-02	-6.17251e-12	-1.24800e-11	
222	2.106114e-02	-5.84671e-12	-1.27872e-11	
223	2.116114e-02	-5.52435e-12	-1.30910e-11	
224	2.126114e-02	-5.20573e-12	-1.33910e-11	
225	2.136114e-02	-4.89116e-12	-1.36870e-11	
226	2.146114e-02	-4.58094e-12	-1.39787e-11	
227	2.156114e-02	-4.27536e-12	-1.42657e-11	
228	2.166114e-02	-3.97473e-12	-1.45478e-11	

Index   time            i(vd1)          i(vd2)          
--------------------------------------------------------------------------------
229	2.176114e-02	-3.67932e-12	-1.48248e-11	
230	2.186114e-02	-3.38942e-12	-1.50962e-11	
231	2.196114e-02	-3.10530e-12	-1.53618e-11	
232	2.206114e-02	-2.82724e-12	-1.56215e-11	
233	2.216114e-02	-2.55551e-12	-1.58748e-11	
234	2.226114e-02	-2.29036e-12	-1.61215e-11	
235	2.236114e-02	-2.03204e-12	-1.63615e-11	
236	2.246114e-02	-1.78080e-12	-1.65943e-11	
237	2.256114e-02	-1.53687e-12	-1.68199e-11	
238	2.266114e-02	-1.30050e-12	-1.70380e-11	
239	2.276114e-02	-1.07191e-12	-1.72482e-11	
240	2.286114e-02	-8.51303e-13	-1.74506e-11	
241	2.296114e-02	-6.38898e-13	-1.76447e-11	
242	2.306114e-02	-4.34891e-13	-1.78304e-11	
243	2.316114e-02	-2.39463e-13	-1.80076e-11	
244	2.326114e-02	-5.10777e-14	-1.81760e-11	
245	2.336114e-02	1.822424e-12	-1.83355e-11	
246	2.346114e-02	1.242992e-09	-1.84859e-11	
247	2.356114e-02	5.874543e-07	-1.86270e-11	
248	2.366114e-02	1.925487e-04	-1.87588e-11	
249	2.376114e-02	3.200747e-02	-1.88890e-11	
250	2.386114e-02	2.699465e-01	-1.90770e-11	
251	2.396114e-02	2.303238e-01	-1.93046e-11	
252	2.406114e-02	2.193103e-01	-1.95095e-11	
253	2.416114e-02	1.966796e-01	-1.96960e-11	
254	2.426114e-02	1.784216e-01	-1.98620e-11	
255	2.436114e-02	1.583363e-01	-2.00081e-11	
256	2.446114e-02	1.389015e-01	-2.01341e-11	
257	2.456114e-02	1.193925e-01	-2.02399e-11	
258	2.466114e-02	1.001567e-01	-2.03257e-11	
259	2.476114e-02	8.130749e-02	-2.03914e-11	
260	2.486114e-02	6.312622e-02	-2.04375e-11	
261	2.496114e-02	4.608732e-02	-2.04642e-11	
262	2.506114e-02	3.069986e-02	-2.04724e-11	
263	2.516114e-02	1.791968e-02	-2.04631e-11	
264	2.526114e-02	8.641803e-03	-2.04378e-11	
265	2.536114e-02	3.209256e-03	-2.03984e-11	
266	2.546114e-02	8.592908e-04	-2.03466e-11	
267	2.556114e-02	1.587218e-04	-2.02838e-11	
268	2.566114e-02	1.983750e-05	-2.02104e-11	
269	2.576114e-02	1.670622e-06	-2.01268e-11	
270	2.586114e-02	9.494205e-08	-2.00330e-11	
271	2.596114e-02	3.652388e-09	-1.99291e-11	
272	2.606114e-02	9.565511e-11	-1.98153e-11	
273	2.616114e-02	1.662008e-12	-1.96916e-11	
274	2.626114e-02	2.772773e-14	-1.95581e-11	
275	2.636114e-02	-1.14542e-13	-1.94149e-11	
276	2.646114e-02	-2.47867e-13	-1.92623e-11	
277	2.656114e-02	-3.90426e-13	-1.91002e-11	
278	2.666114e-02	-5.42217e-13	-1.89290e-11	
279	2.676114e-02	-7.03088e-13	-1.87487e-11	
280	2.686114e-02	-8.72873e-13	-1.85595e-11	
281	2.696114e-02	-1.05139e-12	-1.83615e-11	
282	2.706114e-02	-1.23847e-12	-1.81551e-11	
283	2.716114e-02	-1.43390e-12	-1.79403e-11	
284	2.726114e-02	-1.63748e-12	-1.77174e-11	
285	2.736114e-02	-1.84901e-12	-1.74865e-11	
286	2.746114e-02	-2.06826e-12	-1.72480e-11	

Index   time            i(vd1)          i(vd2)          
--------------------------------------------------------------------------------
287	2.756114e-02	-2.29502e-12	-1.70019e-11	
288	2.766114e-02	-2.52904e-12	-1.67486e-11	
289	2.776114e-02	-2.77009e-12	-1.64883e-11	
290	2.786114e-02	-3.01791e-12	-1.62213e-11	
291	2.796114e-02	-3.27226e-12	-1.59477e-11	
292	2.806114e-02	-3.53288e-12	-1.56679e-11	
293	2.816114e-02	-3.79949e-12	-1.53821e-11	
294	2.826114e-02	-4.07182e-12	-1.50906e-11	
295	2.836114e-02	-4.34961e-12	-1.47937e-11	
296	2.846114e-02	-4.63255e-12	-1.44917e-11	
297	2.856114e-02	-4.92038e-12	-1.41847e-11	
298	2.866114e-02	-5.21278e-12	-1.38733e-11	
299	2.876114e-02	-5.50946e-12	-1.35575e-11	
300	2.886114e-02	-5.81013e-12	-1.32378e-11	
301	2.896114e-02	-6.11447e-12	-1.29145e-11	
302	2.906114e-02	-6.42217e-12	-1.25878e-11	
303	2.916114e-02	-6.73293e-12	-1.22580e-11	
304	2.926114e-02	-7.04642e-12	-1.19256e-11	
305	2.936114e-02	-7.36233e-12	-1.15907e-11	
306	2.946114e-02	-7.68034e-12	-1.12538e-11	
307	2.956114e-02	-8.00012e-12	-1.09151e-11	
308	2.966114e-02	-8.32135e-12	-1.05750e-11	
309	2.976114e-02	-8.64369e-12	-1.02338e-11	
310	2.986114e-02	-8.96684e-12	-9.89179e-12	
311	2.996114e-02	-9.29044e-12	-9.54935e-12	
312	3.006114e-02	-9.61419e-12	-9.20680e-12	
313	3.016114e-02	-9.93774e-12	-8.86445e-12	
314	3.026114e-02	-1.02608e-11	-8.52265e-12	
315	3.036114e-02	-1.05830e-11	-8.18171e-12	
316	3.046114e-02	-1.09040e-11	-7.84196e-12	
317	3.056114e-02	-1.12235e-11	-7.50374e-12	
318	3.066114e-02	-1.15412e-11	-7.16736e-12	
319	3.076114e-02	-1.18567e-11	-6.83315e-12	
320	3.086114e-02	-1.21698e-11	-6.50142e-12	
321	3.096114e-02	-1.24800e-11	-6.17251e-12	
322	3.106114e-02	-1.27872e-11	-5.84671e-12	
323	3.116114e-02	-1.30910e-11	-5.52435e-12	
324	3.126114e-02	-1.33910e-11	-5.20573e-12	
325	3.136114e-02	-1.36870e-11	-4.89116e-12	
326	3.146114e-02	-1.39787e-11	-4.58094e-12	
327	3.156114e-02	-1.42657e-11	-4.27536e-12	
328	3.166114e-02	-1.45478e-11	-3.97473e-12	
329	3.176114e-02	-1.48248e-11	-3.67932e-12	
330	3.186114e-02	-1.50962e-11	-3.38942e-12	
331	3.196114e-02	-1.53618e-11	-3.10530e-12	
332	3.206114e-02	-1.56215e-11	-2.82724e-12	
333	3.216114e-02	-1.58748e-11	-2.55551e-12	
334	3.226114e-02	-1.61215e-11	-2.29036e-12	
335	3.236114e-02	-1.63615e-11	-2.03204e-12	
336	3.246114e-02	-1.65943e-11	-1.78080e-12	
337	3.256114e-02	-1.68199e-11	-1.53687e-12	
338	3.266114e-02	-1.70380e-11	-1.30050e-12	
339	3.276114e-02	-1.72482e-11	-1.07191e-12	
340	3.286114e-02	-1.74506e-11	-8.51303e-13	
341	3.296114e-02	-1.76447e-11	-6.38898e-13	
342	3.306114e-02	-1.78304e-11	-4.34891e-13	
343	3.316114e-02	-1.80076e-11	-2.39463e-13	
344	3.326114e-02	-1.81760e-11	-5.10777e-14	

Index   time            i(vd1)          i(vd2)          
--------------------------------------------------------------------------------
345	3.336114e-02	-1.83355e-11	1.822424e-12	
346	3.346114e-02	-1.84859e-11	1.242992e-09	
347	3.356114e-02	-1.86270e-11	5.874543e-07	
348	3.366114e-02	-1.87588e-11	1.925487e-04	
349	3.376114e-02	-1.88893e-11	3.200747e-02	
350	3.386114e-02	-1.90763e-11	2.699465e-01	
351	3.396114e-02	-1.93054e-11	2.303238e-01	
352	3.406114e-02	-1.95097e-11	2.193103e-01	
353	3.416114e-02	-1.96971e-11	1.966796e-01	
354	3.426114e-02	-1.98623e-11	1.784216e-01	
355	3.436114e-02	-2.00080e-11	1.583363e-01	
356	3.446114e-02	-2.01341e-11	1.389015e-01	
357	3.456114e-02	-2.02407e-11	1.193925e-01	
358	3.466114e-02	-2.03251e-11	1.001567e-01	
359	3.476114e-02	-2.03917e-11	8.130749e-02	
360	3.486114e-02	-2.04370e-11	6.312622e-02	
361	3.496114e-02	-2.04645e-11	4.608732e-02	
362	3.506114e-02	-2.04725e-11	3.069986e-02	
363	3.516114e-02	-2.04631e-11	1.791968e-02	
364	3.526114e-02	-2.04378e-11	8.641803e-03	
365	3.536114e-02	-2.03984e-11	3.209256e-03	
366	3.546114e-02	-2.03466e-11	8.592908e-04	
367	3.556114e-02	-2.02838e-11	1.587218e-04	
368	3.566114e-02	-2.02104e-11	1.983750e-05	
369	3.576114e-02	-2.01268e-11	1.670622e-06	
370	3.586114e-02	-2.00330e-11	9.494205e-08	
371	3.596114e-02	-1.99291e-11	3.652388e-09	
372	3.606114e-02	-1.98153e-11	9.565511e-11	
373	3.616114e-02	-1.96916e-11	1.662008e-12	
374	3.626114e-02	-1.95581e-11	2.772773e-14	
375	3.636114e-02	-1.94149e-11	-1.14542e-13	
376	3.646114e-02	-1.92623e-11	-2.47867e-13	
377	3.656114e-02	-1.91002e-11	-3.90426e-13	
378	3.666114e-02	-1.89290e-11	-5.42217e-13	
379	3.676114e-02	-1.87487e-11	-7.03088e-13	
380	3.686114e-02	-1.85595e-11	-8.72873e-13	
381	3.696114e-02	-1.83615e-11	-1.05139e-12	
382	3.706114e-02	-1.81551e-11	-1.23847e-12	
383	3.716114e-02	-1.79403e-11	-1.43390e-12	
384	3.726114e-02	-1.77174e-11	-1.63748e-12	
385	3.736114e-02	-1.74865e-11	-1.84901e-12	
386	3.746114e-02	-1.72480e-11	-2.06826e-12	
387	3.756114e-02	-1.70019e-11	-2.29502e-12	
388	3.766114e-02	-1.67486e-11	-2.52904e-12	
389	3.776114e-02	-1.64883e-11	-2.77009e-12	
390	3.786114e-02	-1.62213e-11	-3.01791e-12	
391	3.796114e-02	-1.59477e-11	-3.27226e-12	
392	3.806114e-02	-1.56679e-11	-3.53288e-12	
393	3.816114e-02	-1.53821e-11	-3.79949e-12	
394	3.826114e-02	-1.50906e-11	-4.07182e-12	
395	3.836114e-02	-1.47937e-11	-4.34961e-12	
396	3.846114e-02	-1.44917e-11	-4.63255e-12	
397	3.856114e-02	-1.41847e-11	-4.92038e-12	
398	3.866114e-02	-1.38733e-11	-5.21278e-12	
399	3.876114e-02	-1.35575e-11	-5.50946e-12	
400	3.886114e-02	-1.32378e-11	-5.81013e-12	
401	3.896114e-02	-1.29145e-11	-6.11447e-12	
402	3.906114e-02	-1.25878e-11	-6.42217e-12	

Index   time            i(vd1)          i(vd2)          
--------------------------------------------------------------------------------
403	3.916114e-02	-1.22580e-11	-6.73293e-12	
404	3.926114e-02	-1.19256e-11	-7.04642e-12	
405	3.936114e-02	-1.15907e-11	-7.36233e-12	
406	3.946114e-02	-1.12538e-11	-7.68034e-12	
407	3.956114e-02	-1.09151e-11	-8.00012e-12	
408	3.966114e-02	-1.05750e-11	-8.32135e-12	
409	3.976114e-02	-1.02338e-11	-8.64369e-12	
410	3.986114e-02	-9.89179e-12	-8.96684e-12	
411	3.996114e-02	-9.54935e-12	-9.29044e-12	
412	4.006114e-02	-9.20680e-12	-9.61419e-12	
413	4.016114e-02	-8.86445e-12	-9.93774e-12	
414	4.026114e-02	-8.52265e-12	-1.02608e-11	
415	4.036114e-02	-8.18171e-12	-1.05830e-11	
416	4.046114e-02	-7.84196e-12	-1.09040e-11	
417	4.056114e-02	-7.50374e-12	-1.12235e-11	
418	4.066114e-02	-7.16736e-12	-1.15412e-11	
419	4.076114e-02	-6.83315e-12	-1.18567e-11	
420	4.086114e-02	-6.50142e-12	-1.21698e-11	
421	4.096114e-02	-6.17251e-12	-1.24800e-11	
422	4.106114e-02	-5.84671e-12	-1.27872e-11	
423	4.116114e-02	-5.52435e-12	-1.30910e-11	
424	4.126114e-02	-5.20573e-12	-1.33910e-11	
425	4.136114e-02	-4.89116e-12	-1.36870e-11	
