
Circuit: unregulated supply

                               unregulated supply
                               Transient Analysis  Thu Jan 20 11:27:52  2022
--------------------------------------------------------------------------------
Index   time            tran1.v(2)      tran2.v(2)      tran3.v(2)      
--------------------------------------------------------------------------------
0	0.000000e+00	-2.83780e-25	-2.83780e-25	-2.83780e-25	
1	1.000000e-07	5.277154e-23	-4.47550e-23	3.423429e-24	
2	2.000000e-07	3.019563e-14	6.424613e-15	3.019569e-15	
3	4.000000e-07	1.510038e-13	3.212854e-14	1.510042e-14	
4	8.000000e-07	6.347291e-13	1.350494e-13	6.347325e-14	
5	1.600000e-06	2.573606e-12	5.475808e-13	2.573633e-13	
6	3.200000e-06	1.036188e-11	2.204696e-12	1.036210e-12	
7	6.400000e-06	4.179671e-11	8.893239e-12	4.179843e-12	
8	1.280000e-05	1.702482e-10	3.622562e-11	1.702622e-11	
9	2.280000e-05	5.612467e-10	1.194291e-10	5.613266e-11	
10	3.280000e-05	1.229262e-09	2.615899e-10	1.229503e-10	
11	4.280000e-05	2.291097e-09	4.875713e-10	2.291655e-10	
12	5.280000e-05	4.027916e-09	8.572133e-10	4.029044e-10	
13	6.280000e-05	7.119854e-09	1.515259e-09	7.121986e-10	
14	7.280000e-05	1.321583e-08	2.812616e-09	1.321979e-09	
15	8.280000e-05	2.631795e-08	5.600966e-09	2.632548e-09	
16	9.280000e-05	5.614516e-08	1.194857e-08	5.616014e-09	
17	1.028000e-04	1.263048e-07	2.687923e-08	1.263363e-08	
18	1.128000e-04	2.941428e-07	6.259660e-08	2.942128e-08	
19	1.228000e-04	6.989552e-07	1.487442e-07	6.991180e-08	
20	1.328000e-04	1.679064e-06	3.573215e-07	1.679461e-07	
21	1.428000e-04	4.056045e-06	8.631794e-07	4.057072e-07	
22	1.528000e-04	9.824440e-06	2.090855e-06	9.827386e-07	
23	1.628000e-04	2.382395e-05	5.070770e-06	2.383386e-06	
24	1.728000e-04	5.778578e-05	1.230237e-05	5.782618e-06	
25	1.828000e-04	1.400803e-04	2.984043e-05	1.402744e-05	
26	1.928000e-04	3.389510e-04	7.230908e-05	3.399824e-05	
27	2.028000e-04	8.165055e-04	1.747878e-04	8.222255e-05	
28	2.128000e-04	1.946733e-03	4.200848e-04	1.978453e-04	
29	2.228000e-04	4.538019e-03	9.966828e-04	4.706483e-04	
30	2.328000e-04	1.012958e-02	2.301719e-03	1.092919e-03	
31	2.428000e-04	2.104933e-02	5.065761e-03	2.429099e-03	
32	2.528000e-04	3.979102e-02	1.037238e-02	5.048228e-03	
33	2.628000e-04	6.792608e-02	1.945649e-02	9.653731e-03	
34	2.728000e-04	1.054844e-01	3.337507e-02	1.693236e-02	
35	2.828000e-04	1.512381e-01	5.277173e-02	2.742105e-02	
36	2.928000e-04	2.034110e-01	7.783825e-02	4.145515e-02	
37	3.028000e-04	2.602400e-01	1.083980e-01	5.917836e-02	
38	3.128000e-04	3.202983e-01	1.440554e-01	8.059521e-02	
39	3.228000e-04	3.825533e-01	1.843176e-01	1.056213e-01	
40	3.328000e-04	4.462465e-01	2.286380e-01	1.341028e-01	
41	3.428000e-04	5.108567e-01	2.764693e-01	1.658434e-01	
42	3.528000e-04	5.760492e-01	3.273047e-01	2.006295e-01	
43	3.628000e-04	6.416045e-01	3.806882e-01	2.382410e-01	
44	3.728000e-04	7.073831e-01	4.362187e-01	2.784596e-01	
45	3.828000e-04	7.732946e-01	4.935487e-01	3.210736e-01	
46	3.928000e-04	8.392819e-01	5.523803e-01	3.658809e-01	
47	4.028000e-04	9.053078e-01	6.124604e-01	4.126909e-01	
48	4.128000e-04	9.713487e-01	6.735751e-01	4.613253e-01	
49	4.228000e-04	1.037389e+00	7.355447e-01	5.116185e-01	
50	4.328000e-04	1.103420e+00	7.982186e-01	5.634175e-01	
51	4.428000e-04	1.169434e+00	8.614713e-01	6.165812e-01	
52	4.528000e-04	1.235426e+00	9.251980e-01	6.709803e-01	
53	4.628000e-04	1.301394e+00	9.893115e-01	7.264964e-01	
54	4.728000e-04	1.367336e+00	1.053739e+00	7.830213e-01	

Index   time            tran1.v(2)      tran2.v(2)      tran3.v(2)      
--------------------------------------------------------------------------------
55	4.828000e-04	1.433250e+00	1.118422e+00	8.404563e-01	
56	4.928000e-04	1.499134e+00	1.183309e+00	8.987116e-01	
57	5.028000e-04	1.564989e+00	1.248359e+00	9.577056e-01	
58	5.128000e-04	1.630812e+00	1.313538e+00	1.017364e+00	
59	5.228000e-04	1.696603e+00	1.378818e+00	1.077619e+00	
60	5.328000e-04	1.762361e+00	1.444175e+00	1.138411e+00	
61	5.428000e-04	1.828086e+00	1.509589e+00	1.199683e+00	
62	5.528000e-04	1.893777e+00	1.575044e+00	1.261385e+00	
63	5.628000e-04	1.959433e+00	1.640527e+00	1.323472e+00	
64	5.728000e-04	2.025053e+00	1.706027e+00	1.385903e+00	
65	5.828000e-04	2.090637e+00	1.771533e+00	1.448640e+00	
66	5.928000e-04	2.156185e+00	1.837039e+00	1.511650e+00	
67	6.028000e-04	2.221695e+00	1.902536e+00	1.574902e+00	
68	6.128000e-04	2.287166e+00	1.968021e+00	1.638369e+00	
69	6.228000e-04	2.352600e+00	2.033488e+00	1.702025e+00	
70	6.328000e-04	2.417993e+00	2.098934e+00	1.765848e+00	
71	6.428000e-04	2.483347e+00	2.164354e+00	1.829817e+00	
72	6.528000e-04	2.548660e+00	2.229746e+00	1.893914e+00	
73	6.628000e-04	2.613932e+00	2.295108e+00	1.958123e+00	
74	6.728000e-04	2.679161e+00	2.360437e+00	2.022427e+00	
75	6.828000e-04	2.744349e+00	2.425731e+00	2.086814e+00	
76	6.928000e-04	2.809492e+00	2.490989e+00	2.151270e+00	
77	7.028000e-04	2.874592e+00	2.556209e+00	2.215784e+00	
78	7.128000e-04	2.939648e+00	2.621390e+00	2.280347e+00	
79	7.228000e-04	3.004658e+00	2.686531e+00	2.344948e+00	
80	7.328000e-04	3.069622e+00	2.751629e+00	2.409579e+00	
81	7.428000e-04	3.134540e+00	2.816686e+00	2.474233e+00	
82	7.528000e-04	3.199411e+00	2.881699e+00	2.538903e+00	
83	7.628000e-04	3.264234e+00	2.946667e+00	2.603582e+00	
84	7.728000e-04	3.329009e+00	3.011590e+00	2.668265e+00	
85	7.828000e-04	3.393735e+00	3.076467e+00	2.732945e+00	
86	7.928000e-04	3.458411e+00	3.141296e+00	2.797619e+00	
87	8.028000e-04	3.523037e+00	3.206079e+00	2.862282e+00	
88	8.128000e-04	3.587611e+00	3.270812e+00	2.926930e+00	
89	8.228000e-04	3.652135e+00	3.335497e+00	2.991559e+00	
90	8.328000e-04	3.716606e+00	3.400131e+00	3.056165e+00	
91	8.428000e-04	3.781024e+00	3.464715e+00	3.120746e+00	
92	8.528000e-04	3.845389e+00	3.529248e+00	3.185300e+00	
93	8.628000e-04	3.909700e+00	3.593729e+00	3.249822e+00	
94	8.728000e-04	3.973956e+00	3.658157e+00	3.314311e+00	
95	8.828000e-04	4.038156e+00	3.722532e+00	3.378764e+00	
96	8.928000e-04	4.102301e+00	3.786853e+00	3.443179e+00	
97	9.028000e-04	4.166389e+00	3.851120e+00	3.507555e+00	
98	9.128000e-04	4.230419e+00	3.915331e+00	3.571889e+00	
99	9.228000e-04	4.294392e+00	3.979487e+00	3.636180e+00	
100	9.328000e-04	4.358306e+00	4.043586e+00	3.700426e+00	
101	9.428000e-04	4.422162e+00	4.107627e+00	3.764626e+00	
102	9.528000e-04	4.485957e+00	4.171611e+00	3.828778e+00	
103	9.628000e-04	4.549692e+00	4.235537e+00	3.892881e+00	
104	9.728000e-04	4.613366e+00	4.299404e+00	3.956933e+00	
105	9.828000e-04	4.676978e+00	4.363211e+00	4.020934e+00	
106	9.928000e-04	4.740528e+00	4.426957e+00	4.084882e+00	
107	1.002800e-03	4.804015e+00	4.490643e+00	4.148776e+00	
108	1.012800e-03	4.867438e+00	4.554267e+00	4.212615e+00	
109	1.022800e-03	4.930798e+00	4.617829e+00	4.276398e+00	
110	1.032800e-03	4.994092e+00	4.681328e+00	4.340125e+00	
111	1.042800e-03	5.057321e+00	4.744763e+00	4.403793e+00	
112	1.052800e-03	5.120485e+00	4.808135e+00	4.467403e+00	

Index   time            tran1.v(2)      tran2.v(2)      tran3.v(2)      
--------------------------------------------------------------------------------
113	1.062800e-03	5.183581e+00	4.871442e+00	4.530953e+00	
114	1.072800e-03	5.246610e+00	4.934683e+00	4.594443e+00	
115	1.082800e-03	5.309571e+00	4.997859e+00	4.657871e+00	
116	1.092800e-03	5.372464e+00	5.060968e+00	4.721238e+00	
117	1.102800e-03	5.435288e+00	5.124010e+00	4.784541e+00	
118	1.112800e-03	5.498042e+00	5.186984e+00	4.847781e+00	
119	1.122800e-03	5.560725e+00	5.249889e+00	4.910956e+00	
120	1.132800e-03	5.623338e+00	5.312726e+00	4.974066e+00	
121	1.142800e-03	5.685879e+00	5.375493e+00	5.037110e+00	
122	1.152800e-03	5.748347e+00	5.438189e+00	5.100088e+00	
123	1.162800e-03	5.810743e+00	5.500815e+00	5.162998e+00	
124	1.172800e-03	5.873066e+00	5.563369e+00	5.225840e+00	
125	1.182800e-03	5.935314e+00	5.625851e+00	5.288614e+00	
126	1.192800e-03	5.997488e+00	5.688261e+00	5.351318e+00	
127	1.202800e-03	6.059586e+00	5.750597e+00	5.413952e+00	
128	1.212800e-03	6.121609e+00	5.812859e+00	5.476516e+00	
129	1.222800e-03	6.183555e+00	5.875046e+00	5.539007e+00	
130	1.232800e-03	6.245424e+00	5.937158e+00	5.601427e+00	
131	1.242800e-03	6.307215e+00	5.999195e+00	5.663774e+00	
132	1.252800e-03	6.368928e+00	6.061155e+00	5.726048e+00	
133	1.262800e-03	6.430562e+00	6.123038e+00	5.788248e+00	
134	1.272800e-03	6.492116e+00	6.184843e+00	5.850373e+00	
135	1.282800e-03	6.553590e+00	6.246570e+00	5.912423e+00	
136	1.292800e-03	6.614984e+00	6.308218e+00	5.974397e+00	
137	1.302800e-03	6.676296e+00	6.369787e+00	6.036294e+00	
138	1.312800e-03	6.737526e+00	6.431276e+00	6.098115e+00	
139	1.322800e-03	6.798674e+00	6.492684e+00	6.159857e+00	
140	1.332800e-03	6.859739e+00	6.554011e+00	6.221521e+00	
141	1.342800e-03	6.920719e+00	6.615256e+00	6.283106e+00	
142	1.352800e-03	6.981616e+00	6.676419e+00	6.344612e+00	
143	1.362800e-03	7.042427e+00	6.737498e+00	6.406037e+00	
144	1.372800e-03	7.103153e+00	6.798494e+00	6.467381e+00	
145	1.382800e-03	7.163793e+00	6.859406e+00	6.528644e+00	
146	1.392800e-03	7.224346e+00	6.920232e+00	6.589824e+00	
147	1.402800e-03	7.284811e+00	6.980974e+00	6.650922e+00	
148	1.412800e-03	7.345189e+00	7.041629e+00	6.711937e+00	
149	1.422800e-03	7.405478e+00	7.102197e+00	6.772867e+00	
150	1.432800e-03	7.465679e+00	7.162679e+00	6.833714e+00	
151	1.442800e-03	7.525789e+00	7.223072e+00	6.894475e+00	
152	1.452800e-03	7.585809e+00	7.283377e+00	6.955150e+00	
153	1.462800e-03	7.645738e+00	7.343593e+00	7.015739e+00	
154	1.472800e-03	7.705576e+00	7.403720e+00	7.076241e+00	
155	1.482800e-03	7.765322e+00	7.463756e+00	7.136656e+00	
156	1.492800e-03	7.824975e+00	7.523701e+00	7.196982e+00	
157	1.502800e-03	7.884534e+00	7.583555e+00	7.257220e+00	
158	1.512800e-03	7.944000e+00	7.643317e+00	7.317368e+00	
159	1.522800e-03	8.003372e+00	7.702987e+00	7.377427e+00	
160	1.532800e-03	8.062649e+00	7.762563e+00	7.437395e+00	
161	1.542800e-03	8.121830e+00	7.822046e+00	7.497272e+00	
162	1.552800e-03	8.180914e+00	7.881434e+00	7.557057e+00	
163	1.562800e-03	8.239903e+00	7.940728e+00	7.616750e+00	
164	1.572800e-03	8.298793e+00	7.999926e+00	7.676350e+00	
165	1.582800e-03	8.357586e+00	8.059028e+00	7.735857e+00	
166	1.592800e-03	8.416281e+00	8.118033e+00	7.795269e+00	
167	1.602800e-03	8.474876e+00	8.176941e+00	7.854588e+00	
168	1.612800e-03	8.533372e+00	8.235752e+00	7.913811e+00	
169	1.622800e-03	8.591768e+00	8.294464e+00	7.972938e+00	
170	1.632800e-03	8.650063e+00	8.353077e+00	8.031969e+00	

Index   time            tran1.v(2)      tran2.v(2)      tran3.v(2)      
--------------------------------------------------------------------------------
171	1.642800e-03	8.708256e+00	8.411590e+00	8.090903e+00	
172	1.652800e-03	8.766348e+00	8.470003e+00	8.149739e+00	
173	1.662800e-03	8.824337e+00	8.528316e+00	8.208477e+00	
174	1.672800e-03	8.882223e+00	8.586528e+00	8.267117e+00	
175	1.682800e-03	8.940006e+00	8.644638e+00	8.325657e+00	
176	1.692800e-03	8.997684e+00	8.702645e+00	8.384098e+00	
177	1.702800e-03	9.055258e+00	8.760549e+00	8.442438e+00	
178	1.712800e-03	9.112726e+00	8.818350e+00	8.500678e+00	
179	1.722800e-03	9.170089e+00	8.876047e+00	8.558816e+00	
180	1.732800e-03	9.227345e+00	8.933639e+00	8.616851e+00	
181	1.742800e-03	9.284494e+00	8.991126e+00	8.674784e+00	
182	1.752800e-03	9.341535e+00	9.048508e+00	8.732614e+00	
183	1.762800e-03	9.398469e+00	9.105783e+00	8.790340e+00	
184	1.772800e-03	9.455294e+00	9.162951e+00	8.847962e+00	
185	1.782800e-03	9.512009e+00	9.220011e+00	8.905479e+00	
186	1.792800e-03	9.568615e+00	9.276964e+00	8.962890e+00	
187	1.802800e-03	9.625110e+00	9.333808e+00	9.020195e+00	
188	1.812800e-03	9.681495e+00	9.390543e+00	9.077394e+00	
189	1.822800e-03	9.737768e+00	9.447168e+00	9.134485e+00	
190	1.832800e-03	9.793929e+00	9.503683e+00	9.191469e+00	
191	1.842800e-03	9.849978e+00	9.560088e+00	9.248345e+00	
192	1.852800e-03	9.905913e+00	9.616381e+00	9.305111e+00	
193	1.862800e-03	9.961735e+00	9.672562e+00	9.361768e+00	
194	1.872800e-03	1.001744e+01	9.728630e+00	9.418316e+00	
195	1.882800e-03	1.007304e+01	9.784586e+00	9.474752e+00	
196	1.892800e-03	1.012851e+01	9.840428e+00	9.531078e+00	
197	1.902800e-03	1.018388e+01	9.896156e+00	9.587292e+00	
198	1.912800e-03	1.023912e+01	9.951770e+00	9.643394e+00	
199	1.922800e-03	1.029425e+01	1.000727e+01	9.699383e+00	
200	1.932800e-03	1.034926e+01	1.006265e+01	9.755259e+00	
201	1.942800e-03	1.040415e+01	1.011792e+01	9.811021e+00	
202	1.952800e-03	1.045893e+01	1.017307e+01	9.866669e+00	
203	1.962800e-03	1.051358e+01	1.022810e+01	9.922202e+00	
204	1.972800e-03	1.056812e+01	1.028301e+01	9.977620e+00	
205	1.982800e-03	1.062254e+01	1.033781e+01	1.003292e+01	
206	1.992800e-03	1.067683e+01	1.039249e+01	1.008811e+01	
207	2.002800e-03	1.073101e+01	1.044704e+01	1.014317e+01	
208	2.012800e-03	1.078506e+01	1.050148e+01	1.019812e+01	
209	2.022800e-03	1.083899e+01	1.055580e+01	1.025296e+01	
210	2.032800e-03	1.089280e+01	1.060999e+01	1.030767e+01	
211	2.042800e-03	1.094648e+01	1.066407e+01	1.036226e+01	
212	2.052800e-03	1.100004e+01	1.071802e+01	1.041674e+01	
213	2.062800e-03	1.105348e+01	1.077185e+01	1.047109e+01	
214	2.072800e-03	1.110679e+01	1.082556e+01	1.052533e+01	
215	2.082800e-03	1.115997e+01	1.087914e+01	1.057944e+01	
216	2.092800e-03	1.121303e+01	1.093260e+01	1.063343e+01	
217	2.102800e-03	1.126597e+01	1.098593e+01	1.068730e+01	
218	2.112800e-03	1.131877e+01	1.103914e+01	1.074104e+01	
219	2.122800e-03	1.137145e+01	1.109222e+01	1.079466e+01	
220	2.132800e-03	1.142400e+01	1.114518e+01	1.084816e+01	
221	2.142800e-03	1.147643e+01	1.119801e+01	1.090154e+01	
222	2.152800e-03	1.152872e+01	1.125071e+01	1.095478e+01	
223	2.162800e-03	1.158089e+01	1.130329e+01	1.100791e+01	
224	2.172800e-03	1.163292e+01	1.135573e+01	1.106090e+01	
225	2.182800e-03	1.168482e+01	1.140805e+01	1.111377e+01	
226	2.192800e-03	1.173660e+01	1.146024e+01	1.116652e+01	
227	2.202800e-03	1.178824e+01	1.151230e+01	1.121913e+01	
228	2.212800e-03	1.183975e+01	1.156422e+01	1.127162e+01	

Index   time            tran1.v(2)      tran2.v(2)      tran3.v(2)      
--------------------------------------------------------------------------------
229	2.222800e-03	1.189112e+01	1.161602e+01	1.132398e+01	
230	2.232800e-03	1.194237e+01	1.166769e+01	1.137621e+01	
231	2.242800e-03	1.199348e+01	1.171922e+01	1.142831e+01	
232	2.252800e-03	1.204445e+01	1.177062e+01	1.148028e+01	
233	2.262800e-03	1.209530e+01	1.182189e+01	1.153212e+01	
234	2.272800e-03	1.214600e+01	1.187303e+01	1.158383e+01	
235	2.282800e-03	1.219657e+01	1.192403e+01	1.163540e+01	
236	2.292800e-03	1.224701e+01	1.197489e+01	1.168685e+01	
237	2.302800e-03	1.229731e+01	1.202562e+01	1.173816e+01	
238	2.312800e-03	1.234747e+01	1.207622e+01	1.178934e+01	
239	2.322800e-03	1.239749e+01	1.212668e+01	1.184038e+01	
240	2.332800e-03	1.244738e+01	1.217701e+01	1.189129e+01	
241	2.342800e-03	1.249713e+01	1.222719e+01	1.194207e+01	
242	2.352800e-03	1.254674e+01	1.227724e+01	1.199271e+01	
243	2.362800e-03	1.259621e+01	1.232716e+01	1.204322e+01	
244	2.372800e-03	1.264554e+01	1.237693e+01	1.209358e+01	
245	2.382800e-03	1.269473e+01	1.242656e+01	1.214382e+01	
246	2.392800e-03	1.274377e+01	1.247606e+01	1.219391e+01	
247	2.402800e-03	1.279268e+01	1.252542e+01	1.224387e+01	
248	2.412800e-03	1.284145e+01	1.257463e+01	1.229369e+01	
249	2.422800e-03	1.289007e+01	1.262371e+01	1.234337e+01	
250	2.432800e-03	1.293855e+01	1.267264e+01	1.239292e+01	
251	2.442800e-03	1.298689e+01	1.272143e+01	1.244232e+01	
252	2.452800e-03	1.303508e+01	1.277008e+01	1.249158e+01	
253	2.462800e-03	1.308313e+01	1.281859e+01	1.254070e+01	
254	2.472800e-03	1.313104e+01	1.286696e+01	1.258969e+01	
255	2.482800e-03	1.317879e+01	1.291518e+01	1.263853e+01	
256	2.492800e-03	1.322641e+01	1.296325e+01	1.268722e+01	
257	2.502800e-03	1.327388e+01	1.301119e+01	1.273578e+01	
258	2.512800e-03	1.332120e+01	1.305897e+01	1.278419e+01	
259	2.522800e-03	1.336837e+01	1.310662e+01	1.283246e+01	
260	2.532800e-03	1.341540e+01	1.315411e+01	1.288059e+01	
261	2.542800e-03	1.346228e+01	1.320146e+01	1.292857e+01	
262	2.552800e-03	1.350901e+01	1.324867e+01	1.297641e+01	
263	2.562800e-03	1.355560e+01	1.329572e+01	1.302410e+01	
264	2.572800e-03	1.360203e+01	1.334263e+01	1.307165e+01	
265	2.582800e-03	1.364831e+01	1.338939e+01	1.311905e+01	
266	2.592800e-03	1.369445e+01	1.343600e+01	1.316630e+01	
267	2.602800e-03	1.374043e+01	1.348247e+01	1.321341e+01	
268	2.612800e-03	1.378626e+01	1.352878e+01	1.326037e+01	
269	2.622800e-03	1.383194e+01	1.357494e+01	1.330718e+01	
270	2.632800e-03	1.387747e+01	1.362096e+01	1.335384e+01	
271	2.642800e-03	1.392285e+01	1.366682e+01	1.340036e+01	
272	2.652800e-03	1.396807e+01	1.371253e+01	1.344672e+01	
273	2.662800e-03	1.401314e+01	1.375809e+01	1.349294e+01	
274	2.672800e-03	1.405806e+01	1.380350e+01	1.353900e+01	
275	2.682800e-03	1.410282e+01	1.384875e+01	1.358492e+01	
276	2.692800e-03	1.414743e+01	1.389385e+01	1.363068e+01	
277	2.702800e-03	1.419189e+01	1.393880e+01	1.367629e+01	
278	2.712800e-03	1.423619e+01	1.398359e+01	1.372175e+01	
279	2.722800e-03	1.428033e+01	1.402823e+01	1.376706e+01	
280	2.732800e-03	1.432432e+01	1.407272e+01	1.381221e+01	
281	2.742800e-03	1.436815e+01	1.411705e+01	1.385722e+01	
282	2.752800e-03	1.441182e+01	1.416122e+01	1.390207e+01	
283	2.762800e-03	1.445533e+01	1.420524e+01	1.394676e+01	
284	2.772800e-03	1.449869e+01	1.424910e+01	1.399130e+01	
285	2.782800e-03	1.454189e+01	1.429281e+01	1.403568e+01	
286	2.792800e-03	1.458493e+01	1.433636e+01	1.407991e+01	

Index   time            tran1.v(2)      tran2.v(2)      tran3.v(2)      
--------------------------------------------------------------------------------
287	2.802800e-03	1.462781e+01	1.437975e+01	1.412399e+01	
288	2.812800e-03	1.467054e+01	1.442298e+01	1.416790e+01	
289	2.822800e-03	1.471310e+01	1.446605e+01	1.421166e+01	
290	2.832800e-03	1.475550e+01	1.450897e+01	1.425527e+01	
291	2.842800e-03	1.479774e+01	1.455172e+01	1.429871e+01	
292	2.852800e-03	1.483982e+01	1.459432e+01	1.434200e+01	
293	2.862800e-03	1.488174e+01	1.463676e+01	1.438513e+01	
294	2.872800e-03	1.492350e+01	1.467903e+01	1.442810e+01	
295	2.882800e-03	1.496509e+01	1.472115e+01	1.447092e+01	
296	2.892800e-03	1.500652e+01	1.476310e+01	1.451357e+01	
297	2.902800e-03	1.504779e+01	1.480489e+01	1.455606e+01	
298	2.912800e-03	1.508890e+01	1.484652e+01	1.459839e+01	
299	2.922800e-03	1.512984e+01	1.488798e+01	1.464057e+01	
300	2.932800e-03	1.517062e+01	1.492929e+01	1.468258e+01	
301	2.942800e-03	1.521123e+01	1.497043e+01	1.472443e+01	
302	2.952800e-03	1.525168e+01	1.501140e+01	1.476611e+01	
303	2.962800e-03	1.529196e+01	1.505222e+01	1.480764e+01	
304	2.972800e-03	1.533207e+01	1.509286e+01	1.484900e+01	
305	2.982800e-03	1.537202e+01	1.513335e+01	1.489020e+01	
306	2.992800e-03	1.541181e+01	1.517367e+01	1.493123e+01	
307	3.002800e-03	1.545142e+01	1.521382e+01	1.497211e+01	
308	3.012800e-03	1.549087e+01	1.525380e+01	1.501281e+01	
309	3.022800e-03	1.553015e+01	1.529362e+01	1.505336e+01	
310	3.032800e-03	1.556926e+01	1.533328e+01	1.509373e+01	
311	3.042800e-03	1.560821e+01	1.537276e+01	1.513395e+01	
312	3.052800e-03	1.564698e+01	1.541208e+01	1.517399e+01	
313	3.062800e-03	1.568559e+01	1.545123e+01	1.521387e+01	
314	3.072800e-03	1.572403e+01	1.549021e+01	1.525358e+01	
315	3.082800e-03	1.576229e+01	1.552903e+01	1.529313e+01	
316	3.092800e-03	1.580039e+01	1.556767e+01	1.533251e+01	
317	3.102800e-03	1.583832e+01	1.560615e+01	1.537172e+01	
318	3.112800e-03	1.587607e+01	1.564445e+01	1.541076e+01	
319	3.122800e-03	1.591365e+01	1.568259e+01	1.544964e+01	
320	3.132800e-03	1.595106e+01	1.572055e+01	1.548835e+01	
321	3.142800e-03	1.598830e+01	1.575835e+01	1.552688e+01	
322	3.152800e-03	1.602537e+01	1.579597e+01	1.556525e+01	
323	3.162800e-03	1.606227e+01	1.583342e+01	1.560345e+01	
324	3.172800e-03	1.609899e+01	1.587070e+01	1.564148e+01	
325	3.182800e-03	1.613554e+01	1.590781e+01	1.567933e+01	
326	3.192800e-03	1.617191e+01	1.594474e+01	1.571702e+01	
327	3.202800e-03	1.620811e+01	1.598150e+01	1.575453e+01	
328	3.212800e-03	1.624413e+01	1.601809e+01	1.579187e+01	
329	3.222800e-03	1.627999e+01	1.605451e+01	1.582905e+01	
330	3.232800e-03	1.631566e+01	1.609075e+01	1.586604e+01	
331	3.242800e-03	1.635116e+01	1.612682e+01	1.590287e+01	
