
Circuit: unregulated supply

                               unregulated supply
                               Transient Analysis  Thu Jan 20 12:09:38  2022
--------------------------------------------------------------------------------
Index   time            i(vd1)          i(vd2)          
--------------------------------------------------------------------------------
0	0.000000e+00	-2.83793e-28	-2.83756e-28	
1	1.000000e-07	8.831818e-08	-8.83182e-08	
2	2.000000e-07	8.833495e-08	-8.83048e-08	
3	4.000000e-07	8.836657e-08	-8.82760e-08	
4	8.000000e-07	8.839977e-08	-8.82485e-08	
5	1.600000e-06	8.849698e-08	-8.81635e-08	
6	3.200000e-06	8.866384e-08	-8.80238e-08	
7	6.400000e-06	8.903966e-08	-8.77150e-08	
8	1.280000e-05	8.982295e-08	-8.71331e-08	
9	2.280000e-05	9.135317e-08	-8.62216e-08	
10	3.280000e-05	9.359748e-08	-8.53652e-08	
11	4.280000e-05	9.752635e-08	-8.45149e-08	
12	5.280000e-05	1.054575e-07	-8.37199e-08	
13	6.280000e-05	1.230522e-07	-8.29288e-08	
14	7.280000e-05	1.640264e-07	-8.21897e-08	
15	8.280000e-05	2.617362e-07	-8.14511e-08	
16	9.280000e-05	4.971861e-07	-8.07615e-08	
17	1.028000e-04	1.067205e-06	-8.00694e-08	
18	1.128000e-04	2.449900e-06	-7.94235e-08	
19	1.228000e-04	5.806600e-06	-7.87728e-08	
20	1.328000e-04	1.395767e-05	-7.81660e-08	
21	1.428000e-04	3.375142e-05	-7.75524e-08	
22	1.528000e-04	8.181217e-05	-7.69810e-08	
23	1.628000e-04	1.984774e-04	-7.64015e-08	
24	1.728000e-04	4.815376e-04	-7.58641e-08	
25	1.828000e-04	1.167617e-03	-7.53207e-08	
26	1.928000e-04	2.826789e-03	-7.48269e-08	
27	2.028000e-04	6.818455e-03	-7.43469e-08	
28	2.128000e-04	1.630681e-02	-7.39643e-08	
29	2.228000e-04	3.825528e-02	-7.37038e-08	
30	2.328000e-04	8.620217e-02	-7.37591e-08	
31	2.428000e-04	1.810410e-01	-7.42996e-08	
32	2.528000e-04	3.427998e-01	-7.55782e-08	
33	2.628000e-04	5.783304e-01	-7.76000e-08	
34	2.728000e-04	8.774490e-01	-8.02866e-08	
35	2.828000e-04	1.220377e+00	-8.33615e-08	
36	2.928000e-04	1.586583e+00	-8.66468e-08	
37	3.028000e-04	1.958260e+00	-8.99017e-08	
38	3.128000e-04	2.325390e+00	-9.30687e-08	
39	3.228000e-04	2.680203e+00	-9.60210e-08	
40	3.328000e-04	3.016571e+00	-9.87503e-08	
41	3.428000e-04	3.332157e+00	-1.01189e-07	
42	3.528000e-04	3.625795e+00	-1.03384e-07	
43	3.628000e-04	3.897384e+00	-1.05290e-07	
44	3.728000e-04	4.147374e+00	-1.06969e-07	
45	3.828000e-04	4.376621e+00	-1.08389e-07	
46	3.928000e-04	4.586208e+00	-1.09615e-07	
47	4.028000e-04	4.777343e+00	-1.10616e-07	
48	4.128000e-04	4.951287e+00	-1.11460e-07	
49	4.228000e-04	5.109305e+00	-1.12115e-07	
50	4.328000e-04	5.252636e+00	-1.12646e-07	
51	4.428000e-04	5.382469e+00	-1.13020e-07	
52	4.528000e-04	5.499931e+00	-1.13300e-07	
53	4.628000e-04	5.606082e+00	-1.13450e-07	
54	4.728000e-04	5.701912e+00	-1.13532e-07	

Index   time            i(vd1)          i(vd2)          
--------------------------------------------------------------------------------
55	4.828000e-04	5.788338e+00	-1.13506e-07	
56	4.928000e-04	5.866207e+00	-1.13432e-07	
57	5.028000e-04	5.936299e+00	-1.13269e-07	
58	5.128000e-04	5.999328e+00	-1.13076e-07	
59	5.228000e-04	6.055948e+00	-1.12808e-07	
60	5.328000e-04	6.106757e+00	-1.12524e-07	
61	5.428000e-04	6.152299e+00	-1.12177e-07	
62	5.528000e-04	6.193070e+00	-1.11824e-07	
63	5.628000e-04	6.229520e+00	-1.11418e-07	
64	5.728000e-04	6.262058e+00	-1.11014e-07	
65	5.828000e-04	6.291055e+00	-1.10566e-07	
66	5.928000e-04	6.316847e+00	-1.10126e-07	
67	6.028000e-04	6.339738e+00	-1.09647e-07	
68	6.128000e-04	6.360006e+00	-1.09182e-07	
69	6.228000e-04	6.377898e+00	-1.08682e-07	
70	6.328000e-04	6.393640e+00	-1.08201e-07	
71	6.428000e-04	6.407437e+00	-1.07688e-07	
72	6.528000e-04	6.419473e+00	-1.07197e-07	
73	6.628000e-04	6.429913e+00	-1.06678e-07	
74	6.728000e-04	6.438909e+00	-1.06182e-07	
75	6.828000e-04	6.446596e+00	-1.05661e-07	
76	6.928000e-04	6.453096e+00	-1.05164e-07	
77	7.028000e-04	6.458520e+00	-1.04644e-07	
78	7.128000e-04	6.462968e+00	-1.04150e-07	
79	7.228000e-04	6.466529e+00	-1.03633e-07	
80	7.328000e-04	6.469285e+00	-1.03143e-07	
81	7.428000e-04	6.471308e+00	-1.02632e-07	
82	7.528000e-04	6.472666e+00	-1.02148e-07	
83	7.628000e-04	6.473417e+00	-1.01644e-07	
84	7.728000e-04	6.473614e+00	-1.01168e-07	
85	7.828000e-04	6.473307e+00	-1.00671e-07	
86	7.928000e-04	6.472539e+00	-1.00203e-07	
87	8.028000e-04	6.471349e+00	-9.97141e-08	
88	8.128000e-04	6.469773e+00	-9.92548e-08	
89	8.228000e-04	6.467842e+00	-9.87749e-08	
90	8.328000e-04	6.465585e+00	-9.83245e-08	
91	8.428000e-04	6.463029e+00	-9.78535e-08	
92	8.528000e-04	6.460197e+00	-9.74121e-08	
93	8.628000e-04	6.457109e+00	-9.69502e-08	
94	8.728000e-04	6.453785e+00	-9.65178e-08	
95	8.828000e-04	6.450242e+00	-9.60649e-08	
96	8.928000e-04	6.446495e+00	-9.56414e-08	
97	9.028000e-04	6.442558e+00	-9.51973e-08	
98	9.128000e-04	6.438445e+00	-9.47826e-08	
99	9.228000e-04	6.434165e+00	-9.43472e-08	
100	9.328000e-04	6.429729e+00	-9.39411e-08	
101	9.428000e-04	6.425147e+00	-9.35141e-08	
102	9.528000e-04	6.420427e+00	-9.31163e-08	
103	9.628000e-04	6.415576e+00	-9.26975e-08	
104	9.728000e-04	6.410601e+00	-9.23078e-08	
105	9.828000e-04	6.405508e+00	-9.18970e-08	
106	9.928000e-04	6.400303e+00	-9.15150e-08	
107	1.002800e-03	6.394990e+00	-9.11117e-08	
108	1.012800e-03	6.389574e+00	-9.07372e-08	
109	1.022800e-03	6.384059e+00	-9.03414e-08	
110	1.032800e-03	6.378448e+00	-8.99742e-08	
111	1.042800e-03	6.372746e+00	-8.95854e-08	
112	1.052800e-03	6.366954e+00	-8.92250e-08	

Index   time            i(vd1)          i(vd2)          
--------------------------------------------------------------------------------
113	1.062800e-03	6.361076e+00	-8.88431e-08	
114	1.072800e-03	6.355113e+00	-8.84894e-08	
115	1.082800e-03	6.349069e+00	-8.81139e-08	
116	1.092800e-03	6.342945e+00	-8.77666e-08	
117	1.102800e-03	6.336743e+00	-8.73974e-08	
118	1.112800e-03	6.330464e+00	-8.70562e-08	
119	1.122800e-03	6.324110e+00	-8.66930e-08	
120	1.132800e-03	6.317682e+00	-8.63576e-08	
121	1.142800e-03	6.311182e+00	-8.60001e-08	
122	1.152800e-03	6.304611e+00	-8.56704e-08	
123	1.162800e-03	6.297969e+00	-8.53184e-08	
124	1.172800e-03	6.291258e+00	-8.49940e-08	
125	1.182800e-03	6.284477e+00	-8.46473e-08	
126	1.192800e-03	6.277629e+00	-8.43281e-08	
127	1.202800e-03	6.270714e+00	-8.39864e-08	
128	1.212800e-03	6.263732e+00	-8.36722e-08	
129	1.222800e-03	6.256684e+00	-8.33353e-08	
130	1.232800e-03	6.249570e+00	-8.30257e-08	
131	1.242800e-03	6.242391e+00	-8.26935e-08	
132	1.252800e-03	6.235147e+00	-8.23885e-08	
133	1.262800e-03	6.227839e+00	-8.20607e-08	
134	1.272800e-03	6.220467e+00	-8.17601e-08	
135	1.282800e-03	6.213032e+00	-8.14365e-08	
136	1.292800e-03	6.205533e+00	-8.11400e-08	
137	1.302800e-03	6.197972e+00	-8.08205e-08	
138	1.312800e-03	6.190347e+00	-8.05280e-08	
139	1.322800e-03	6.182661e+00	-8.02124e-08	
140	1.332800e-03	6.174911e+00	-7.99238e-08	
141	1.342800e-03	6.167100e+00	-7.96120e-08	
142	1.352800e-03	6.159228e+00	-7.93270e-08	
143	1.362800e-03	6.151293e+00	-7.90187e-08	
144	1.372800e-03	6.143298e+00	-7.87373e-08	
145	1.382800e-03	6.135241e+00	-7.84326e-08	
146	1.392800e-03	6.127122e+00	-7.81545e-08	
147	1.402800e-03	6.118943e+00	-7.78530e-08	
148	1.412800e-03	6.110704e+00	-7.75782e-08	
149	1.422800e-03	6.102403e+00	-7.72799e-08	
150	1.432800e-03	6.094043e+00	-7.70083e-08	
151	1.442800e-03	6.085622e+00	-7.67131e-08	
152	1.452800e-03	6.077140e+00	-7.64444e-08	
153	1.462800e-03	6.068599e+00	-7.61521e-08	
154	1.472800e-03	6.059997e+00	-7.58863e-08	
155	1.482800e-03	6.051336e+00	-7.55969e-08	
156	1.492800e-03	6.042615e+00	-7.53339e-08	
157	1.502800e-03	6.033835e+00	-7.50472e-08	
158	1.512800e-03	6.024995e+00	-7.47868e-08	
159	1.522800e-03	6.016096e+00	-7.45027e-08	
160	1.532800e-03	6.007137e+00	-7.42449e-08	
161	1.542800e-03	5.998120e+00	-7.39634e-08	
162	1.552800e-03	5.989043e+00	-7.37081e-08	
163	1.562800e-03	5.979907e+00	-7.34290e-08	
164	1.572800e-03	5.970713e+00	-7.31761e-08	
165	1.582800e-03	5.961460e+00	-7.28993e-08	
166	1.592800e-03	5.952148e+00	-7.26486e-08	
167	1.602800e-03	5.942778e+00	-7.23741e-08	
168	1.612800e-03	5.933349e+00	-7.21257e-08	
169	1.622800e-03	5.923862e+00	-7.18533e-08	
170	1.632800e-03	5.914317e+00	-7.16070e-08	

Index   time            i(vd1)          i(vd2)          
--------------------------------------------------------------------------------
171	1.642800e-03	5.904714e+00	-7.13367e-08	
172	1.652800e-03	5.895053e+00	-7.10924e-08	
173	1.662800e-03	5.885333e+00	-7.08242e-08	
174	1.672800e-03	5.875557e+00	-7.05819e-08	
175	1.682800e-03	5.865722e+00	-7.03156e-08	
176	1.692800e-03	5.855830e+00	-7.00752e-08	
177	1.702800e-03	5.845880e+00	-6.98108e-08	
178	1.712800e-03	5.835874e+00	-6.95722e-08	
179	1.722800e-03	5.825810e+00	-6.93095e-08	
180	1.732800e-03	5.815688e+00	-6.90728e-08	
181	1.742800e-03	5.805510e+00	-6.88119e-08	
182	1.752800e-03	5.795275e+00	-6.85768e-08	
183	1.762800e-03	5.784983e+00	-6.83177e-08	
184	1.772800e-03	5.774634e+00	-6.80842e-08	
185	1.782800e-03	5.764229e+00	-6.78266e-08	
186	1.792800e-03	5.753767e+00	-6.75948e-08	
187	1.802800e-03	5.743249e+00	-6.73387e-08	
188	1.812800e-03	5.732674e+00	-6.71085e-08	
189	1.822800e-03	5.722043e+00	-6.68539e-08	
190	1.832800e-03	5.711357e+00	-6.66251e-08	
191	1.842800e-03	5.700614e+00	-6.63721e-08	
192	1.852800e-03	5.689815e+00	-6.61447e-08	
193	1.862800e-03	5.678961e+00	-6.58930e-08	
194	1.872800e-03	5.668051e+00	-6.56670e-08	
195	1.882800e-03	5.657086e+00	-6.54168e-08	
196	1.892800e-03	5.646065e+00	-6.51920e-08	
197	1.902800e-03	5.634989e+00	-6.49431e-08	
198	1.912800e-03	5.623858e+00	-6.47197e-08	
199	1.922800e-03	5.612672e+00	-6.44720e-08	
200	1.932800e-03	5.601431e+00	-6.42499e-08	
201	1.942800e-03	5.590135e+00	-6.40034e-08	
202	1.952800e-03	5.578784e+00	-6.37825e-08	
203	1.962800e-03	5.567379e+00	-6.35372e-08	
204	1.972800e-03	5.555920e+00	-6.33174e-08	
205	1.982800e-03	5.544406e+00	-6.30732e-08	
206	1.992800e-03	5.532837e+00	-6.28546e-08	
207	2.002800e-03	5.521215e+00	-6.26116e-08	
208	2.012800e-03	5.509539e+00	-6.23941e-08	
209	2.022800e-03	5.497809e+00	-6.21520e-08	
210	2.032800e-03	5.486025e+00	-6.19356e-08	
211	2.042800e-03	5.474187e+00	-6.16947e-08	
212	2.052800e-03	5.462297e+00	-6.14791e-08	
213	2.062800e-03	5.450352e+00	-6.12392e-08	
214	2.072800e-03	5.438355e+00	-6.10248e-08	
215	2.082800e-03	5.426304e+00	-6.07858e-08	
216	2.092800e-03	5.414200e+00	-6.05721e-08	
217	2.102800e-03	5.402044e+00	-6.03342e-08	
218	2.112800e-03	5.389834e+00	-6.01216e-08	
219	2.122800e-03	5.377572e+00	-5.98844e-08	
220	2.132800e-03	5.365258e+00	-5.96728e-08	
221	2.142800e-03	5.352891e+00	-5.94364e-08	
222	2.152800e-03	5.340472e+00	-5.92256e-08	
223	2.162800e-03	5.328001e+00	-5.89902e-08	
224	2.172800e-03	5.315478e+00	-5.87801e-08	
225	2.182800e-03	5.302903e+00	-5.85454e-08	
226	2.192800e-03	5.290276e+00	-5.83363e-08	
227	2.202800e-03	5.277598e+00	-5.81025e-08	
228	2.212800e-03	5.264868e+00	-5.78940e-08	

Index   time            i(vd1)          i(vd2)          
--------------------------------------------------------------------------------
229	2.222800e-03	5.252087e+00	-5.76609e-08	
230	2.232800e-03	5.239255e+00	-5.74533e-08	
231	2.242800e-03	5.226372e+00	-5.72210e-08	
232	2.252800e-03	5.213438e+00	-5.70140e-08	
233	2.262800e-03	5.200453e+00	-5.67823e-08	
234	2.272800e-03	5.187417e+00	-5.65761e-08	
235	2.282800e-03	5.174331e+00	-5.63453e-08	
236	2.292800e-03	5.161194e+00	-5.61397e-08	
237	2.302800e-03	5.148008e+00	-5.59094e-08	
238	2.312800e-03	5.134771e+00	-5.57045e-08	
239	2.322800e-03	5.121484e+00	-5.54749e-08	
240	2.332800e-03	5.108147e+00	-5.52706e-08	
241	2.342800e-03	5.094761e+00	-5.50418e-08	
242	2.352800e-03	5.081325e+00	-5.48380e-08	
243	2.362800e-03	5.067840e+00	-5.46097e-08	
244	2.372800e-03	5.054305e+00	-5.44067e-08	
245	2.382800e-03	5.040722e+00	-5.41789e-08	
246	2.392800e-03	5.027089e+00	-5.39764e-08	
247	2.402800e-03	5.013407e+00	-5.37492e-08	
248	2.412800e-03	4.999677e+00	-5.35473e-08	
249	2.422800e-03	4.985898e+00	-5.33207e-08	
250	2.432800e-03	4.972071e+00	-5.31193e-08	
251	2.442800e-03	4.958196e+00	-5.28931e-08	
252	2.452800e-03	4.944272e+00	-5.26922e-08	
253	2.462800e-03	4.930301e+00	-5.24667e-08	
254	2.472800e-03	4.916281e+00	-5.22663e-08	
255	2.482800e-03	4.902214e+00	-5.20413e-08	
256	2.492800e-03	4.888100e+00	-5.18415e-08	
257	2.502800e-03	4.873938e+00	-5.16168e-08	
258	2.512800e-03	4.859729e+00	-5.14174e-08	
259	2.522800e-03	4.845472e+00	-5.11934e-08	
260	2.532800e-03	4.831169e+00	-5.09943e-08	
261	2.542800e-03	4.816819e+00	-5.07707e-08	
262	2.552800e-03	4.802423e+00	-5.05722e-08	
263	2.562800e-03	4.787979e+00	-5.03490e-08	
264	2.572800e-03	4.773490e+00	-5.01509e-08	
265	2.582800e-03	4.758954e+00	-4.99280e-08	
266	2.592800e-03	4.744373e+00	-4.97305e-08	
267	2.602800e-03	4.729745e+00	-4.95081e-08	
268	2.612800e-03	4.715072e+00	-4.93108e-08	
269	2.622800e-03	4.700354e+00	-4.90888e-08	
270	2.632800e-03	4.685589e+00	-4.88919e-08	
271	2.642800e-03	4.670780e+00	-4.86703e-08	
272	2.652800e-03	4.655926e+00	-4.84739e-08	
273	2.662800e-03	4.641026e+00	-4.82525e-08	
274	2.672800e-03	4.626082e+00	-4.80566e-08	
275	2.682800e-03	4.611093e+00	-4.78357e-08	
276	2.692800e-03	4.596060e+00	-4.76400e-08	
277	2.702800e-03	4.580983e+00	-4.74194e-08	
278	2.712800e-03	4.565861e+00	-4.72239e-08	
279	2.722800e-03	4.550696e+00	-4.70037e-08	
280	2.732800e-03	4.535486e+00	-4.68087e-08	
281	2.742800e-03	4.520233e+00	-4.65888e-08	
282	2.752800e-03	4.504937e+00	-4.63940e-08	
283	2.762800e-03	4.489597e+00	-4.61746e-08	
284	2.772800e-03	4.474214e+00	-4.59800e-08	
285	2.782800e-03	4.458788e+00	-4.57608e-08	
286	2.792800e-03	4.443320e+00	-4.55666e-08	

Index   time            i(vd1)          i(vd2)          
--------------------------------------------------------------------------------
287	2.802800e-03	4.427808e+00	-4.53477e-08	
288	2.812800e-03	4.412254e+00	-4.51538e-08	
289	2.822800e-03	4.396658e+00	-4.49352e-08	
290	2.832800e-03	4.381020e+00	-4.47416e-08	
291	2.842800e-03	4.365340e+00	-4.45232e-08	
292	2.852800e-03	4.349618e+00	-4.43299e-08	
293	2.862800e-03	4.333854e+00	-4.41117e-08	
294	2.872800e-03	4.318049e+00	-4.39188e-08	
295	2.882800e-03	4.302202e+00	-4.37008e-08	
296	2.892800e-03	4.286315e+00	-4.35080e-08	
297	2.902800e-03	4.270386e+00	-4.32904e-08	
298	2.912800e-03	4.254417e+00	-4.30980e-08	
299	2.922800e-03	4.238407e+00	-4.28805e-08	
300	2.932800e-03	4.222357e+00	-4.26883e-08	
301	2.942800e-03	4.206266e+00	-4.24711e-08	
302	2.952800e-03	4.190135e+00	-4.22791e-08	
303	2.962800e-03	4.173965e+00	-4.20621e-08	
304	2.972800e-03	4.157755e+00	-4.18704e-08	
305	2.982800e-03	4.141505e+00	-4.16536e-08	
306	2.992800e-03	4.125216e+00	-4.14620e-08	
307	3.002800e-03	4.108887e+00	-4.12455e-08	
308	3.012800e-03	4.092520e+00	-4.10540e-08	
309	3.022800e-03	4.076114e+00	-4.08378e-08	
310	3.032800e-03	4.059669e+00	-4.06465e-08	
311	3.042800e-03	4.043186e+00	-4.04305e-08	
312	3.052800e-03	4.026664e+00	-4.02395e-08	
313	3.062800e-03	4.010105e+00	-4.00236e-08	
314	3.072800e-03	3.993507e+00	-3.98328e-08	
315	3.082800e-03	3.976872e+00	-3.96170e-08	
316	3.092800e-03	3.960199e+00	-3.94264e-08	
317	3.102800e-03	3.943489e+00	-3.92110e-08	
318	3.112800e-03	3.926742e+00	-3.90205e-08	
319	3.122800e-03	3.909958e+00	-3.88051e-08	
320	3.132800e-03	3.893137e+00	-3.86149e-08	
321	3.142800e-03	3.876279e+00	-3.83997e-08	
322	3.152800e-03	3.859385e+00	-3.82096e-08	
323	3.162800e-03	3.842455e+00	-3.79944e-08	
324	3.172800e-03	3.825489e+00	-3.78046e-08	
325	3.182800e-03	3.808487e+00	-3.75897e-08	
326	3.192800e-03	3.791449e+00	-3.73999e-08	
327	3.202800e-03	3.774376e+00	-3.71851e-08	
328	3.212800e-03	3.757268e+00	-3.69955e-08	
329	3.222800e-03	3.740124e+00	-3.67810e-08	
330	3.232800e-03	3.722946e+00	-3.65915e-08	
331	3.242800e-03	3.705733e+00	-3.63772e-08	
332	3.252800e-03	3.688486e+00	-3.61878e-08	
333	3.262800e-03	3.671205e+00	-3.59735e-08	
334	3.272800e-03	3.653889e+00	-3.57843e-08	
335	3.282800e-03	3.636540e+00	-3.55701e-08	
336	3.292800e-03	3.619156e+00	-3.53810e-08	
337	3.302800e-03	3.601740e+00	-3.51670e-08	
338	3.312800e-03	3.584290e+00	-3.49781e-08	
339	3.322800e-03	3.566807e+00	-3.47642e-08	
340	3.332800e-03	3.549292e+00	-3.45754e-08	
341	3.342800e-03	3.531744e+00	-3.43616e-08	
342	3.352800e-03	3.514163e+00	-3.41729e-08	
343	3.362800e-03	3.496550e+00	-3.39592e-08	
344	3.372800e-03	3.478905e+00	-3.37707e-08	

Index   time            i(vd1)          i(vd2)          
--------------------------------------------------------------------------------
345	3.382800e-03	3.461229e+00	-3.35572e-08	
346	3.392800e-03	3.443521e+00	-3.33688e-08	
347	3.402800e-03	3.425781e+00	-3.31553e-08	
348	3.412800e-03	3.408011e+00	-3.29670e-08	
349	3.422800e-03	3.390209e+00	-3.27536e-08	
350	3.432800e-03	3.372377e+00	-3.25654e-08	
351	3.442800e-03	3.354514e+00	-3.23522e-08	
352	3.452800e-03	3.336621e+00	-3.21641e-08	
353	3.462800e-03	3.318698e+00	-3.19510e-08	
354	3.472800e-03	3.300745e+00	-3.17630e-08	
355	3.482800e-03	3.282763e+00	-3.15500e-08	
356	3.492800e-03	3.264751e+00	-3.13622e-08	
357	3.502800e-03	3.246710e+00	-3.11492e-08	
358	3.512800e-03	3.228640e+00	-3.09614e-08	
359	3.522800e-03	3.210541e+00	-3.07486e-08	
360	3.532800e-03	3.192414e+00	-3.05609e-08	
361	3.542800e-03	3.174259e+00	-3.03482e-08	
362	3.552800e-03	3.156076e+00	-3.01605e-08	
363	3.562800e-03	3.137864e+00	-2.99480e-08	
364	3.572800e-03	3.119626e+00	-2.97604e-08	
365	3.582800e-03	3.101360e+00	-2.95480e-08	
366	3.592800e-03	3.083067e+00	-2.93605e-08	
367	3.602800e-03	3.064747e+00	-2.91481e-08	
368	3.612800e-03	3.046400e+00	-2.89607e-08	
369	3.622800e-03	3.028028e+00	-2.87485e-08	
370	3.632800e-03	3.009629e+00	-2.85611e-08	
371	3.642800e-03	2.991204e+00	-2.83490e-08	
372	3.652800e-03	2.972754e+00	-2.81617e-08	
373	3.662800e-03	2.954278e+00	-2.79496e-08	
374	3.672800e-03	2.935777e+00	-2.77625e-08	
375	3.682800e-03	2.917251e+00	-2.75504e-08	
376	3.692800e-03	2.898701e+00	-2.73633e-08	
377	3.702800e-03	2.880127e+00	-2.71513e-08	
378	3.712800e-03	2.861528e+00	-2.69645e-08	
379	3.722800e-03	2.842905e+00	-2.67526e-08	
380	3.732800e-03	2.824259e+00	-2.65656e-08	
381	3.742800e-03	2.805590e+00	-2.63540e-08	
382	3.752800e-03	2.786897e+00	-2.61671e-08	
383	3.762800e-03	2.768182e+00	-2.59554e-08	
384	3.772800e-03	2.749444e+00	-2.57687e-08	
385	3.782800e-03	2.730685e+00	-2.55571e-08	
386	3.792800e-03	2.711903e+00	-2.53704e-08	
387	3.802800e-03	2.693099e+00	-2.51589e-08	
388	3.812800e-03	2.674274e+00	-2.49724e-08	
389	3.822800e-03	2.655428e+00	-2.47608e-08	
390	3.832800e-03	2.636562e+00	-2.45744e-08	
391	3.842800e-03	2.617674e+00	-2.43630e-08	
392	3.852800e-03	2.598767e+00	-2.41766e-08	
393	3.862800e-03	2.579839e+00	-2.39653e-08	
394	3.872800e-03	2.560892e+00	-2.37790e-08	
395	3.882800e-03	2.541926e+00	-2.35678e-08	
396	3.892800e-03	2.522940e+00	-2.33816e-08	
397	3.902800e-03	2.503936e+00	-2.31704e-08	
398	3.912800e-03	2.484914e+00	-2.29843e-08	
399	3.922800e-03	2.465873e+00	-2.27733e-08	
400	3.932800e-03	2.446815e+00	-2.25872e-08	
401	3.942800e-03	2.427739e+00	-2.23762e-08	
402	3.952800e-03	2.408646e+00	-2.21902e-08	

Index   time            i(vd1)          i(vd2)          
--------------------------------------------------------------------------------
403	3.962800e-03	2.389536e+00	-2.19794e-08	
404	3.972800e-03	2.370409e+00	-2.17935e-08	
405	3.982800e-03	2.351267e+00	-2.15826e-08	
406	3.992800e-03	2.332109e+00	-2.13968e-08	
407	4.002800e-03	2.312935e+00	-2.11860e-08	
408	4.012800e-03	2.293746e+00	-2.10003e-08	
409	4.022800e-03	2.274543e+00	-2.07897e-08	
410	4.032800e-03	2.255325e+00	-2.06041e-08	
411	4.042800e-03	2.236093e+00	-2.03936e-08	
412	4.052800e-03	2.216848e+00	-2.02081e-08	
413	4.062800e-03	2.197589e+00	-1.99977e-08	
414	4.072800e-03	2.178317e+00	-1.98122e-08	
415	4.082800e-03	2.159033e+00	-1.96019e-08	
416	4.092800e-03	2.139737e+00	-1.94165e-08	
417	4.102800e-03	2.120429e+00	-1.92064e-08	
418	4.112800e-03	2.101110e+00	-1.90211e-08	
419	4.122800e-03	2.081780e+00	-1.88109e-08	
420	4.132800e-03	2.062440e+00	-1.86258e-08	
421	4.142800e-03	2.043089e+00	-1.84157e-08	
422	4.152800e-03	2.023729e+00	-1.82308e-08	
423	4.162800e-03	2.004360e+00	-1.80208e-08	
424	4.172800e-03	1.984982e+00	-1.78360e-08	
425	4.182800e-03	1.965596e+00	-1.76262e-08	
