
Circuit: bridge rectifier

                                bridge rectifier
                                Transient Analysis  Wed Jan 19 13:02:37  2022
--------------------------------------------------------------------------------
Index   time            i(vd1)          i(vd2)          
--------------------------------------------------------------------------------
0	0.000000e+00	3.697675e-27	3.697675e-27	
1	1.000000e-06	8.832521e-08	-8.83252e-08	
2	2.000000e-06	8.848114e-08	-8.81848e-08	
3	4.000000e-06	8.880530e-08	-8.78982e-08	
4	8.000000e-06	8.917346e-08	-8.76211e-08	
5	1.600000e-05	9.031086e-08	-8.67922e-08	
6	3.200000e-05	9.325943e-08	-8.54680e-08	
7	6.400000e-05	1.234200e-07	-8.27811e-08	
8	1.094471e-04	1.585756e-06	-8.03904e-08	
9	1.531389e-04	4.201253e-05	-9.74334e-08	
10	1.969984e-04	2.093413e-04	-1.37789e-07	
11	2.494797e-04	4.891449e-04	-1.18054e-07	
12	3.494797e-04	1.090758e-03	-1.33184e-07	
13	4.494797e-04	1.716830e-03	-1.03003e-07	
14	5.494797e-04	2.351209e-03	-1.19347e-07	
15	6.494797e-04	2.987262e-03	-9.10017e-08	
16	7.494797e-04	3.623012e-03	-1.09108e-07	
17	8.494797e-04	4.256232e-03	-8.19628e-08	
18	9.494797e-04	4.885689e-03	-1.01034e-07	
19	1.049480e-03	5.510271e-03	-7.46481e-08	
20	1.149480e-03	6.129169e-03	-9.43155e-08	
21	1.249480e-03	6.741473e-03	-6.84037e-08	
22	1.349480e-03	7.346518e-03	-8.84550e-08	
23	1.449480e-03	7.943495e-03	-6.28560e-08	
24	1.549480e-03	8.531819e-03	-8.31650e-08	
25	1.649480e-03	9.110742e-03	-5.77792e-08	
26	1.749480e-03	9.679728e-03	-7.82661e-08	
27	1.849480e-03	1.023807e-02	-5.30290e-08	
28	1.949480e-03	1.078528e-02	-7.36410e-08	
29	2.049480e-03	1.132068e-02	-4.85093e-08	
30	2.149480e-03	1.184381e-02	-6.92100e-08	
31	2.249480e-03	1.235403e-02	-4.41534e-08	
32	2.349480e-03	1.285092e-02	-6.49177e-08	
33	2.449480e-03	1.333387e-02	-3.99147e-08	
34	2.549480e-03	1.380248e-02	-6.07243e-08	
35	2.649480e-03	1.425618e-02	-3.57595e-08	
36	2.749480e-03	1.469460e-02	-5.66012e-08	
37	2.849480e-03	1.511721e-02	-3.16633e-08	
38	2.949480e-03	1.552367e-02	-5.25274e-08	
39	3.049480e-03	1.591348e-02	-2.76081e-08	
40	3.149480e-03	1.628633e-02	-4.84877e-08	
41	3.249480e-03	1.664177e-02	-2.35810e-08	
42	3.349480e-03	1.697952e-02	-4.44706e-08	
43	3.449480e-03	1.729916e-02	-1.95720e-08	
44	3.549480e-03	1.760044e-02	-4.04681e-08	
45	3.649480e-03	1.788299e-02	-1.55747e-08	
46	3.749480e-03	1.814661e-02	-3.64745e-08	
47	3.849480e-03	1.839094e-02	-1.15838e-08	
48	3.949480e-03	1.861584e-02	-3.24859e-08	
49	4.049480e-03	1.882097e-02	-7.59643e-09	
50	4.149480e-03	1.900624e-02	-2.84992e-08	
51	4.249480e-03	1.917135e-02	-3.61027e-09	
52	4.349480e-03	1.931625e-02	-2.45134e-08	
53	4.449480e-03	1.944069e-02	3.757883e-10	
54	4.549480e-03	1.954464e-02	-2.05271e-08	

Index   time            i(vd1)          i(vd2)          
--------------------------------------------------------------------------------
55	4.649480e-03	1.962790e-02	4.362164e-09	
56	4.749480e-03	1.969049e-02	-1.65403e-08	
57	4.849480e-03	1.973224e-02	8.349225e-09	
58	4.949480e-03	1.975322e-02	-1.25531e-08	
59	5.049480e-03	1.975330e-02	1.233655e-08	
60	5.149480e-03	1.973258e-02	-8.56560e-09	
61	5.249480e-03	1.969098e-02	1.632400e-08	
62	5.349480e-03	1.962864e-02	-4.57837e-09	
63	5.449480e-03	1.954554e-02	2.031103e-08	
64	5.549480e-03	1.944184e-02	-5.91573e-10	
65	5.649480e-03	1.931756e-02	2.429774e-08	
66	5.749480e-03	1.917291e-02	3.395066e-09	
67	5.849480e-03	1.900794e-02	2.828432e-08	
68	5.949480e-03	1.882292e-02	7.381828e-09	
69	6.049480e-03	1.861793e-02	3.227173e-08	
70	6.149480e-03	1.839328e-02	1.137014e-08	
71	6.249480e-03	1.814909e-02	3.626155e-08	
72	6.349480e-03	1.788571e-02	1.536210e-08	
73	6.449480e-03	1.760329e-02	4.025616e-08	
74	6.549480e-03	1.730223e-02	1.936062e-08	
75	6.649480e-03	1.698273e-02	4.425990e-08	
76	6.749480e-03	1.664520e-02	2.337086e-08	
77	6.849480e-03	1.628988e-02	4.827828e-08	
78	6.949480e-03	1.591724e-02	2.739952e-08	
79	7.049480e-03	1.552754e-02	5.231956e-08	
80	7.149480e-03	1.512128e-02	3.145623e-08	
81	7.249480e-03	1.469878e-02	5.639493e-08	
82	7.349480e-03	1.426055e-02	3.555411e-08	
83	7.449480e-03	1.380694e-02	6.051967e-08	
84	7.549480e-03	1.333851e-02	3.971089e-08	
85	7.649480e-03	1.285564e-02	6.471476e-08	
86	7.749480e-03	1.235892e-02	4.395131e-08	
87	7.849480e-03	1.184877e-02	6.900885e-08	
88	7.949480e-03	1.132579e-02	4.830886e-08	
89	8.049480e-03	1.079044e-02	7.344137e-08	
90	8.149480e-03	1.024337e-02	5.283030e-08	
91	8.249480e-03	9.685065e-03	7.806807e-08	
92	8.349480e-03	9.116198e-03	5.758185e-08	
93	8.449480e-03	8.537290e-03	8.296839e-08	
94	8.549480e-03	7.949062e-03	6.265984e-08	
95	8.649480e-03	7.352075e-03	8.825958e-08	
96	8.749480e-03	6.747098e-03	6.820842e-08	
97	8.849480e-03	6.134752e-03	9.412101e-08	
98	8.949480e-03	5.515883e-03	7.445326e-08	
99	9.049480e-03	4.891212e-03	1.008405e-07	
100	9.149480e-03	4.261731e-03	8.176717e-08	
101	9.249480e-03	3.628386e-03	1.089089e-07	
102	9.349480e-03	2.992535e-03	9.080772e-08	
103	9.449480e-03	2.355794e-03	1.192195e-07	
104	9.549480e-03	1.720892e-03	1.027871e-07	
105	9.649480e-03	1.092775e-03	1.333114e-07	
106	9.749480e-03	4.884009e-04	1.180274e-07	
107	9.849480e-03	2.177778e-05	1.290616e-07	
108	9.916588e-03	1.006848e-05	3.286867e-08	
109	9.963076e-03	-1.01586e-05	1.439419e-07	
110	1.000843e-02	9.968886e-06	1.848635e-08	
111	1.008941e-02	-1.01309e-05	4.484474e-07	
112	1.017171e-02	9.943380e-06	9.165712e-05	

Index   time            i(vd1)          i(vd2)          
--------------------------------------------------------------------------------
113	1.024778e-02	-1.01949e-05	4.897108e-04	
114	1.034017e-02	9.943031e-06	1.022694e-03	
115	1.044017e-02	-1.01807e-05	1.668064e-03	
116	1.054017e-02	9.957260e-06	2.281104e-03	
117	1.064017e-02	-1.01687e-05	2.937826e-03	
118	1.074017e-02	9.967682e-06	3.553886e-03	
119	1.084017e-02	-1.01595e-05	4.207455e-03	
120	1.094017e-02	9.975812e-06	4.817213e-03	
121	1.104017e-02	-1.01521e-05	5.462387e-03	
122	1.114017e-02	9.982568e-06	6.061741e-03	
123	1.124017e-02	-1.01458e-05	6.694810e-03	
124	1.134017e-02	9.988453e-06	7.280437e-03	
125	1.144017e-02	-1.01403e-05	7.898325e-03	
126	1.154017e-02	9.993760e-06	8.467349e-03	
127	1.164017e-02	-1.01352e-05	9.067311e-03	
128	1.174017e-02	9.998670e-06	9.617109e-03	
129	1.184017e-02	-1.01304e-05	1.019661e-02	
130	1.194017e-02	1.000330e-05	1.072474e-02	
131	1.204017e-02	-1.01259e-05	1.128140e-02	
132	1.214017e-02	1.000774e-05	1.178555e-02	
133	1.224017e-02	-1.01215e-05	1.231715e-02	
134	1.234017e-02	1.001204e-05	1.279515e-02	
135	1.244017e-02	-1.01173e-05	1.329957e-02	
136	1.254017e-02	1.001623e-05	1.374939e-02	
137	1.264017e-02	-1.01131e-05	1.422464e-02	
138	1.274017e-02	1.002036e-05	1.464436e-02	
139	1.284017e-02	-1.01090e-05	1.508860e-02	
140	1.294017e-02	1.002443e-05	1.547644e-02	
141	1.304017e-02	-1.01049e-05	1.588796e-02	
142	1.314017e-02	1.002847e-05	1.624227e-02	
143	1.324017e-02	-1.01009e-05	1.661949e-02	
144	1.334017e-02	1.003249e-05	1.693875e-02	
145	1.344017e-02	-1.00969e-05	1.728024e-02	
146	1.354017e-02	1.003649e-05	1.756310e-02	
147	1.364017e-02	-1.00929e-05	1.786755e-02	
148	1.374017e-02	1.004049e-05	1.811280e-02	
149	1.384017e-02	-1.00889e-05	1.837908e-02	
150	1.394017e-02	1.004447e-05	1.858565e-02	
151	1.404017e-02	-1.00849e-05	1.881278e-02	
152	1.414017e-02	1.004846e-05	1.897975e-02	
153	1.424017e-02	-1.00809e-05	1.916690e-02	
154	1.434017e-02	1.005245e-05	1.929354e-02	
155	1.444017e-02	-1.00770e-05	1.944004e-02	
156	1.454017e-02	1.005643e-05	1.952575e-02	
157	1.464017e-02	-1.00730e-05	1.963110e-02	
158	1.474017e-02	1.006042e-05	1.967546e-02	
159	1.484017e-02	-1.00690e-05	1.973931e-02	
160	1.494017e-02	1.006440e-05	1.974207e-02	
161	1.504017e-02	-1.00650e-05	1.976425e-02	
162	1.514017e-02	1.006839e-05	1.972531e-02	
163	1.524017e-02	-1.00610e-05	1.970581e-02	
164	1.534017e-02	1.007238e-05	1.962525e-02	
165	1.544017e-02	-1.00570e-05	1.956423e-02	
166	1.554017e-02	1.007636e-05	1.944229e-02	
167	1.564017e-02	-1.00530e-05	1.934007e-02	
168	1.574017e-02	1.008035e-05	1.917716e-02	
169	1.584017e-02	-1.00490e-05	1.903423e-02	
170	1.594017e-02	1.008434e-05	1.883092e-02	

Index   time            i(vd1)          i(vd2)          
--------------------------------------------------------------------------------
171	1.604017e-02	-1.00451e-05	1.864793e-02	
172	1.614017e-02	1.008832e-05	1.840495e-02	
173	1.624017e-02	-1.00411e-05	1.818272e-02	
174	1.634017e-02	1.009231e-05	1.790097e-02	
175	1.644017e-02	-1.00371e-05	1.764046e-02	
176	1.654017e-02	1.009631e-05	1.732098e-02	
177	1.664017e-02	-1.00331e-05	1.702332e-02	
178	1.674017e-02	1.010032e-05	1.666731e-02	
179	1.684017e-02	-1.00290e-05	1.633378e-02	
180	1.694017e-02	1.010435e-05	1.594259e-02	
181	1.704017e-02	-1.00250e-05	1.557461e-02	
182	1.714017e-02	1.010840e-05	1.514973e-02	
183	1.724017e-02	-1.00209e-05	1.474887e-02	
184	1.734017e-02	1.011250e-05	1.429194e-02	
185	1.744017e-02	-1.00168e-05	1.385989e-02	
186	1.754017e-02	1.011665e-05	1.337268e-02	
187	1.764017e-02	-1.00126e-05	1.291128e-02	
188	1.774017e-02	1.012088e-05	1.239568e-02	
189	1.784017e-02	-1.00083e-05	1.190690e-02	
190	1.794017e-02	1.012523e-05	1.136495e-02	
191	1.804017e-02	-1.00039e-05	1.085088e-02	
192	1.814017e-02	1.012975e-05	1.028473e-02	
193	1.824017e-02	-9.99928e-06	9.747589e-03	
194	1.834017e-02	1.013448e-05	9.159531e-03	
195	1.844017e-02	-9.99440e-06	8.601680e-03	
196	1.854017e-02	1.013954e-05	7.994145e-03	
197	1.864017e-02	-9.98913e-06	7.418094e-03	
198	1.874017e-02	1.014507e-05	6.793683e-03	
199	1.884017e-02	-9.98330e-06	6.202141e-03	
200	1.894017e-02	1.015127e-05	5.563697e-03	
201	1.904017e-02	-9.97662e-06	4.959678e-03	
202	1.914017e-02	1.015852e-05	4.310456e-03	
203	1.924017e-02	-9.96863e-06	3.697570e-03	
204	1.934017e-02	1.016746e-05	3.041741e-03	
205	1.944017e-02	-9.95846e-06	2.425140e-03	
206	1.954017e-02	1.017926e-05	1.769762e-03	
207	1.964017e-02	-9.94457e-06	1.160815e-03	
208	1.974017e-02	1.019455e-05	5.326618e-04	
209	1.984017e-02	-9.94292e-06	5.463736e-05	
210	1.988162e-02	1.011874e-05	-2.80732e-06	
211	1.992235e-02	-9.95081e-06	4.737705e-06	
212	1.994990e-02	1.010679e-05	-4.87623e-06	
213	1.997558e-02	-9.92677e-06	4.707412e-06	
214	2.002694e-02	1.009888e-05	-4.88887e-06	
215	2.012694e-02	-3.43574e-06	4.725903e-06	
216	2.022694e-02	3.695879e-04	-4.95711e-06	
217	2.032694e-02	9.462088e-04	4.702385e-06	
218	2.042694e-02	1.579498e-03	-4.94213e-06	
219	2.052694e-02	2.201970e-03	4.717013e-06	
220	2.062694e-02	2.848456e-03	-4.93005e-06	
221	2.072694e-02	3.475034e-03	4.727718e-06	
222	2.082694e-02	4.118710e-03	-4.92075e-06	
223	2.092694e-02	4.739350e-03	4.736016e-06	
224	2.102694e-02	5.374840e-03	-4.91330e-06	
225	2.112694e-02	5.985380e-03	4.742872e-06	
226	2.122694e-02	6.608941e-03	-4.90697e-06	
227	2.132694e-02	7.205990e-03	4.748821e-06	
228	2.142694e-02	7.814535e-03	-4.90136e-06	

Index   time            i(vd1)          i(vd2)          
--------------------------------------------------------------------------------
229	2.152694e-02	8.395183e-03	4.754170e-06	
230	2.162694e-02	8.985961e-03	-4.89624e-06	
231	2.172694e-02	9.547563e-03	4.759109e-06	
232	2.182694e-02	1.011803e-02	-4.89146e-06	
233	2.192694e-02	1.065813e-02	4.763762e-06	
234	2.202694e-02	1.120591e-02	-4.88692e-06	
235	2.212694e-02	1.172218e-02	4.768213e-06	
236	2.222694e-02	1.224503e-02	-4.88255e-06	
237	2.232694e-02	1.273530e-02	4.772519e-06	
238	2.242694e-02	1.323110e-02	-4.87830e-06	
239	2.252694e-02	1.369332e-02	4.776722e-06	
240	2.262694e-02	1.416008e-02	-4.87414e-06	
241	2.272694e-02	1.459232e-02	4.780852e-06	
242	2.282694e-02	1.502820e-02	-4.87004e-06	
243	2.292694e-02	1.542867e-02	4.784930e-06	
244	2.302694e-02	1.583193e-02	-4.86598e-06	
245	2.312694e-02	1.619897e-02	4.788973e-06	
246	2.322694e-02	1.656803e-02	-4.86195e-06	
247	2.332694e-02	1.690014e-02	4.792992e-06	
248	2.342694e-02	1.723355e-02	-4.85794e-06	
249	2.352694e-02	1.752933e-02	4.796995e-06	
250	2.362694e-02	1.782580e-02	-4.85394e-06	
251	2.372694e-02	1.808404e-02	4.800989e-06	
252	2.382694e-02	1.834241e-02	-4.84995e-06	
253	2.392694e-02	1.856203e-02	4.804978e-06	
254	2.402694e-02	1.878130e-02	-4.84596e-06	
255	2.412694e-02	1.896140e-02	4.808965e-06	
256	2.422694e-02	1.914074e-02	-4.84197e-06	
257	2.432694e-02	1.928054e-02	4.812950e-06	
258	2.442694e-02	1.941926e-02	-4.83799e-06	
259	2.452694e-02	1.951818e-02	4.816936e-06	
260	2.462694e-02	1.961578e-02	-4.83400e-06	
261	2.472694e-02	1.967336e-02	4.820923e-06	
262	2.482694e-02	1.972948e-02	-4.83001e-06	
263	2.492694e-02	1.974548e-02	4.824909e-06	
264	2.502694e-02	1.975993e-02	-4.82602e-06	
265	2.512694e-02	1.973423e-02	4.828897e-06	
266	2.522694e-02	1.970700e-02	-4.82204e-06	
267	2.532694e-02	1.963967e-02	4.832884e-06	
268	2.542694e-02	1.957091e-02	-4.81805e-06	
269	2.552694e-02	1.946217e-02	4.836870e-06	
270	2.562694e-02	1.935218e-02	-4.81406e-06	
271	2.572694e-02	1.920245e-02	4.840857e-06	
272	2.582694e-02	1.905171e-02	-4.81008e-06	
273	2.592694e-02	1.886153e-02	4.844843e-06	
274	2.602694e-02	1.867069e-02	-4.80609e-06	
275	2.612694e-02	1.844079e-02	4.848831e-06	
276	2.622694e-02	1.821065e-02	-4.80210e-06	
277	2.632694e-02	1.794190e-02	4.852822e-06	
278	2.642694e-02	1.767342e-02	-4.79810e-06	
279	2.652694e-02	1.736687e-02	4.856819e-06	
280	2.662694e-02	1.706116e-02	-4.79410e-06	
281	2.672694e-02	1.671799e-02	4.860827e-06	
282	2.682694e-02	1.637632e-02	-4.79008e-06	
283	2.692694e-02	1.599788e-02	4.864853e-06	
284	2.702694e-02	1.562166e-02	-4.78605e-06	
285	2.712694e-02	1.520944e-02	4.868906e-06	
286	2.722694e-02	1.480022e-02	-4.78197e-06	

Index   time            i(vd1)          i(vd2)          
--------------------------------------------------------------------------------
287	2.732694e-02	1.435583e-02	4.872998e-06	
288	2.742694e-02	1.391532e-02	-4.77786e-06	
289	2.752694e-02	1.344052e-02	4.877147e-06	
290	2.762694e-02	1.297053e-02	-4.77367e-06	
291	2.772694e-02	1.246722e-02	4.881376e-06	
292	2.782694e-02	1.196971e-02	-4.76939e-06	
293	2.792694e-02	1.143992e-02	4.885718e-06	
294	2.802694e-02	1.091697e-02	-4.76497e-06	
295	2.812694e-02	1.036283e-02	4.890217e-06	
296	2.822694e-02	9.816669e-03	-4.76037e-06	
297	2.832694e-02	9.240464e-03	4.894938e-06	
298	2.842694e-02	8.673429e-03	-4.75551e-06	
299	2.852694e-02	8.077581e-03	4.899973e-06	
300	2.862694e-02	7.492174e-03	-4.75027e-06	
301	2.872694e-02	6.879273e-03	4.905459e-06	
302	2.882694e-02	6.278188e-03	-4.74448e-06	
303	2.892694e-02	5.651056e-03	4.911610e-06	
304	2.902694e-02	5.037282e-03	-4.73788e-06	
305	2.912694e-02	4.399136e-03	4.918777e-06	
306	2.922694e-02	3.776226e-03	-4.73000e-06	
307	2.932694e-02	3.131147e-03	4.927575e-06	
308	2.942694e-02	2.504086e-03	-4.72000e-06	
309	2.952694e-02	1.858791e-03	4.939138e-06	
310	2.962694e-02	1.238124e-03	-4.70642e-06	
311	2.972694e-02	6.160633e-04	4.954382e-06	
312	2.982694e-02	9.450422e-05	-4.69905e-06	
313	2.989777e-02	2.011355e-06	4.880953e-06	
314	2.992384e-02	-1.68632e-06	-4.70685e-06	
315	2.994076e-02	1.527137e-06	4.852934e-06	
316	2.995670e-02	-1.68189e-06	-4.66560e-06	
317	2.998860e-02	1.491117e-06	4.826628e-06	
318	3.005239e-02	-1.65902e-06	-4.63155e-06	
319	3.015239e-02	1.487283e-06	4.068278e-05	
320	3.025239e-02	-1.73344e-06	5.081838e-04	
321	3.034482e-02	1.482266e-06	1.059992e-03	
322	3.044482e-02	-1.71924e-06	1.689188e-03	
323	3.054482e-02	1.496463e-06	2.319114e-03	
324	3.064482e-02	-1.70744e-06	2.959043e-03	
325	3.074482e-02	1.506856e-06	3.591811e-03	
326	3.084482e-02	-1.69833e-06	4.228424e-03	
327	3.094482e-02	1.514975e-06	4.854820e-03	
328	3.104482e-02	-1.69099e-06	5.482896e-03	
329	3.114482e-02	1.521723e-06	6.098835e-03	
330	3.124482e-02	-1.68473e-06	6.714704e-03	
331	3.134482e-02	1.527602e-06	7.316865e-03	
332	3.144482e-02	-1.67917e-06	7.917470e-03	
333	3.154482e-02	1.532904e-06	8.502977e-03	
334	3.164482e-02	-1.67408e-06	9.085587e-03	
335	3.174482e-02	1.537811e-06	9.651816e-03	
336	3.184482e-02	-1.66933e-06	1.021390e-02	
337	3.194482e-02	1.542442e-06	1.075841e-02	
338	3.204482e-02	-1.66480e-06	1.129760e-02	
339	3.214482e-02	1.546877e-06	1.181809e-02	
340	3.224482e-02	-1.66044e-06	1.233216e-02	
341	3.234482e-02	1.551172e-06	1.282645e-02	
342	3.244482e-02	-1.65620e-06	1.331329e-02	
343	3.254482e-02	1.555368e-06	1.377934e-02	
344	3.264482e-02	-1.65204e-06	1.423698e-02	

Index   time            i(vd1)          i(vd2)          
--------------------------------------------------------------------------------
345	3.274482e-02	1.559492e-06	1.467289e-02	
346	3.284482e-02	-1.64795e-06	1.509948e-02	
347	3.294482e-02	1.563567e-06	1.550347e-02	
348	3.304482e-02	-1.64389e-06	1.589729e-02	
349	3.314482e-02	1.567607e-06	1.626772e-02	
350	3.324482e-02	-1.63986e-06	1.662721e-02	
351	3.334482e-02	1.571624e-06	1.696256e-02	
352	3.344482e-02	-1.63585e-06	1.728628e-02	
353	3.354482e-02	1.575627e-06	1.758520e-02	
354	3.364482e-02	-1.63186e-06	1.787186e-02	
355	3.374482e-02	1.579621e-06	1.813313e-02	
356	3.384482e-02	-1.62787e-06	1.838160e-02	
357	3.394482e-02	1.583609e-06	1.860417e-02	
358	3.404482e-02	-1.62388e-06	1.881346e-02	
359	3.414482e-02	1.587596e-06	1.899643e-02	
360	3.424482e-02	-1.61989e-06	1.916572e-02	
361	3.434482e-02	1.591582e-06	1.930833e-02	
362	3.444482e-02	-1.61591e-06	1.943696e-02	
363	3.454482e-02	1.595568e-06	1.953863e-02	
364	3.464482e-02	-1.61192e-06	1.962610e-02	
365	3.474482e-02	1.599555e-06	1.968642e-02	
366	3.484482e-02	-1.60793e-06	1.973237e-02	
367	3.494482e-02	1.603542e-06	1.975109e-02	
368	3.504482e-02	-1.60394e-06	1.975537e-02	
369	3.514482e-02	1.607529e-06	1.973239e-02	
370	3.524482e-02	-1.59996e-06	1.969500e-02	
371	3.534482e-02	1.611516e-06	1.963040e-02	
372	3.544482e-02	-1.59597e-06	1.955149e-02	
373	3.554482e-02	1.615503e-06	1.944552e-02	
374	3.564482e-02	-1.59198e-06	1.932542e-02	
375	3.574482e-02	1.619489e-06	1.917849e-02	
376	3.584482e-02	-1.58800e-06	1.901770e-02	
377	3.594482e-02	1.623476e-06	1.883037e-02	
378	3.604482e-02	-1.58401e-06	1.862955e-02	
379	3.614482e-02	1.627464e-06	1.840257e-02	
380	3.624482e-02	-1.58002e-06	1.816252e-02	
381	3.634482e-02	1.631456e-06	1.789679e-02	
382	3.644482e-02	-1.57602e-06	1.761849e-02	
383	3.654482e-02	1.635454e-06	1.731506e-02	
384	3.664482e-02	-1.57202e-06	1.699964e-02	
385	3.674482e-02	1.639464e-06	1.665971e-02	
386	3.684482e-02	-1.56800e-06	1.630845e-02	
387	3.694482e-02	1.643492e-06	1.593338e-02	
388	3.704482e-02	-1.56396e-06	1.554770e-02	
389	3.714482e-02	1.647548e-06	1.513897e-02	
390	3.724482e-02	-1.55989e-06	1.472045e-02	
391	3.734482e-02	1.651644e-06	1.427971e-02	
392	3.744482e-02	-1.55576e-06	1.383004e-02	
393	3.754482e-02	1.655800e-06	1.335906e-02	
394	3.764482e-02	-1.55157e-06	1.288008e-02	
395	3.774482e-02	1.660037e-06	1.238077e-02	
396	3.784482e-02	-1.54728e-06	1.187446e-02	
397	3.794482e-02	1.664392e-06	1.134883e-02	
398	3.804482e-02	-1.54285e-06	1.081728e-02	
399	3.814482e-02	1.668908e-06	1.026752e-02	
400	3.824482e-02	-1.53823e-06	9.712949e-03	
401	3.834482e-02	1.673654e-06	9.141330e-03	
402	3.844482e-02	-1.53334e-06	8.566106e-03	

Index   time            i(vd1)          i(vd2)          
--------------------------------------------------------------------------------
403	3.854482e-02	1.678723e-06	7.975069e-03	
404	3.864482e-02	-1.52806e-06	7.381705e-03	
405	3.874482e-02	1.684258e-06	6.773855e-03	
406	3.884482e-02	-1.52221e-06	6.165067e-03	
407	3.894482e-02	1.690483e-06	5.543254e-03	
408	3.904482e-02	-1.51551e-06	4.922064e-03	
409	3.914482e-02	1.697766e-06	4.289556e-03	
410	3.924482e-02	-1.50749e-06	3.659595e-03	
411	3.934482e-02	1.706755e-06	3.020598e-03	
412	3.944482e-02	-1.49724e-06	2.387079e-03	
413	3.954482e-02	1.718646e-06	1.748778e-03	
414	3.964482e-02	-1.48326e-06	1.123390e-03	
415	3.974482e-02	1.733917e-06	5.139061e-04	
416	3.984482e-02	-1.48433e-06	3.375912e-05	
417	3.990900e-02	1.649519e-06	8.059677e-06	
418	3.995157e-02	-1.47378e-06	-8.05745e-06	
419	3.999346e-02	1.633429e-06	7.867600e-06	
420	4.005137e-02	-1.43503e-06	-8.03182e-06	
421	4.015137e-02	3.437378e-05	7.859102e-06	
422	4.024520e-02	4.731455e-04	-8.10332e-06	
423	4.033820e-02	1.012917e-03	7.851139e-06	
424	4.043820e-02	1.653632e-03	-8.08906e-06	
425	4.053820e-02	2.270573e-03	7.865401e-06	
