
Circuit: instrumentation amplifier

                           instrumentation amplifier
                           Transient Analysis  Fri Feb 11 23:52:43  2022
--------------------------------------------------------------------------------
Index   time            v(in1,in2)      v(out)          
--------------------------------------------------------------------------------
0	0.000000e+00	0.000000e+00	3.888964e-05	
1	1.000000e-07	-3.14159e-04	5.241392e-05	
2	1.035869e-07	-3.25428e-04	5.291704e-05	
3	1.107606e-07	-3.47965e-04	5.396080e-05	
4	1.251081e-07	-3.93039e-04	5.629018e-05	
5	1.538031e-07	-4.83187e-04	6.211426e-05	
6	2.111931e-07	-6.63482e-04	8.040228e-05	
7	2.947556e-07	-9.26002e-04	1.318575e-04	
8	3.833228e-07	-1.20424e-03	2.352819e-04	
9	4.802781e-07	-1.50884e-03	4.303552e-04	
10	5.838834e-07	-1.83432e-03	7.582002e-04	
11	7.301159e-07	-2.29372e-03	1.465854e-03	
12	9.346133e-07	-2.93616e-03	2.967240e-03	
13	1.157300e-06	-3.63573e-03	5.268192e-03	
14	1.492775e-06	-4.68962e-03	9.897591e-03	
15	2.030693e-06	-6.37944e-03	1.964998e-02	
16	2.650237e-06	-8.32558e-03	3.351255e-02	
17	3.517330e-06	-1.10491e-02	5.594085e-02	
18	4.449571e-06	-1.39769e-02	8.245609e-02	
19	5.683274e-06	-1.78507e-02	1.194906e-01	
20	7.080186e-06	-2.22357e-02	1.626914e-01	
21	9.027696e-06	-2.83461e-02	2.237189e-01	
22	1.149753e-05	-3.60892e-02	3.014757e-01	
23	1.540918e-05	-4.83338e-02	4.246158e-01	
24	2.161869e-05	-6.77085e-02	6.195576e-01	
25	3.161869e-05	-9.86809e-02	9.313792e-01	
26	4.161869e-05	-1.29264e-01	1.239551e+00	
27	5.161869e-05	-1.59337e-01	1.542819e+00	
28	6.161869e-05	-1.88781e-01	1.840004e+00	
29	7.161869e-05	-2.17480e-01	2.129924e+00	
30	8.161869e-05	-2.45321e-01	2.411440e+00	
31	9.161869e-05	-2.72193e-01	2.683438e+00	
32	1.016187e-04	-2.97991e-01	2.944846e+00	
33	1.116187e-04	-3.22614e-01	3.194633e+00	
34	1.216187e-04	-3.45963e-01	3.431811e+00	
35	1.316187e-04	-3.67947e-01	3.655445e+00	
36	1.416187e-04	-3.88478e-01	3.864653e+00	
37	1.516187e-04	-4.07477e-01	4.058608e+00	
38	1.616187e-04	-4.24867e-01	4.236546e+00	
39	1.716187e-04	-4.40580e-01	4.397764e+00	
40	1.816187e-04	-4.54555e-01	4.541625e+00	
41	1.916187e-04	-4.66736e-01	4.667563e+00	
42	2.016187e-04	-4.77075e-01	4.775080e+00	
43	2.116187e-04	-4.85531e-01	4.863751e+00	
44	2.216187e-04	-4.92071e-01	4.933228e+00	
45	2.316187e-04	-4.96669e-01	4.983235e+00	
46	2.416187e-04	-4.99307e-01	5.013576e+00	
47	2.516187e-04	-4.99974e-01	5.024131e+00	
48	2.616187e-04	-4.98668e-01	5.014857e+00	
49	2.716187e-04	-4.95394e-01	4.985793e+00	
50	2.816187e-04	-4.90165e-01	4.937052e+00	
51	2.916187e-04	-4.83002e-01	4.868828e+00	
52	3.016187e-04	-4.73932e-01	4.781388e+00	
53	3.116187e-04	-4.62992e-01	4.675079e+00	
54	3.216187e-04	-4.50225e-01	4.550320e+00	

Index   time            v(in1,in2)      v(out)          
--------------------------------------------------------------------------------
55	3.316187e-04	-4.35681e-01	4.407604e+00	
56	3.416187e-04	-4.19417e-01	4.247493e+00	
57	3.516187e-04	-4.01499e-01	4.070620e+00	
58	3.616187e-04	-3.81995e-01	3.877683e+00	
59	3.716187e-04	-3.60984e-01	3.669442e+00	
60	3.816187e-04	-3.38549e-01	3.446721e+00	
61	3.916187e-04	-3.14777e-01	3.210397e+00	
62	4.016187e-04	-2.89763e-01	2.961404e+00	
63	4.116187e-04	-2.63606e-01	2.700724e+00	
64	4.216187e-04	-2.36408e-01	2.429386e+00	
65	4.316187e-04	-2.08277e-01	2.148461e+00	
66	4.416187e-04	-1.79325e-01	1.859057e+00	
67	4.516187e-04	-1.49664e-01	1.562316e+00	
68	4.616187e-04	-1.19413e-01	1.259410e+00	
69	4.716187e-04	-8.86907e-02	9.515338e-01	
70	4.816187e-04	-5.76183e-02	6.399023e-01	
71	4.916187e-04	-2.63185e-02	3.257456e-01	
72	5.016187e-04	5.085188e-03	1.030328e-02	
73	5.116187e-04	3.646879e-02	-3.05180e-01	
74	5.216187e-04	6.770847e-02	-6.19458e-01	
75	5.316187e-04	9.868093e-02	-9.31292e-01	
76	5.416187e-04	1.292639e-01	-1.23945e+00	
77	5.516187e-04	1.593368e-01	-1.54272e+00	
78	5.616187e-04	1.887808e-01	-1.83990e+00	
79	5.716187e-04	2.174799e-01	-2.12981e+00	
80	5.816187e-04	2.453206e-01	-2.41133e+00	
81	5.916187e-04	2.721931e-01	-2.68332e+00	
82	6.016187e-04	2.979914e-01	-2.94473e+00	
83	6.116187e-04	3.226137e-01	-3.19451e+00	
84	6.216187e-04	3.459628e-01	-3.43169e+00	
85	6.316187e-04	3.679465e-01	-3.65533e+00	
86	6.416187e-04	3.884781e-01	-3.86453e+00	
87	6.516187e-04	4.074766e-01	-4.05849e+00	
88	6.616187e-04	4.248669e-01	-4.23643e+00	
89	6.716187e-04	4.405805e-01	-4.39765e+00	
90	6.816187e-04	4.545553e-01	-4.54151e+00	
91	6.916187e-04	4.667362e-01	-4.66746e+00	
92	7.016187e-04	4.770751e-01	-4.77498e+00	
93	7.116187e-04	4.855312e-01	-4.86365e+00	
94	7.216187e-04	4.920711e-01	-4.93313e+00	
95	7.316187e-04	4.966690e-01	-4.98315e+00	
96	7.416187e-04	4.993069e-01	-5.01349e+00	
97	7.516187e-04	4.999741e-01	-5.02405e+00	
98	7.616187e-04	4.986683e-01	-5.01478e+00	
99	7.716187e-04	4.953944e-01	-4.98572e+00	
100	7.816187e-04	4.901654e-01	-4.93699e+00	
101	7.916187e-04	4.830019e-01	-4.86877e+00	
102	8.016187e-04	4.739323e-01	-4.78133e+00	
103	8.116187e-04	4.629922e-01	-4.67503e+00	
104	8.216187e-04	4.502250e-01	-4.55027e+00	
105	8.316187e-04	4.356809e-01	-4.40756e+00	
106	8.416187e-04	4.194173e-01	-4.24745e+00	
107	8.516187e-04	4.014986e-01	-4.07058e+00	
108	8.616187e-04	3.819953e-01	-3.87764e+00	
109	8.716187e-04	3.609844e-01	-3.66941e+00	
110	8.816187e-04	3.385489e-01	-3.44668e+00	
111	8.916187e-04	3.147773e-01	-3.21036e+00	
112	9.016187e-04	2.897634e-01	-2.96137e+00	

Index   time            v(in1,in2)      v(out)          
--------------------------------------------------------------------------------
113	9.116187e-04	2.636060e-01	-2.70068e+00	
114	9.216187e-04	2.364082e-01	-2.42934e+00	
115	9.316187e-04	2.082774e-01	-2.14841e+00	
116	9.416187e-04	1.793247e-01	-1.85901e+00	
117	9.516187e-04	1.496642e-01	-1.56226e+00	
118	9.616187e-04	1.194131e-01	-1.25935e+00	
119	9.716187e-04	8.869070e-02	-9.51471e-01	
120	9.816187e-04	5.761829e-02	-6.39835e-01	
121	9.916187e-04	2.631848e-02	-3.25673e-01	
122	1.001619e-03	-5.08519e-03	-1.02256e-02	
123	1.011619e-03	-3.64688e-02	3.052625e-01	
124	1.021619e-03	-6.77085e-02	6.195462e-01	
125	1.031619e-03	-9.86809e-02	9.313851e-01	
126	1.041619e-03	-1.29264e-01	1.239548e+00	
127	1.051619e-03	-1.59337e-01	1.542820e+00	
128	1.061619e-03	-1.88781e-01	1.840003e+00	
129	1.071619e-03	-2.17480e-01	2.129924e+00	
130	1.081619e-03	-2.45321e-01	2.411440e+00	
131	1.091619e-03	-2.72193e-01	2.683438e+00	
132	1.101619e-03	-2.97991e-01	2.944846e+00	
133	1.111619e-03	-3.22614e-01	3.194633e+00	
134	1.121619e-03	-3.45963e-01	3.431811e+00	
135	1.131619e-03	-3.67947e-01	3.655445e+00	
136	1.141619e-03	-3.88478e-01	3.864653e+00	
137	1.151619e-03	-4.07477e-01	4.058608e+00	
138	1.161619e-03	-4.24867e-01	4.236546e+00	
139	1.171619e-03	-4.40580e-01	4.397764e+00	
140	1.181619e-03	-4.54555e-01	4.541625e+00	
141	1.191619e-03	-4.66736e-01	4.667563e+00	
142	1.201619e-03	-4.77075e-01	4.775080e+00	
143	1.211619e-03	-4.85531e-01	4.863751e+00	
144	1.221619e-03	-4.92071e-01	4.933228e+00	
145	1.231619e-03	-4.96669e-01	4.983235e+00	
146	1.241619e-03	-4.99307e-01	5.013576e+00	
147	1.251619e-03	-4.99974e-01	5.024131e+00	
148	1.261619e-03	-4.98668e-01	5.014857e+00	
149	1.271619e-03	-4.95394e-01	4.985793e+00	
150	1.281619e-03	-4.90165e-01	4.937052e+00	
151	1.291619e-03	-4.83002e-01	4.868828e+00	
152	1.301619e-03	-4.73932e-01	4.781388e+00	
153	1.311619e-03	-4.62992e-01	4.675079e+00	
154	1.321619e-03	-4.50225e-01	4.550320e+00	
155	1.331619e-03	-4.35681e-01	4.407604e+00	
156	1.341619e-03	-4.19417e-01	4.247493e+00	
157	1.351619e-03	-4.01499e-01	4.070620e+00	
158	1.361619e-03	-3.81995e-01	3.877683e+00	
159	1.371619e-03	-3.60984e-01	3.669442e+00	
160	1.381619e-03	-3.38549e-01	3.446721e+00	
161	1.391619e-03	-3.14777e-01	3.210397e+00	
162	1.401619e-03	-2.89763e-01	2.961404e+00	
163	1.411619e-03	-2.63606e-01	2.700724e+00	
164	1.421619e-03	-2.36408e-01	2.429386e+00	
165	1.431619e-03	-2.08277e-01	2.148461e+00	
166	1.441619e-03	-1.79325e-01	1.859057e+00	
167	1.451619e-03	-1.49664e-01	1.562316e+00	
168	1.461619e-03	-1.19413e-01	1.259410e+00	
169	1.471619e-03	-8.86907e-02	9.515338e-01	
170	1.481619e-03	-5.76183e-02	6.399023e-01	

Index   time            v(in1,in2)      v(out)          
--------------------------------------------------------------------------------
171	1.491619e-03	-2.63185e-02	3.257456e-01	
172	1.501619e-03	5.085188e-03	1.030327e-02	
173	1.511619e-03	3.646879e-02	-3.05180e-01	
174	1.521619e-03	6.770847e-02	-6.19458e-01	
175	1.531619e-03	9.868093e-02	-9.31292e-01	
176	1.541619e-03	1.292639e-01	-1.23945e+00	
177	1.551619e-03	1.593368e-01	-1.54272e+00	
178	1.561619e-03	1.887808e-01	-1.83990e+00	
179	1.571619e-03	2.174799e-01	-2.12981e+00	
180	1.581619e-03	2.453206e-01	-2.41133e+00	
181	1.591619e-03	2.721931e-01	-2.68332e+00	
182	1.601619e-03	2.979914e-01	-2.94473e+00	
183	1.611619e-03	3.226137e-01	-3.19451e+00	
184	1.621619e-03	3.459628e-01	-3.43169e+00	
185	1.631619e-03	3.679465e-01	-3.65533e+00	
186	1.641619e-03	3.884781e-01	-3.86453e+00	
187	1.651619e-03	4.074766e-01	-4.05849e+00	
188	1.661619e-03	4.248669e-01	-4.23643e+00	
189	1.671619e-03	4.405805e-01	-4.39765e+00	
190	1.681619e-03	4.545553e-01	-4.54151e+00	
191	1.691619e-03	4.667362e-01	-4.66746e+00	
192	1.701619e-03	4.770751e-01	-4.77498e+00	
193	1.711619e-03	4.855312e-01	-4.86365e+00	
194	1.721619e-03	4.920711e-01	-4.93313e+00	
195	1.731619e-03	4.966690e-01	-4.98315e+00	
196	1.741619e-03	4.993069e-01	-5.01349e+00	
197	1.751619e-03	4.999741e-01	-5.02405e+00	
198	1.761619e-03	4.986683e-01	-5.01478e+00	
199	1.771619e-03	4.953944e-01	-4.98572e+00	
200	1.781619e-03	4.901654e-01	-4.93699e+00	
201	1.791619e-03	4.830019e-01	-4.86877e+00	
202	1.801619e-03	4.739323e-01	-4.78133e+00	
203	1.811619e-03	4.629922e-01	-4.67503e+00	
204	1.821619e-03	4.502250e-01	-4.55027e+00	
205	1.831619e-03	4.356809e-01	-4.40756e+00	
206	1.841619e-03	4.194173e-01	-4.24745e+00	
207	1.851619e-03	4.014986e-01	-4.07058e+00	
208	1.861619e-03	3.819953e-01	-3.87764e+00	
209	1.871619e-03	3.609844e-01	-3.66941e+00	
210	1.881619e-03	3.385489e-01	-3.44668e+00	
211	1.891619e-03	3.147773e-01	-3.21036e+00	
212	1.901619e-03	2.897634e-01	-2.96137e+00	
213	1.911619e-03	2.636060e-01	-2.70068e+00	
214	1.921619e-03	2.364082e-01	-2.42934e+00	
215	1.931619e-03	2.082774e-01	-2.14841e+00	
216	1.941619e-03	1.793247e-01	-1.85901e+00	
217	1.951619e-03	1.496642e-01	-1.56226e+00	
218	1.961619e-03	1.194131e-01	-1.25935e+00	
219	1.971619e-03	8.869070e-02	-9.51471e-01	
220	1.981619e-03	5.761829e-02	-6.39835e-01	
221	1.991619e-03	2.631848e-02	-3.25673e-01	
222	2.001619e-03	-5.08519e-03	-1.02256e-02	
223	2.011619e-03	-3.64688e-02	3.052625e-01	
224	2.021619e-03	-6.77085e-02	6.195462e-01	
225	2.031619e-03	-9.86809e-02	9.313851e-01	
226	2.041619e-03	-1.29264e-01	1.239548e+00	
227	2.051619e-03	-1.59337e-01	1.542820e+00	
228	2.061619e-03	-1.88781e-01	1.840003e+00	

Index   time            v(in1,in2)      v(out)          
--------------------------------------------------------------------------------
229	2.071619e-03	-2.17480e-01	2.129924e+00	
230	2.081619e-03	-2.45321e-01	2.411440e+00	
231	2.091619e-03	-2.72193e-01	2.683438e+00	
232	2.101619e-03	-2.97991e-01	2.944846e+00	
233	2.111619e-03	-3.22614e-01	3.194633e+00	
234	2.121619e-03	-3.45963e-01	3.431811e+00	
235	2.131619e-03	-3.67947e-01	3.655445e+00	
236	2.141619e-03	-3.88478e-01	3.864653e+00	
237	2.151619e-03	-4.07477e-01	4.058608e+00	
238	2.161619e-03	-4.24867e-01	4.236546e+00	
239	2.171619e-03	-4.40580e-01	4.397764e+00	
240	2.181619e-03	-4.54555e-01	4.541625e+00	
241	2.191619e-03	-4.66736e-01	4.667563e+00	
242	2.201619e-03	-4.77075e-01	4.775080e+00	
243	2.211619e-03	-4.85531e-01	4.863751e+00	
244	2.221619e-03	-4.92071e-01	4.933228e+00	
245	2.231619e-03	-4.96669e-01	4.983235e+00	
246	2.241619e-03	-4.99307e-01	5.013576e+00	
247	2.251619e-03	-4.99974e-01	5.024131e+00	
248	2.261619e-03	-4.98668e-01	5.014857e+00	
249	2.271619e-03	-4.95394e-01	4.985793e+00	
250	2.281619e-03	-4.90165e-01	4.937052e+00	
251	2.291619e-03	-4.83002e-01	4.868828e+00	
252	2.301619e-03	-4.73932e-01	4.781388e+00	
253	2.311619e-03	-4.62992e-01	4.675079e+00	
254	2.321619e-03	-4.50225e-01	4.550320e+00	
255	2.331619e-03	-4.35681e-01	4.407604e+00	
256	2.341619e-03	-4.19417e-01	4.247493e+00	
257	2.351619e-03	-4.01499e-01	4.070620e+00	
258	2.361619e-03	-3.81995e-01	3.877683e+00	
259	2.371619e-03	-3.60984e-01	3.669442e+00	
260	2.381619e-03	-3.38549e-01	3.446721e+00	
261	2.391619e-03	-3.14777e-01	3.210397e+00	
262	2.401619e-03	-2.89763e-01	2.961404e+00	
263	2.411619e-03	-2.63606e-01	2.700724e+00	
264	2.421619e-03	-2.36408e-01	2.429386e+00	
265	2.431619e-03	-2.08277e-01	2.148461e+00	
266	2.441619e-03	-1.79325e-01	1.859057e+00	
267	2.451619e-03	-1.49664e-01	1.562316e+00	
268	2.461619e-03	-1.19413e-01	1.259410e+00	
269	2.471619e-03	-8.86907e-02	9.515338e-01	
270	2.481619e-03	-5.76183e-02	6.399023e-01	
271	2.491619e-03	-2.63185e-02	3.257456e-01	
272	2.501619e-03	5.085188e-03	1.030327e-02	
273	2.511619e-03	3.646879e-02	-3.05180e-01	
274	2.521619e-03	6.770847e-02	-6.19458e-01	
275	2.531619e-03	9.868093e-02	-9.31292e-01	
276	2.541619e-03	1.292639e-01	-1.23945e+00	
277	2.551619e-03	1.593368e-01	-1.54272e+00	
278	2.561619e-03	1.887808e-01	-1.83990e+00	
279	2.571619e-03	2.174799e-01	-2.12981e+00	
280	2.581619e-03	2.453206e-01	-2.41133e+00	
281	2.591619e-03	2.721931e-01	-2.68332e+00	
282	2.601619e-03	2.979914e-01	-2.94473e+00	
283	2.611619e-03	3.226137e-01	-3.19451e+00	
284	2.621619e-03	3.459628e-01	-3.43169e+00	
285	2.631619e-03	3.679465e-01	-3.65533e+00	
286	2.641619e-03	3.884781e-01	-3.86453e+00	

Index   time            v(in1,in2)      v(out)          
--------------------------------------------------------------------------------
287	2.651619e-03	4.074766e-01	-4.05849e+00	
288	2.661619e-03	4.248669e-01	-4.23643e+00	
289	2.671619e-03	4.405805e-01	-4.39765e+00	
290	2.681619e-03	4.545553e-01	-4.54151e+00	
291	2.691619e-03	4.667362e-01	-4.66746e+00	
292	2.701619e-03	4.770751e-01	-4.77498e+00	
293	2.711619e-03	4.855312e-01	-4.86365e+00	
294	2.721619e-03	4.920711e-01	-4.93313e+00	
295	2.731619e-03	4.966690e-01	-4.98315e+00	
296	2.741619e-03	4.993069e-01	-5.01349e+00	
297	2.751619e-03	4.999741e-01	-5.02405e+00	
298	2.761619e-03	4.986683e-01	-5.01478e+00	
299	2.771619e-03	4.953944e-01	-4.98572e+00	
300	2.781619e-03	4.901654e-01	-4.93699e+00	
301	2.791619e-03	4.830019e-01	-4.86877e+00	
302	2.801619e-03	4.739323e-01	-4.78133e+00	
303	2.811619e-03	4.629922e-01	-4.67503e+00	
304	2.821619e-03	4.502250e-01	-4.55027e+00	
305	2.831619e-03	4.356809e-01	-4.40756e+00	
306	2.841619e-03	4.194173e-01	-4.24745e+00	
307	2.851619e-03	4.014986e-01	-4.07058e+00	
308	2.861619e-03	3.819953e-01	-3.87764e+00	
309	2.871619e-03	3.609844e-01	-3.66941e+00	
310	2.881619e-03	3.385489e-01	-3.44668e+00	
311	2.891619e-03	3.147773e-01	-3.21036e+00	
312	2.901619e-03	2.897634e-01	-2.96137e+00	
313	2.911619e-03	2.636060e-01	-2.70068e+00	
314	2.921619e-03	2.364082e-01	-2.42934e+00	
315	2.931619e-03	2.082774e-01	-2.14841e+00	
316	2.941619e-03	1.793247e-01	-1.85901e+00	
317	2.951619e-03	1.496642e-01	-1.56226e+00	
318	2.961619e-03	1.194131e-01	-1.25935e+00	
319	2.971619e-03	8.869070e-02	-9.51471e-01	
320	2.981619e-03	5.761829e-02	-6.39835e-01	
321	2.991619e-03	2.631848e-02	-3.25673e-01	
322	3.001619e-03	-5.08519e-03	-1.02256e-02	
323	3.011619e-03	-3.64688e-02	3.052625e-01	
324	3.021619e-03	-6.77085e-02	6.195462e-01	
325	3.031619e-03	-9.86809e-02	9.313851e-01	
326	3.041619e-03	-1.29264e-01	1.239548e+00	
327	3.051619e-03	-1.59337e-01	1.542820e+00	
328	3.061619e-03	-1.88781e-01	1.840003e+00	
329	3.071619e-03	-2.17480e-01	2.129924e+00	
330	3.081619e-03	-2.45321e-01	2.411440e+00	
331	3.091619e-03	-2.72193e-01	2.683438e+00	
332	3.101619e-03	-2.97991e-01	2.944846e+00	
333	3.111619e-03	-3.22614e-01	3.194633e+00	
334	3.121619e-03	-3.45963e-01	3.431811e+00	
335	3.131619e-03	-3.67947e-01	3.655445e+00	
336	3.141619e-03	-3.88478e-01	3.864653e+00	
337	3.151619e-03	-4.07477e-01	4.058608e+00	
338	3.161619e-03	-4.24867e-01	4.236546e+00	
339	3.171619e-03	-4.40580e-01	4.397764e+00	
340	3.181619e-03	-4.54555e-01	4.541625e+00	
341	3.191619e-03	-4.66736e-01	4.667563e+00	
342	3.201619e-03	-4.77075e-01	4.775080e+00	
343	3.211619e-03	-4.85531e-01	4.863751e+00	
344	3.221619e-03	-4.92071e-01	4.933228e+00	

Index   time            v(in1,in2)      v(out)          
--------------------------------------------------------------------------------
345	3.231619e-03	-4.96669e-01	4.983235e+00	
346	3.241619e-03	-4.99307e-01	5.013576e+00	
347	3.251619e-03	-4.99974e-01	5.024131e+00	
348	3.261619e-03	-4.98668e-01	5.014857e+00	
349	3.271619e-03	-4.95394e-01	4.985793e+00	
350	3.281619e-03	-4.90165e-01	4.937052e+00	
351	3.291619e-03	-4.83002e-01	4.868828e+00	
352	3.301619e-03	-4.73932e-01	4.781388e+00	
353	3.311619e-03	-4.62992e-01	4.675079e+00	
354	3.321619e-03	-4.50225e-01	4.550320e+00	
355	3.331619e-03	-4.35681e-01	4.407604e+00	
356	3.341619e-03	-4.19417e-01	4.247493e+00	
357	3.351619e-03	-4.01499e-01	4.070620e+00	
358	3.361619e-03	-3.81995e-01	3.877683e+00	
359	3.371619e-03	-3.60984e-01	3.669442e+00	
360	3.381619e-03	-3.38549e-01	3.446721e+00	
361	3.391619e-03	-3.14777e-01	3.210397e+00	
362	3.401619e-03	-2.89763e-01	2.961404e+00	
363	3.411619e-03	-2.63606e-01	2.700724e+00	
364	3.421619e-03	-2.36408e-01	2.429386e+00	
365	3.431619e-03	-2.08277e-01	2.148461e+00	
366	3.441619e-03	-1.79325e-01	1.859057e+00	
367	3.451619e-03	-1.49664e-01	1.562316e+00	
368	3.461619e-03	-1.19413e-01	1.259410e+00	
369	3.471619e-03	-8.86907e-02	9.515338e-01	
370	3.481619e-03	-5.76183e-02	6.399023e-01	
371	3.491619e-03	-2.63185e-02	3.257456e-01	
372	3.501619e-03	5.085188e-03	1.030327e-02	
373	3.511619e-03	3.646879e-02	-3.05180e-01	
374	3.521619e-03	6.770847e-02	-6.19458e-01	
375	3.531619e-03	9.868093e-02	-9.31292e-01	
376	3.541619e-03	1.292639e-01	-1.23945e+00	
377	3.551619e-03	1.593368e-01	-1.54272e+00	
378	3.561619e-03	1.887808e-01	-1.83990e+00	
379	3.571619e-03	2.174799e-01	-2.12981e+00	
380	3.581619e-03	2.453206e-01	-2.41133e+00	
381	3.591619e-03	2.721931e-01	-2.68332e+00	
382	3.601619e-03	2.979914e-01	-2.94473e+00	
383	3.611619e-03	3.226137e-01	-3.19451e+00	
384	3.621619e-03	3.459628e-01	-3.43169e+00	
385	3.631619e-03	3.679465e-01	-3.65533e+00	
386	3.641619e-03	3.884781e-01	-3.86453e+00	
387	3.651619e-03	4.074766e-01	-4.05849e+00	
388	3.661619e-03	4.248669e-01	-4.23643e+00	
389	3.671619e-03	4.405805e-01	-4.39765e+00	
390	3.681619e-03	4.545553e-01	-4.54151e+00	
391	3.691619e-03	4.667362e-01	-4.66746e+00	
392	3.701619e-03	4.770751e-01	-4.77498e+00	
393	3.711619e-03	4.855312e-01	-4.86365e+00	
394	3.721619e-03	4.920711e-01	-4.93313e+00	
395	3.731619e-03	4.966690e-01	-4.98315e+00	
396	3.741619e-03	4.993069e-01	-5.01349e+00	
397	3.751619e-03	4.999741e-01	-5.02405e+00	
398	3.761619e-03	4.986683e-01	-5.01478e+00	
399	3.771619e-03	4.953944e-01	-4.98572e+00	
400	3.781619e-03	4.901654e-01	-4.93699e+00	
401	3.791619e-03	4.830019e-01	-4.86877e+00	
402	3.801619e-03	4.739323e-01	-4.78133e+00	

Index   time            v(in1,in2)      v(out)          
--------------------------------------------------------------------------------
403	3.811619e-03	4.629922e-01	-4.67503e+00	
404	3.821619e-03	4.502250e-01	-4.55027e+00	
405	3.831619e-03	4.356809e-01	-4.40756e+00	
406	3.841619e-03	4.194173e-01	-4.24745e+00	
407	3.851619e-03	4.014986e-01	-4.07058e+00	
408	3.861619e-03	3.819953e-01	-3.87764e+00	
409	3.871619e-03	3.609844e-01	-3.66941e+00	
410	3.881619e-03	3.385489e-01	-3.44668e+00	
411	3.891619e-03	3.147773e-01	-3.21036e+00	
412	3.901619e-03	2.897634e-01	-2.96137e+00	
413	3.911619e-03	2.636060e-01	-2.70068e+00	
414	3.921619e-03	2.364082e-01	-2.42934e+00	
415	3.931619e-03	2.082774e-01	-2.14841e+00	
416	3.941619e-03	1.793247e-01	-1.85901e+00	
417	3.951619e-03	1.496642e-01	-1.56226e+00	
418	3.961619e-03	1.194131e-01	-1.25935e+00	
419	3.971619e-03	8.869070e-02	-9.51471e-01	
420	3.981619e-03	5.761829e-02	-6.39835e-01	
421	3.991619e-03	2.631848e-02	-3.25673e-01	
422	4.001619e-03	-5.08519e-03	-1.02256e-02	
423	4.011619e-03	-3.64688e-02	3.052625e-01	
424	4.021619e-03	-6.77085e-02	6.195462e-01	
425	4.031619e-03	-9.86809e-02	9.313851e-01	
