
Circuit: bjt series regulator

                              bjt series regulator
                              DC transfer characteristic  Thu Jan 20 16:53:53  2022
--------------------------------------------------------------------------------
Index   v-sweep         v(2)            v(4)            v(5)            
--------------------------------------------------------------------------------
0	1.500000e+01	1.187159e+01	6.478948e+00	5.785028e+00	
1	1.550000e+01	1.195831e+01	6.511276e+00	5.812239e+00	
2	1.600000e+01	1.204205e+01	6.541490e+00	5.838145e+00	
3	1.650000e+01	1.212551e+01	6.571426e+00	5.863875e+00	
4	1.700000e+01	1.220822e+01	6.600748e+00	5.889223e+00	
5	1.750000e+01	1.229033e+01	6.629527e+00	5.914232e+00	
6	1.800000e+01	1.237197e+01	6.657848e+00	5.938952e+00	
7	1.850000e+01	1.245326e+01	6.685776e+00	5.963424e+00	
8	1.900000e+01	1.253429e+01	6.713364e+00	5.987679e+00	
9	1.950000e+01	1.261513e+01	6.740653e+00	6.011743e+00	
10	2.000000e+01	1.269584e+01	6.767678e+00	6.035638e+00	
11	2.050000e+01	1.277646e+01	6.794468e+00	6.059379e+00	
12	2.100000e+01	1.285705e+01	6.821048e+00	6.082983e+00	
13	2.150000e+01	1.293763e+01	6.847437e+00	6.106462e+00	
14	2.200000e+01	1.301823e+01	6.873655e+00	6.129826e+00	
15	2.250000e+01	1.309888e+01	6.899714e+00	6.153086e+00	
16	2.300000e+01	1.317961e+01	6.925631e+00	6.176248e+00	
17	2.350000e+01	1.326042e+01	6.951414e+00	6.199320e+00	
18	2.400000e+01	1.334133e+01	6.977076e+00	6.222309e+00	
19	2.450000e+01	1.342237e+01	7.002624e+00	6.245219e+00	
20	2.500000e+01	1.350354e+01	7.028068e+00	6.268056e+00	
