
Circuit: rc differentiator

                               rc differentiator
                               Transient Analysis  Tue Jan 11 16:00:34  2022
--------------------------------------------------------------------------------
Index   time            v(1)            v(2)            
--------------------------------------------------------------------------------
0	0.000000e+00	0.000000e+00	0.000000e+00	
1	2.000000e-07	5.000000e-02	4.999000e-02	
2	2.168022e-07	5.420056e-02	5.418965e-02	
3	2.504067e-07	6.260168e-02	6.258881e-02	
4	3.176157e-07	7.940392e-02	7.938628e-02	
5	4.520336e-07	1.130084e-01	1.129778e-01	
6	7.208694e-07	1.802174e-01	1.801474e-01	
7	1.258541e-06	3.146353e-01	3.144323e-01	
8	2.333884e-06	5.834711e-01	5.827858e-01	
9	4.484571e-06	1.121143e+00	1.118628e+00	
10	8.785945e-06	2.196486e+00	2.186862e+00	
11	1.738869e-05	4.347173e+00	4.309605e+00	
12	2.000000e-05	5.000000e+00	4.950342e+00	
13	2.172055e-05	5.000000e+00	4.941839e+00	
14	2.516165e-05	5.000000e+00	4.924863e+00	
15	3.204385e-05	5.000000e+00	4.891085e+00	
16	4.580824e-05	5.000000e+00	4.824223e+00	
17	6.580824e-05	5.000000e+00	4.728694e+00	
18	8.580824e-05	5.000000e+00	4.635056e+00	
19	1.058082e-04	5.000000e+00	4.543273e+00	
20	1.258082e-04	5.000000e+00	4.453307e+00	
21	1.458082e-04	5.000000e+00	4.365123e+00	
22	1.658082e-04	5.000000e+00	4.278685e+00	
23	1.858082e-04	5.000000e+00	4.193958e+00	
24	2.058082e-04	5.000000e+00	4.110910e+00	
25	2.258082e-04	5.000000e+00	4.029505e+00	
26	2.458082e-04	5.000000e+00	3.949713e+00	
27	2.658082e-04	5.000000e+00	3.871501e+00	
28	2.858082e-04	5.000000e+00	3.794838e+00	
29	3.058082e-04	5.000000e+00	3.719692e+00	
30	3.258082e-04	5.000000e+00	3.646035e+00	
31	3.458082e-04	5.000000e+00	3.573836e+00	
32	3.658082e-04	5.000000e+00	3.503067e+00	
33	3.858082e-04	5.000000e+00	3.433700e+00	
34	4.058082e-04	5.000000e+00	3.365706e+00	
35	4.258082e-04	5.000000e+00	3.299058e+00	
36	4.458082e-04	5.000000e+00	3.233730e+00	
37	4.658082e-04	5.000000e+00	3.169696e+00	
38	4.858082e-04	5.000000e+00	3.106930e+00	
39	5.058082e-04	5.000000e+00	3.045406e+00	
40	5.258082e-04	5.000000e+00	2.985101e+00	
41	5.458082e-04	5.000000e+00	2.925990e+00	
42	5.658082e-04	5.000000e+00	2.868050e+00	
43	5.858082e-04	5.000000e+00	2.811257e+00	
44	6.058082e-04	5.000000e+00	2.755588e+00	
45	6.258082e-04	5.000000e+00	2.701022e+00	
46	6.458082e-04	5.000000e+00	2.647537e+00	
47	6.658082e-04	5.000000e+00	2.595110e+00	
48	6.858082e-04	5.000000e+00	2.543722e+00	
49	7.058082e-04	5.000000e+00	2.493351e+00	
50	7.258082e-04	5.000000e+00	2.443978e+00	
51	7.458082e-04	5.000000e+00	2.395582e+00	
52	7.658082e-04	5.000000e+00	2.348145e+00	
53	7.858082e-04	5.000000e+00	2.301647e+00	
54	8.058082e-04	5.000000e+00	2.256070e+00	

Index   time            v(1)            v(2)            
--------------------------------------------------------------------------------
55	8.258082e-04	5.000000e+00	2.211395e+00	
56	8.458082e-04	5.000000e+00	2.167605e+00	
57	8.658082e-04	5.000000e+00	2.124682e+00	
58	8.858082e-04	5.000000e+00	2.082609e+00	
59	9.058082e-04	5.000000e+00	2.041370e+00	
60	9.258082e-04	5.000000e+00	2.000946e+00	
61	9.458082e-04	5.000000e+00	1.961324e+00	
62	9.658082e-04	5.000000e+00	1.922486e+00	
63	9.858082e-04	5.000000e+00	1.884417e+00	
64	1.005808e-03	5.000000e+00	1.847101e+00	
65	1.025808e-03	5.000000e+00	1.810525e+00	
66	1.045808e-03	5.000000e+00	1.774673e+00	
67	1.065808e-03	5.000000e+00	1.739531e+00	
68	1.085808e-03	5.000000e+00	1.705085e+00	
69	1.105808e-03	5.000000e+00	1.671321e+00	
70	1.125808e-03	5.000000e+00	1.638226e+00	
71	1.145808e-03	5.000000e+00	1.605785e+00	
72	1.165808e-03	5.000000e+00	1.573988e+00	
73	1.185808e-03	5.000000e+00	1.542820e+00	
74	1.205808e-03	5.000000e+00	1.512269e+00	
75	1.225808e-03	5.000000e+00	1.482323e+00	
76	1.245808e-03	5.000000e+00	1.452970e+00	
77	1.265808e-03	5.000000e+00	1.424198e+00	
78	1.285808e-03	5.000000e+00	1.395996e+00	
79	1.305808e-03	5.000000e+00	1.368353e+00	
80	1.325808e-03	5.000000e+00	1.341257e+00	
81	1.345808e-03	5.000000e+00	1.314697e+00	
82	1.365808e-03	5.000000e+00	1.288664e+00	
83	1.385808e-03	5.000000e+00	1.263145e+00	
84	1.405808e-03	5.000000e+00	1.238133e+00	
85	1.425808e-03	5.000000e+00	1.213615e+00	
86	1.445808e-03	5.000000e+00	1.189583e+00	
87	1.465808e-03	5.000000e+00	1.166027e+00	
88	1.485808e-03	5.000000e+00	1.142937e+00	
89	1.505808e-03	5.000000e+00	1.120305e+00	
90	1.525808e-03	5.000000e+00	1.098121e+00	
91	1.545808e-03	5.000000e+00	1.076376e+00	
92	1.565808e-03	5.000000e+00	1.055061e+00	
93	1.585808e-03	5.000000e+00	1.034169e+00	
94	1.605808e-03	5.000000e+00	1.013691e+00	
95	1.625808e-03	5.000000e+00	9.936174e-01	
96	1.645808e-03	5.000000e+00	9.739418e-01	
97	1.665808e-03	5.000000e+00	9.546559e-01	
98	1.685808e-03	5.000000e+00	9.357518e-01	
99	1.705808e-03	5.000000e+00	9.172220e-01	
100	1.725808e-03	5.000000e+00	8.990592e-01	
101	1.745808e-03	5.000000e+00	8.812561e-01	
102	1.765808e-03	5.000000e+00	8.638055e-01	
103	1.785808e-03	5.000000e+00	8.467004e-01	
104	1.805808e-03	5.000000e+00	8.299341e-01	
105	1.825808e-03	5.000000e+00	8.134997e-01	
106	1.845808e-03	5.000000e+00	7.973908e-01	
107	1.865808e-03	5.000000e+00	7.816009e-01	
108	1.885808e-03	5.000000e+00	7.661237e-01	
109	1.905808e-03	5.000000e+00	7.509529e-01	
110	1.925808e-03	5.000000e+00	7.360825e-01	
111	1.945808e-03	5.000000e+00	7.215066e-01	
112	1.965808e-03	5.000000e+00	7.072194e-01	

Index   time            v(1)            v(2)            
--------------------------------------------------------------------------------
113	1.985808e-03	5.000000e+00	6.932150e-01	
114	2.005808e-03	5.000000e+00	6.794880e-01	
115	2.025808e-03	5.000000e+00	6.660328e-01	
116	2.045808e-03	5.000000e+00	6.528440e-01	
117	2.065808e-03	5.000000e+00	6.399164e-01	
118	2.085808e-03	5.000000e+00	6.272448e-01	
119	2.105808e-03	5.000000e+00	6.148241e-01	
120	2.125808e-03	5.000000e+00	6.026494e-01	
121	2.145808e-03	5.000000e+00	5.907157e-01	
122	2.165808e-03	5.000000e+00	5.790184e-01	
123	2.185808e-03	5.000000e+00	5.675527e-01	
124	2.205808e-03	5.000000e+00	5.563140e-01	
125	2.225808e-03	5.000000e+00	5.452979e-01	
126	2.245808e-03	5.000000e+00	5.344999e-01	
127	2.265808e-03	5.000000e+00	5.239158e-01	
128	2.285808e-03	5.000000e+00	5.135412e-01	
129	2.305808e-03	5.000000e+00	5.033721e-01	
130	2.325808e-03	5.000000e+00	4.934043e-01	
131	2.345808e-03	5.000000e+00	4.836339e-01	
132	2.365808e-03	5.000000e+00	4.740570e-01	
133	2.385808e-03	5.000000e+00	4.646697e-01	
134	2.405808e-03	5.000000e+00	4.554684e-01	
135	2.425808e-03	5.000000e+00	4.464492e-01	
136	2.445808e-03	5.000000e+00	4.376086e-01	
137	2.465808e-03	5.000000e+00	4.289431e-01	
138	2.485808e-03	5.000000e+00	4.204492e-01	
139	2.505808e-03	5.000000e+00	4.121234e-01	
140	2.525808e-03	5.000000e+00	4.039626e-01	
141	2.545808e-03	5.000000e+00	3.959633e-01	
142	2.565808e-03	5.000000e+00	3.881225e-01	
143	2.585808e-03	5.000000e+00	3.804369e-01	
144	2.605808e-03	5.000000e+00	3.729035e-01	
145	2.625808e-03	5.000000e+00	3.655192e-01	
146	2.645808e-03	5.000000e+00	3.582812e-01	
147	2.665808e-03	5.000000e+00	3.511866e-01	
148	2.685808e-03	5.000000e+00	3.442324e-01	
149	2.705808e-03	5.000000e+00	3.374159e-01	
150	2.725808e-03	5.000000e+00	3.307344e-01	
151	2.745808e-03	5.000000e+00	3.241852e-01	
152	2.765808e-03	5.000000e+00	3.177657e-01	
153	2.785808e-03	5.000000e+00	3.114733e-01	
154	2.805808e-03	5.000000e+00	3.053055e-01	
155	2.825808e-03	5.000000e+00	2.992598e-01	
156	2.845808e-03	5.000000e+00	2.933339e-01	
157	2.865808e-03	5.000000e+00	2.875253e-01	
158	2.885808e-03	5.000000e+00	2.818317e-01	
159	2.905808e-03	5.000000e+00	2.762509e-01	
160	2.925808e-03	5.000000e+00	2.707806e-01	
161	2.945808e-03	5.000000e+00	2.654186e-01	
162	2.965808e-03	5.000000e+00	2.601628e-01	
163	2.985808e-03	5.000000e+00	2.550111e-01	
164	3.005808e-03	5.000000e+00	2.499613e-01	
165	3.025808e-03	5.000000e+00	2.450116e-01	
166	3.045808e-03	5.000000e+00	2.401599e-01	
167	3.065808e-03	5.000000e+00	2.354043e-01	
168	3.085808e-03	5.000000e+00	2.307428e-01	
169	3.105808e-03	5.000000e+00	2.261736e-01	
170	3.125808e-03	5.000000e+00	2.216949e-01	

Index   time            v(1)            v(2)            
--------------------------------------------------------------------------------
171	3.145808e-03	5.000000e+00	2.173049e-01	
172	3.165808e-03	5.000000e+00	2.130019e-01	
173	3.185808e-03	5.000000e+00	2.087840e-01	
174	3.205808e-03	5.000000e+00	2.046497e-01	
175	3.225808e-03	5.000000e+00	2.005972e-01	
176	3.245808e-03	5.000000e+00	1.966250e-01	
177	3.265808e-03	5.000000e+00	1.927314e-01	
178	3.285808e-03	5.000000e+00	1.889150e-01	
179	3.305808e-03	5.000000e+00	1.851741e-01	
180	3.325808e-03	5.000000e+00	1.815072e-01	
181	3.345808e-03	5.000000e+00	1.779130e-01	
182	3.365808e-03	5.000000e+00	1.743900e-01	
183	3.385808e-03	5.000000e+00	1.709367e-01	
184	3.405808e-03	5.000000e+00	1.675519e-01	
185	3.425808e-03	5.000000e+00	1.642340e-01	
186	3.445808e-03	5.000000e+00	1.609818e-01	
187	3.465808e-03	5.000000e+00	1.577941e-01	
188	3.485808e-03	5.000000e+00	1.546694e-01	
189	3.505808e-03	5.000000e+00	1.516067e-01	
190	3.525808e-03	5.000000e+00	1.486046e-01	
191	3.545808e-03	5.000000e+00	1.456619e-01	
192	3.565808e-03	5.000000e+00	1.427775e-01	
193	3.585808e-03	5.000000e+00	1.399502e-01	
194	3.605808e-03	5.000000e+00	1.371789e-01	
195	3.625808e-03	5.000000e+00	1.344625e-01	
196	3.645808e-03	5.000000e+00	1.317999e-01	
197	3.665808e-03	5.000000e+00	1.291900e-01	
198	3.685808e-03	5.000000e+00	1.266318e-01	
199	3.705808e-03	5.000000e+00	1.241242e-01	
200	3.725808e-03	5.000000e+00	1.216663e-01	
201	3.745808e-03	5.000000e+00	1.192571e-01	
202	3.765808e-03	5.000000e+00	1.168956e-01	
203	3.785808e-03	5.000000e+00	1.145808e-01	
204	3.805808e-03	5.000000e+00	1.123119e-01	
205	3.825808e-03	5.000000e+00	1.100879e-01	
206	3.845808e-03	5.000000e+00	1.079079e-01	
207	3.865808e-03	5.000000e+00	1.057711e-01	
208	3.885808e-03	5.000000e+00	1.036766e-01	
209	3.905808e-03	5.000000e+00	1.016236e-01	
210	3.925808e-03	5.000000e+00	9.961130e-02	
211	3.945808e-03	5.000000e+00	9.763880e-02	
212	3.965808e-03	5.000000e+00	9.570535e-02	
213	3.985808e-03	5.000000e+00	9.381020e-02	
214	4.005808e-03	5.000000e+00	9.195257e-02	
215	4.025808e-03	5.000000e+00	9.013173e-02	
216	4.045808e-03	5.000000e+00	8.834694e-02	
217	4.065808e-03	5.000000e+00	8.659750e-02	
218	4.085808e-03	5.000000e+00	8.488270e-02	
219	4.105808e-03	5.000000e+00	8.320185e-02	
220	4.125808e-03	5.000000e+00	8.155429e-02	
221	4.145808e-03	5.000000e+00	7.993935e-02	
222	4.165808e-03	5.000000e+00	7.835639e-02	
223	4.185808e-03	5.000000e+00	7.680478e-02	
224	4.205808e-03	5.000000e+00	7.528390e-02	
225	4.225808e-03	5.000000e+00	7.379313e-02	
226	4.245808e-03	5.000000e+00	7.233188e-02	
227	4.265808e-03	5.000000e+00	7.089956e-02	
228	4.285808e-03	5.000000e+00	6.949561e-02	

Index   time            v(1)            v(2)            
--------------------------------------------------------------------------------
229	4.305808e-03	5.000000e+00	6.811946e-02	
230	4.325808e-03	5.000000e+00	6.677056e-02	
231	4.345808e-03	5.000000e+00	6.544837e-02	
232	4.365808e-03	5.000000e+00	6.415236e-02	
233	4.385808e-03	5.000000e+00	6.288202e-02	
234	4.405808e-03	5.000000e+00	6.163683e-02	
235	4.425808e-03	5.000000e+00	6.041630e-02	
236	4.445808e-03	5.000000e+00	5.921994e-02	
237	4.465808e-03	5.000000e+00	5.804726e-02	
238	4.485808e-03	5.000000e+00	5.689781e-02	
239	4.505808e-03	5.000000e+00	5.577112e-02	
240	4.525808e-03	5.000000e+00	5.466675e-02	
241	4.545808e-03	5.000000e+00	5.358424e-02	
242	4.565808e-03	5.000000e+00	5.252316e-02	
243	4.585808e-03	5.000000e+00	5.148310e-02	
244	4.605808e-03	5.000000e+00	5.046363e-02	
245	4.625808e-03	5.000000e+00	4.946435e-02	
246	4.645808e-03	5.000000e+00	4.848486e-02	
247	4.665808e-03	5.000000e+00	4.752476e-02	
248	4.685808e-03	5.000000e+00	4.658368e-02	
249	4.705808e-03	5.000000e+00	4.566123e-02	
250	4.725808e-03	5.000000e+00	4.475705e-02	
251	4.745808e-03	5.000000e+00	4.387077e-02	
252	4.765808e-03	5.000000e+00	4.300204e-02	
253	4.785808e-03	5.000000e+00	4.215052e-02	
254	4.805808e-03	5.000000e+00	4.131585e-02	
255	4.825808e-03	5.000000e+00	4.049772e-02	
256	4.845808e-03	5.000000e+00	3.969578e-02	
257	4.865808e-03	5.000000e+00	3.890973e-02	
258	4.885808e-03	5.000000e+00	3.813924e-02	
259	4.905808e-03	5.000000e+00	3.738400e-02	
260	4.925808e-03	5.000000e+00	3.664373e-02	
261	4.945808e-03	5.000000e+00	3.591811e-02	
262	4.965808e-03	5.000000e+00	3.520686e-02	
263	4.985808e-03	5.000000e+00	3.450969e-02	
264	5.005808e-03	5.000000e+00	3.382633e-02	
265	5.025808e-03	5.000000e+00	3.315650e-02	
266	5.045808e-03	5.000000e+00	3.249994e-02	
267	5.065808e-03	5.000000e+00	3.185638e-02	
268	5.085808e-03	5.000000e+00	3.122556e-02	
269	5.105808e-03	5.000000e+00	3.060723e-02	
270	5.125808e-03	5.000000e+00	3.000115e-02	
271	5.145808e-03	5.000000e+00	2.940706e-02	
272	5.165808e-03	5.000000e+00	2.882475e-02	
273	5.185808e-03	5.000000e+00	2.825396e-02	
274	5.205808e-03	5.000000e+00	2.769447e-02	
275	5.225808e-03	5.000000e+00	2.714607e-02	
276	5.245808e-03	5.000000e+00	2.660852e-02	
277	5.265808e-03	5.000000e+00	2.608162e-02	
278	5.285808e-03	5.000000e+00	2.556515e-02	
279	5.305808e-03	5.000000e+00	2.505891e-02	
280	5.325808e-03	5.000000e+00	2.456270e-02	
281	5.345808e-03	5.000000e+00	2.407631e-02	
282	5.365808e-03	5.000000e+00	2.359955e-02	
283	5.385808e-03	5.000000e+00	2.313223e-02	
284	5.405808e-03	5.000000e+00	2.267417e-02	
285	5.425808e-03	5.000000e+00	2.222517e-02	
286	5.445808e-03	5.000000e+00	2.178507e-02	

Index   time            v(1)            v(2)            
--------------------------------------------------------------------------------
287	5.465808e-03	5.000000e+00	2.135368e-02	
288	5.485808e-03	5.000000e+00	2.093084e-02	
289	5.505808e-03	5.000000e+00	2.051637e-02	
290	5.525808e-03	5.000000e+00	2.011010e-02	
291	5.545808e-03	5.000000e+00	1.971188e-02	
292	5.565808e-03	5.000000e+00	1.932155e-02	
293	5.585808e-03	5.000000e+00	1.893894e-02	
294	5.605808e-03	5.000000e+00	1.856391e-02	
295	5.625808e-03	5.000000e+00	1.819631e-02	
296	5.645808e-03	5.000000e+00	1.783599e-02	
297	5.665808e-03	5.000000e+00	1.748280e-02	
298	5.685808e-03	5.000000e+00	1.713661e-02	
299	5.705808e-03	5.000000e+00	1.679727e-02	
300	5.725808e-03	5.000000e+00	1.646465e-02	
301	5.745808e-03	5.000000e+00	1.613862e-02	
302	5.765808e-03	5.000000e+00	1.581904e-02	
303	5.785808e-03	5.000000e+00	1.550579e-02	
304	5.805808e-03	5.000000e+00	1.519875e-02	
305	5.825808e-03	5.000000e+00	1.489778e-02	
306	5.845808e-03	5.000000e+00	1.460278e-02	
307	5.865808e-03	5.000000e+00	1.431361e-02	
308	5.885808e-03	5.000000e+00	1.403017e-02	
309	5.905808e-03	5.000000e+00	1.375235e-02	
310	5.925808e-03	5.000000e+00	1.348002e-02	
311	5.945808e-03	5.000000e+00	1.321309e-02	
312	5.965808e-03	5.000000e+00	1.295145e-02	
313	5.985808e-03	5.000000e+00	1.269498e-02	
314	6.005808e-03	5.000000e+00	1.244360e-02	
315	6.025808e-03	5.000000e+00	1.219719e-02	
316	6.045808e-03	5.000000e+00	1.195566e-02	
317	6.065808e-03	5.000000e+00	1.171892e-02	
318	6.085808e-03	5.000000e+00	1.148686e-02	
319	6.105808e-03	5.000000e+00	1.125940e-02	
320	6.125808e-03	5.000000e+00	1.103644e-02	
321	6.145808e-03	5.000000e+00	1.081789e-02	
322	6.165808e-03	5.000000e+00	1.060368e-02	
323	6.185808e-03	5.000000e+00	1.039370e-02	
324	6.205808e-03	5.000000e+00	1.018789e-02	
325	6.225808e-03	5.000000e+00	9.986148e-03	
326	6.245808e-03	5.000000e+00	9.788402e-03	
327	6.265808e-03	5.000000e+00	9.594573e-03	
328	6.285808e-03	5.000000e+00	9.404581e-03	
329	6.305808e-03	5.000000e+00	9.218352e-03	
330	6.325808e-03	5.000000e+00	9.035810e-03	
331	6.345808e-03	5.000000e+00	8.856883e-03	
332	6.365808e-03	5.000000e+00	8.681499e-03	
333	6.385808e-03	5.000000e+00	8.509588e-03	
334	6.405808e-03	5.000000e+00	8.341082e-03	
335	6.425808e-03	5.000000e+00	8.175912e-03	
336	6.445808e-03	5.000000e+00	8.014013e-03	
337	6.465808e-03	5.000000e+00	7.855319e-03	
338	6.485808e-03	5.000000e+00	7.699768e-03	
339	6.505808e-03	5.000000e+00	7.547298e-03	
340	6.525808e-03	5.000000e+00	7.397846e-03	
341	6.545808e-03	5.000000e+00	7.251354e-03	
342	6.565808e-03	5.000000e+00	7.107763e-03	
343	6.585808e-03	5.000000e+00	6.967015e-03	
344	6.605808e-03	5.000000e+00	6.829055e-03	

Index   time            v(1)            v(2)            
--------------------------------------------------------------------------------
345	6.625808e-03	5.000000e+00	6.693826e-03	
346	6.645808e-03	5.000000e+00	6.561275e-03	
347	6.665808e-03	5.000000e+00	6.431349e-03	
348	6.685808e-03	5.000000e+00	6.303995e-03	
349	6.705808e-03	5.000000e+00	6.179164e-03	
350	6.725808e-03	5.000000e+00	6.056804e-03	
351	6.745808e-03	5.000000e+00	5.936867e-03	
352	6.765808e-03	5.000000e+00	5.819305e-03	
353	6.785808e-03	5.000000e+00	5.704072e-03	
354	6.805808e-03	5.000000e+00	5.591120e-03	
355	6.825808e-03	5.000000e+00	5.480405e-03	
356	6.845808e-03	5.000000e+00	5.371882e-03	
357	6.865808e-03	5.000000e+00	5.265508e-03	
358	6.885808e-03	5.000000e+00	5.161240e-03	
359	6.905808e-03	5.000000e+00	5.059037e-03	
360	6.925808e-03	5.000000e+00	4.958859e-03	
361	6.945808e-03	5.000000e+00	4.860663e-03	
362	6.965808e-03	5.000000e+00	4.764413e-03	
363	6.985808e-03	5.000000e+00	4.670068e-03	
364	7.005808e-03	5.000000e+00	4.577591e-03	
365	7.025808e-03	5.000000e+00	4.486946e-03	
366	7.045808e-03	5.000000e+00	4.398095e-03	
367	7.065808e-03	5.000000e+00	4.311004e-03	
368	7.085808e-03	5.000000e+00	4.225638e-03	
369	7.105808e-03	5.000000e+00	4.141962e-03	
370	7.125808e-03	5.000000e+00	4.059943e-03	
371	7.145808e-03	5.000000e+00	3.979548e-03	
372	7.165808e-03	5.000000e+00	3.900745e-03	
373	7.185808e-03	5.000000e+00	3.823503e-03	
374	7.205808e-03	5.000000e+00	3.747790e-03	
375	7.225808e-03	5.000000e+00	3.673576e-03	
376	7.245808e-03	5.000000e+00	3.600832e-03	
377	7.265808e-03	5.000000e+00	3.529528e-03	
378	7.285808e-03	5.000000e+00	3.459637e-03	
379	7.305808e-03	5.000000e+00	3.391129e-03	
380	7.325808e-03	5.000000e+00	3.323978e-03	
381	7.345808e-03	5.000000e+00	3.258157e-03	
382	7.365808e-03	5.000000e+00	3.193639e-03	
383	7.385808e-03	5.000000e+00	3.130398e-03	
384	7.405808e-03	5.000000e+00	3.068410e-03	
385	7.425808e-03	5.000000e+00	3.007650e-03	
386	7.445808e-03	5.000000e+00	2.948092e-03	
387	7.465808e-03	5.000000e+00	2.889714e-03	
388	7.485808e-03	5.000000e+00	2.832492e-03	
389	7.505808e-03	5.000000e+00	2.776403e-03	
390	7.525808e-03	5.000000e+00	2.721425e-03	
391	7.545808e-03	5.000000e+00	2.667535e-03	
392	7.565808e-03	5.000000e+00	2.614713e-03	
393	7.585808e-03	5.000000e+00	2.562936e-03	
394	7.605808e-03	5.000000e+00	2.512185e-03	
395	7.625808e-03	5.000000e+00	2.462439e-03	
396	7.645808e-03	5.000000e+00	2.413678e-03	
397	7.665808e-03	5.000000e+00	2.365882e-03	
398	7.685808e-03	5.000000e+00	2.319033e-03	
399	7.705808e-03	5.000000e+00	2.273111e-03	
400	7.725808e-03	5.000000e+00	2.228099e-03	
401	7.745808e-03	5.000000e+00	2.183979e-03	
402	7.765808e-03	5.000000e+00	2.140731e-03	

Index   time            v(1)            v(2)            
--------------------------------------------------------------------------------
403	7.785808e-03	5.000000e+00	2.098341e-03	
404	7.805808e-03	5.000000e+00	2.056789e-03	
405	7.825808e-03	5.000000e+00	2.016061e-03	
406	7.845808e-03	5.000000e+00	1.976139e-03	
407	7.865808e-03	5.000000e+00	1.937007e-03	
408	7.885808e-03	5.000000e+00	1.898651e-03	
409	7.905808e-03	5.000000e+00	1.861054e-03	
410	7.925808e-03	5.000000e+00	1.824201e-03	
411	7.945808e-03	5.000000e+00	1.788078e-03	
412	7.965808e-03	5.000000e+00	1.752671e-03	
413	7.985808e-03	5.000000e+00	1.717965e-03	
414	8.005808e-03	5.000000e+00	1.683946e-03	
415	8.025808e-03	5.000000e+00	1.650600e-03	
416	8.045808e-03	5.000000e+00	1.617915e-03	
417	8.065808e-03	5.000000e+00	1.585877e-03	
418	8.085808e-03	5.000000e+00	1.554474e-03	
419	8.105808e-03	5.000000e+00	1.523692e-03	
420	8.125808e-03	5.000000e+00	1.493520e-03	
421	8.145808e-03	5.000000e+00	1.463945e-03	
422	8.165808e-03	5.000000e+00	1.434956e-03	
423	8.185808e-03	5.000000e+00	1.406541e-03	
424	8.205808e-03	5.000000e+00	1.378689e-03	
425	8.225808e-03	5.000000e+00	1.351388e-03	
