
Circuit: rc differentiator

                               rc differentiator
                               Transient Analysis  Wed Jan 12 23:40:47  2022
--------------------------------------------------------------------------------
Index   time            v(1)            v(2)            
--------------------------------------------------------------------------------
0	0.000000e+00	0.000000e+00	0.000000e+00	
1	1.000000e-08	5.000000e-02	4.999950e-02	
2	1.084001e-08	5.420003e-02	5.419948e-02	
3	1.252002e-08	6.260008e-02	6.259944e-02	
4	1.588004e-08	7.940020e-02	7.939931e-02	
5	2.260008e-08	1.130004e-01	1.129989e-01	
6	3.604017e-08	1.802009e-01	1.801974e-01	
7	6.292035e-08	3.146018e-01	3.145916e-01	
8	1.166807e-07	5.834036e-01	5.833693e-01	
9	2.242014e-07	1.121007e+00	1.120881e+00	
10	4.392429e-07	2.196214e+00	2.195732e+00	
11	8.693257e-07	4.346629e+00	4.344740e+00	
12	1.000000e-06	5.000000e+00	4.997501e+00	
13	1.086017e-06	5.000000e+00	4.997071e+00	
14	1.258050e-06	5.000000e+00	4.996211e+00	
15	1.602116e-06	5.000000e+00	4.994492e+00	
16	2.290249e-06	5.000000e+00	4.991057e+00	
17	3.290249e-06	5.000000e+00	4.986068e+00	
18	4.290249e-06	5.000000e+00	4.981085e+00	
19	5.290249e-06	5.000000e+00	4.976106e+00	
20	6.290249e-06	5.000000e+00	4.971132e+00	
21	7.290249e-06	5.000000e+00	4.966164e+00	
22	8.290249e-06	5.000000e+00	4.961200e+00	
23	9.290249e-06	5.000000e+00	4.956241e+00	
24	1.029025e-05	5.000000e+00	4.951288e+00	
25	1.129025e-05	5.000000e+00	4.946339e+00	
26	1.229025e-05	5.000000e+00	4.941395e+00	
27	1.329025e-05	5.000000e+00	4.936456e+00	
28	1.429025e-05	5.000000e+00	4.931522e+00	
29	1.529025e-05	5.000000e+00	4.926593e+00	
30	1.629025e-05	5.000000e+00	4.921669e+00	
31	1.729025e-05	5.000000e+00	4.916750e+00	
32	1.829025e-05	5.000000e+00	4.911835e+00	
33	1.929025e-05	5.000000e+00	4.906926e+00	
34	2.029025e-05	5.000000e+00	4.902021e+00	
35	2.129025e-05	5.000000e+00	4.897122e+00	
36	2.229025e-05	5.000000e+00	4.892227e+00	
37	2.329025e-05	5.000000e+00	4.887337e+00	
38	2.429025e-05	5.000000e+00	4.882453e+00	
39	2.529025e-05	5.000000e+00	4.877573e+00	
40	2.629025e-05	5.000000e+00	4.872697e+00	
41	2.729025e-05	5.000000e+00	4.867827e+00	
42	2.829025e-05	5.000000e+00	4.862962e+00	
43	2.929025e-05	5.000000e+00	4.858101e+00	
44	3.029025e-05	5.000000e+00	4.853246e+00	
45	3.129025e-05	5.000000e+00	4.848395e+00	
46	3.229025e-05	5.000000e+00	4.843549e+00	
47	3.329025e-05	5.000000e+00	4.838708e+00	
48	3.429025e-05	5.000000e+00	4.833871e+00	
49	3.529025e-05	5.000000e+00	4.829040e+00	
50	3.629025e-05	5.000000e+00	4.824213e+00	
51	3.729025e-05	5.000000e+00	4.819391e+00	
52	3.829025e-05	5.000000e+00	4.814574e+00	
53	3.929025e-05	5.000000e+00	4.809762e+00	
54	4.029025e-05	5.000000e+00	4.804955e+00	

Index   time            v(1)            v(2)            
--------------------------------------------------------------------------------
55	4.129025e-05	5.000000e+00	4.800152e+00	
56	4.229025e-05	5.000000e+00	4.795355e+00	
57	4.329025e-05	5.000000e+00	4.790562e+00	
58	4.429025e-05	5.000000e+00	4.785774e+00	
59	4.529025e-05	5.000000e+00	4.780990e+00	
60	4.629025e-05	5.000000e+00	4.776212e+00	
61	4.729025e-05	5.000000e+00	4.771438e+00	
62	4.829025e-05	5.000000e+00	4.766669e+00	
63	4.929025e-05	5.000000e+00	4.761904e+00	
64	5.029025e-05	5.000000e+00	4.757145e+00	
65	5.100000e-05	5.000000e+00	4.753770e+00	
66	5.110000e-05	4.500000e+00	4.253344e+00	
67	5.130000e-05	3.500000e+00	3.252594e+00	
68	5.170000e-05	1.500000e+00	1.251693e+00	
69	5.200000e-05	0.000000e+00	-2.48458e-01	
70	5.208000e-05	0.000000e+00	-2.48438e-01	
71	5.224000e-05	0.000000e+00	-2.48398e-01	
72	5.256000e-05	0.000000e+00	-2.48319e-01	
73	5.320000e-05	0.000000e+00	-2.48160e-01	
74	5.420000e-05	0.000000e+00	-2.47912e-01	
75	5.520000e-05	0.000000e+00	-2.47664e-01	
76	5.620000e-05	0.000000e+00	-2.47416e-01	
77	5.720000e-05	0.000000e+00	-2.47169e-01	
78	5.820000e-05	0.000000e+00	-2.46922e-01	
79	5.920000e-05	0.000000e+00	-2.46675e-01	
80	6.020000e-05	0.000000e+00	-2.46429e-01	
81	6.120000e-05	0.000000e+00	-2.46182e-01	
82	6.220000e-05	0.000000e+00	-2.45936e-01	
83	6.320000e-05	0.000000e+00	-2.45690e-01	
84	6.420000e-05	0.000000e+00	-2.45445e-01	
85	6.520000e-05	0.000000e+00	-2.45200e-01	
86	6.620000e-05	0.000000e+00	-2.44954e-01	
87	6.720000e-05	0.000000e+00	-2.44710e-01	
88	6.820000e-05	0.000000e+00	-2.44465e-01	
89	6.920000e-05	0.000000e+00	-2.44221e-01	
90	7.020000e-05	0.000000e+00	-2.43977e-01	
91	7.120000e-05	0.000000e+00	-2.43733e-01	
92	7.220000e-05	0.000000e+00	-2.43489e-01	
93	7.320000e-05	0.000000e+00	-2.43246e-01	
94	7.420000e-05	0.000000e+00	-2.43003e-01	
95	7.520000e-05	0.000000e+00	-2.42760e-01	
96	7.620000e-05	0.000000e+00	-2.42517e-01	
97	7.720000e-05	0.000000e+00	-2.42275e-01	
98	7.820000e-05	0.000000e+00	-2.42033e-01	
99	7.920000e-05	0.000000e+00	-2.41791e-01	
100	8.020000e-05	0.000000e+00	-2.41549e-01	
101	8.120000e-05	0.000000e+00	-2.41308e-01	
102	8.220000e-05	0.000000e+00	-2.41066e-01	
103	8.320000e-05	0.000000e+00	-2.40825e-01	
104	8.420000e-05	0.000000e+00	-2.40585e-01	
105	8.520000e-05	0.000000e+00	-2.40344e-01	
106	8.620000e-05	0.000000e+00	-2.40104e-01	
107	8.720000e-05	0.000000e+00	-2.39864e-01	
108	8.820000e-05	0.000000e+00	-2.39624e-01	
109	8.920000e-05	0.000000e+00	-2.39385e-01	
110	9.020000e-05	0.000000e+00	-2.39146e-01	
111	9.120000e-05	0.000000e+00	-2.38907e-01	
112	9.220000e-05	0.000000e+00	-2.38668e-01	

Index   time            v(1)            v(2)            
--------------------------------------------------------------------------------
113	9.320000e-05	0.000000e+00	-2.38429e-01	
114	9.420000e-05	0.000000e+00	-2.38191e-01	
115	9.520000e-05	0.000000e+00	-2.37953e-01	
116	9.620000e-05	0.000000e+00	-2.37715e-01	
117	9.720000e-05	0.000000e+00	-2.37477e-01	
118	9.820000e-05	0.000000e+00	-2.37240e-01	
119	9.920000e-05	0.000000e+00	-2.37003e-01	
120	1.000000e-04	0.000000e+00	-2.36813e-01	
121	1.001000e-04	5.000000e-01	2.631603e-01	
122	1.003000e-04	1.500000e+00	1.263008e+00	
123	1.007000e-04	3.500000e+00	3.262103e+00	
124	1.010000e-04	5.000000e+00	4.760899e+00	
125	1.010800e-04	5.000000e+00	4.760518e+00	
126	1.012400e-04	5.000000e+00	4.759757e+00	
127	1.015600e-04	5.000000e+00	4.758234e+00	
128	1.022000e-04	5.000000e+00	4.755190e+00	
129	1.032000e-04	5.000000e+00	4.750437e+00	
130	1.042000e-04	5.000000e+00	4.745689e+00	
131	1.052000e-04	5.000000e+00	4.740945e+00	
132	1.062000e-04	5.000000e+00	4.736207e+00	
133	1.072000e-04	5.000000e+00	4.731473e+00	
134	1.082000e-04	5.000000e+00	4.726744e+00	
135	1.092000e-04	5.000000e+00	4.722019e+00	
136	1.102000e-04	5.000000e+00	4.717300e+00	
137	1.112000e-04	5.000000e+00	4.712585e+00	
138	1.122000e-04	5.000000e+00	4.707875e+00	
139	1.132000e-04	5.000000e+00	4.703169e+00	
140	1.142000e-04	5.000000e+00	4.698468e+00	
141	1.152000e-04	5.000000e+00	4.693772e+00	
142	1.162000e-04	5.000000e+00	4.689081e+00	
143	1.172000e-04	5.000000e+00	4.684394e+00	
144	1.182000e-04	5.000000e+00	4.679712e+00	
145	1.192000e-04	5.000000e+00	4.675035e+00	
146	1.202000e-04	5.000000e+00	4.670362e+00	
147	1.212000e-04	5.000000e+00	4.665694e+00	
148	1.222000e-04	5.000000e+00	4.661031e+00	
149	1.232000e-04	5.000000e+00	4.656372e+00	
150	1.242000e-04	5.000000e+00	4.651718e+00	
151	1.252000e-04	5.000000e+00	4.647068e+00	
152	1.262000e-04	5.000000e+00	4.642424e+00	
153	1.272000e-04	5.000000e+00	4.637784e+00	
154	1.282000e-04	5.000000e+00	4.633148e+00	
155	1.292000e-04	5.000000e+00	4.628517e+00	
156	1.302000e-04	5.000000e+00	4.623891e+00	
157	1.312000e-04	5.000000e+00	4.619269e+00	
158	1.322000e-04	5.000000e+00	4.614652e+00	
159	1.332000e-04	5.000000e+00	4.610040e+00	
160	1.342000e-04	5.000000e+00	4.605432e+00	
161	1.352000e-04	5.000000e+00	4.600829e+00	
162	1.362000e-04	5.000000e+00	4.596231e+00	
163	1.372000e-04	5.000000e+00	4.591637e+00	
164	1.382000e-04	5.000000e+00	4.587047e+00	
165	1.392000e-04	5.000000e+00	4.582463e+00	
166	1.402000e-04	5.000000e+00	4.577883e+00	
167	1.412000e-04	5.000000e+00	4.573307e+00	
168	1.422000e-04	5.000000e+00	4.568736e+00	
169	1.432000e-04	5.000000e+00	4.564169e+00	
170	1.442000e-04	5.000000e+00	4.559608e+00	

Index   time            v(1)            v(2)            
--------------------------------------------------------------------------------
171	1.452000e-04	5.000000e+00	4.555050e+00	
172	1.462000e-04	5.000000e+00	4.550497e+00	
173	1.472000e-04	5.000000e+00	4.545949e+00	
174	1.482000e-04	5.000000e+00	4.541406e+00	
175	1.492000e-04	5.000000e+00	4.536866e+00	
176	1.502000e-04	5.000000e+00	4.532332e+00	
177	1.510000e-04	5.000000e+00	4.528707e+00	
178	1.511000e-04	4.500000e+00	4.028305e+00	
179	1.513000e-04	3.500000e+00	3.027599e+00	
180	1.517000e-04	1.500000e+00	1.026788e+00	
181	1.520000e-04	0.000000e+00	-4.73295e-01	
182	1.520800e-04	0.000000e+00	-4.73257e-01	
183	1.522400e-04	0.000000e+00	-4.73181e-01	
184	1.525600e-04	0.000000e+00	-4.73030e-01	
185	1.532000e-04	0.000000e+00	-4.72727e-01	
186	1.542000e-04	0.000000e+00	-4.72255e-01	
187	1.552000e-04	0.000000e+00	-4.71783e-01	
188	1.562000e-04	0.000000e+00	-4.71311e-01	
189	1.572000e-04	0.000000e+00	-4.70840e-01	
190	1.582000e-04	0.000000e+00	-4.70370e-01	
191	1.592000e-04	0.000000e+00	-4.69899e-01	
192	1.602000e-04	0.000000e+00	-4.69430e-01	
193	1.612000e-04	0.000000e+00	-4.68961e-01	
194	1.622000e-04	0.000000e+00	-4.68492e-01	
195	1.632000e-04	0.000000e+00	-4.68024e-01	
196	1.642000e-04	0.000000e+00	-4.67556e-01	
197	1.652000e-04	0.000000e+00	-4.67088e-01	
198	1.662000e-04	0.000000e+00	-4.66622e-01	
199	1.672000e-04	0.000000e+00	-4.66155e-01	
200	1.682000e-04	0.000000e+00	-4.65689e-01	
201	1.692000e-04	0.000000e+00	-4.65224e-01	
202	1.702000e-04	0.000000e+00	-4.64759e-01	
203	1.712000e-04	0.000000e+00	-4.64294e-01	
204	1.722000e-04	0.000000e+00	-4.63830e-01	
205	1.732000e-04	0.000000e+00	-4.63367e-01	
206	1.742000e-04	0.000000e+00	-4.62904e-01	
207	1.752000e-04	0.000000e+00	-4.62441e-01	
208	1.762000e-04	0.000000e+00	-4.61979e-01	
209	1.772000e-04	0.000000e+00	-4.61517e-01	
210	1.782000e-04	0.000000e+00	-4.61056e-01	
211	1.792000e-04	0.000000e+00	-4.60595e-01	
212	1.802000e-04	0.000000e+00	-4.60134e-01	
213	1.812000e-04	0.000000e+00	-4.59675e-01	
214	1.822000e-04	0.000000e+00	-4.59215e-01	
215	1.832000e-04	0.000000e+00	-4.58756e-01	
216	1.842000e-04	0.000000e+00	-4.58298e-01	
217	1.852000e-04	0.000000e+00	-4.57839e-01	
218	1.862000e-04	0.000000e+00	-4.57382e-01	
219	1.872000e-04	0.000000e+00	-4.56925e-01	
220	1.882000e-04	0.000000e+00	-4.56468e-01	
221	1.892000e-04	0.000000e+00	-4.56012e-01	
222	1.902000e-04	0.000000e+00	-4.55556e-01	
223	1.912000e-04	0.000000e+00	-4.55101e-01	
224	1.922000e-04	0.000000e+00	-4.54646e-01	
225	1.932000e-04	0.000000e+00	-4.54191e-01	
226	1.942000e-04	0.000000e+00	-4.53737e-01	
227	1.952000e-04	0.000000e+00	-4.53284e-01	
228	1.962000e-04	0.000000e+00	-4.52831e-01	

Index   time            v(1)            v(2)            
--------------------------------------------------------------------------------
229	1.972000e-04	0.000000e+00	-4.52378e-01	
230	1.982000e-04	0.000000e+00	-4.51926e-01	
231	1.992000e-04	0.000000e+00	-4.51474e-01	
232	2.000000e-04	0.000000e+00	-4.51113e-01	
233	2.001000e-04	5.000000e-01	4.888176e-02	
234	2.003000e-04	1.500000e+00	1.048772e+00	
235	2.007000e-04	3.500000e+00	3.047953e+00	
236	2.010000e-04	5.000000e+00	4.546813e+00	
237	2.010800e-04	5.000000e+00	4.546450e+00	
238	2.012400e-04	5.000000e+00	4.545722e+00	
239	2.015600e-04	5.000000e+00	4.544268e+00	
240	2.022000e-04	5.000000e+00	4.541361e+00	
241	2.032000e-04	5.000000e+00	4.536821e+00	
242	2.042000e-04	5.000000e+00	4.532287e+00	
243	2.052000e-04	5.000000e+00	4.527757e+00	
244	2.062000e-04	5.000000e+00	4.523231e+00	
245	2.072000e-04	5.000000e+00	4.518710e+00	
246	2.082000e-04	5.000000e+00	4.514194e+00	
247	2.092000e-04	5.000000e+00	4.509682e+00	
248	2.102000e-04	5.000000e+00	4.505175e+00	
249	2.112000e-04	5.000000e+00	4.500672e+00	
250	2.122000e-04	5.000000e+00	4.496173e+00	
251	2.132000e-04	5.000000e+00	4.491679e+00	
252	2.142000e-04	5.000000e+00	4.487190e+00	
253	2.152000e-04	5.000000e+00	4.482705e+00	
254	2.162000e-04	5.000000e+00	4.478224e+00	
255	2.172000e-04	5.000000e+00	4.473748e+00	
256	2.182000e-04	5.000000e+00	4.469277e+00	
257	2.192000e-04	5.000000e+00	4.464810e+00	
258	2.202000e-04	5.000000e+00	4.460347e+00	
259	2.212000e-04	5.000000e+00	4.455889e+00	
260	2.222000e-04	5.000000e+00	4.451436e+00	
261	2.232000e-04	5.000000e+00	4.446986e+00	
262	2.242000e-04	5.000000e+00	4.442542e+00	
263	2.252000e-04	5.000000e+00	4.438101e+00	
264	2.262000e-04	5.000000e+00	4.433665e+00	
265	2.272000e-04	5.000000e+00	4.429234e+00	
266	2.282000e-04	5.000000e+00	4.424807e+00	
267	2.292000e-04	5.000000e+00	4.420384e+00	
268	2.302000e-04	5.000000e+00	4.415966e+00	
269	2.312000e-04	5.000000e+00	4.411552e+00	
270	2.322000e-04	5.000000e+00	4.407143e+00	
271	2.332000e-04	5.000000e+00	4.402738e+00	
272	2.342000e-04	5.000000e+00	4.398338e+00	
273	2.352000e-04	5.000000e+00	4.393941e+00	
274	2.362000e-04	5.000000e+00	4.389550e+00	
275	2.372000e-04	5.000000e+00	4.385162e+00	
276	2.382000e-04	5.000000e+00	4.380779e+00	
277	2.392000e-04	5.000000e+00	4.376401e+00	
278	2.402000e-04	5.000000e+00	4.372027e+00	
279	2.412000e-04	5.000000e+00	4.367657e+00	
280	2.422000e-04	5.000000e+00	4.363291e+00	
281	2.432000e-04	5.000000e+00	4.358930e+00	
282	2.442000e-04	5.000000e+00	4.354573e+00	
283	2.452000e-04	5.000000e+00	4.350221e+00	
284	2.462000e-04	5.000000e+00	4.345873e+00	
285	2.472000e-04	5.000000e+00	4.341529e+00	
286	2.482000e-04	5.000000e+00	4.337190e+00	

Index   time            v(1)            v(2)            
--------------------------------------------------------------------------------
287	2.492000e-04	5.000000e+00	4.332855e+00	
288	2.502000e-04	5.000000e+00	4.328524e+00	
289	2.510000e-04	5.000000e+00	4.325063e+00	
290	2.511000e-04	4.500000e+00	3.824680e+00	
291	2.513000e-04	3.500000e+00	2.824015e+00	
292	2.517000e-04	1.500000e+00	8.232859e-01	
293	2.520000e-04	0.000000e+00	-6.76736e-01	
294	2.520800e-04	0.000000e+00	-6.76682e-01	
295	2.522400e-04	0.000000e+00	-6.76574e-01	
296	2.525600e-04	0.000000e+00	-6.76357e-01	
297	2.532000e-04	0.000000e+00	-6.75924e-01	
298	2.542000e-04	0.000000e+00	-6.75249e-01	
299	2.552000e-04	0.000000e+00	-6.74574e-01	
300	2.562000e-04	0.000000e+00	-6.73900e-01	
301	2.572000e-04	0.000000e+00	-6.73226e-01	
302	2.582000e-04	0.000000e+00	-6.72553e-01	
303	2.592000e-04	0.000000e+00	-6.71881e-01	
304	2.602000e-04	0.000000e+00	-6.71210e-01	
305	2.612000e-04	0.000000e+00	-6.70539e-01	
306	2.622000e-04	0.000000e+00	-6.69868e-01	
307	2.632000e-04	0.000000e+00	-6.69199e-01	
308	2.642000e-04	0.000000e+00	-6.68530e-01	
309	2.652000e-04	0.000000e+00	-6.67862e-01	
310	2.662000e-04	0.000000e+00	-6.67194e-01	
311	2.672000e-04	0.000000e+00	-6.66527e-01	
312	2.682000e-04	0.000000e+00	-6.65861e-01	
313	2.692000e-04	0.000000e+00	-6.65196e-01	
314	2.702000e-04	0.000000e+00	-6.64531e-01	
315	2.712000e-04	0.000000e+00	-6.63867e-01	
316	2.722000e-04	0.000000e+00	-6.63203e-01	
317	2.732000e-04	0.000000e+00	-6.62540e-01	
318	2.742000e-04	0.000000e+00	-6.61878e-01	
319	2.752000e-04	0.000000e+00	-6.61217e-01	
320	2.762000e-04	0.000000e+00	-6.60556e-01	
321	2.772000e-04	0.000000e+00	-6.59895e-01	
322	2.782000e-04	0.000000e+00	-6.59236e-01	
323	2.792000e-04	0.000000e+00	-6.58577e-01	
324	2.802000e-04	0.000000e+00	-6.57919e-01	
325	2.812000e-04	0.000000e+00	-6.57261e-01	
326	2.822000e-04	0.000000e+00	-6.56604e-01	
327	2.832000e-04	0.000000e+00	-6.55948e-01	
328	2.842000e-04	0.000000e+00	-6.55292e-01	
329	2.852000e-04	0.000000e+00	-6.54637e-01	
330	2.862000e-04	0.000000e+00	-6.53983e-01	
331	2.872000e-04	0.000000e+00	-6.53329e-01	
332	2.882000e-04	0.000000e+00	-6.52676e-01	
333	2.892000e-04	0.000000e+00	-6.52024e-01	
334	2.902000e-04	0.000000e+00	-6.51372e-01	
335	2.912000e-04	0.000000e+00	-6.50721e-01	
336	2.922000e-04	0.000000e+00	-6.50071e-01	
337	2.932000e-04	0.000000e+00	-6.49421e-01	
338	2.942000e-04	0.000000e+00	-6.48772e-01	
339	2.952000e-04	0.000000e+00	-6.48124e-01	
340	2.962000e-04	0.000000e+00	-6.47476e-01	
341	2.972000e-04	0.000000e+00	-6.46829e-01	
342	2.982000e-04	0.000000e+00	-6.46182e-01	
343	2.992000e-04	0.000000e+00	-6.45536e-01	
344	3.000000e-04	0.000000e+00	-6.45020e-01	
