
Circuit: rc differentiator

                               rc differentiator
                               Transient Analysis  Wed Jan 12 23:42:13  2022
--------------------------------------------------------------------------------
Index   time            v(1)            v(2)            
--------------------------------------------------------------------------------
0	0.000000e+00	0.000000e+00	0.000000e+00	
1	2.000000e-07	5.000000e-02	4.999000e-02	
2	2.168022e-07	5.420056e-02	5.418965e-02	
3	2.504067e-07	6.260168e-02	6.258881e-02	
4	3.176157e-07	7.940392e-02	7.938628e-02	
5	4.520336e-07	1.130084e-01	1.129778e-01	
6	7.208694e-07	1.802174e-01	1.801474e-01	
7	1.258541e-06	3.146353e-01	3.144323e-01	
8	2.333884e-06	5.834711e-01	5.827858e-01	
9	4.484571e-06	1.121143e+00	1.118628e+00	
10	8.785945e-06	2.196486e+00	2.186862e+00	
11	1.738869e-05	4.347173e+00	4.309605e+00	
12	2.000000e-05	5.000000e+00	4.950342e+00	
13	2.172055e-05	5.000000e+00	4.941839e+00	
14	2.516165e-05	5.000000e+00	4.924863e+00	
15	3.204385e-05	5.000000e+00	4.891085e+00	
16	4.580824e-05	5.000000e+00	4.824223e+00	
17	6.580824e-05	5.000000e+00	4.728694e+00	
18	8.580824e-05	5.000000e+00	4.635056e+00	
19	1.058082e-04	5.000000e+00	4.543273e+00	
20	1.258082e-04	5.000000e+00	4.453307e+00	
21	1.458082e-04	5.000000e+00	4.365123e+00	
22	1.658082e-04	5.000000e+00	4.278685e+00	
23	1.858082e-04	5.000000e+00	4.193958e+00	
24	2.058082e-04	5.000000e+00	4.110910e+00	
25	2.258082e-04	5.000000e+00	4.029505e+00	
26	2.458082e-04	5.000000e+00	3.949713e+00	
27	2.658082e-04	5.000000e+00	3.871501e+00	
28	2.858082e-04	5.000000e+00	3.794838e+00	
29	3.058082e-04	5.000000e+00	3.719692e+00	
30	3.258082e-04	5.000000e+00	3.646035e+00	
31	3.458082e-04	5.000000e+00	3.573836e+00	
32	3.658082e-04	5.000000e+00	3.503067e+00	
33	3.858082e-04	5.000000e+00	3.433700e+00	
34	4.058082e-04	5.000000e+00	3.365706e+00	
35	4.258082e-04	5.000000e+00	3.299058e+00	
36	4.458082e-04	5.000000e+00	3.233730e+00	
37	4.658082e-04	5.000000e+00	3.169696e+00	
38	4.858082e-04	5.000000e+00	3.106930e+00	
39	5.058082e-04	5.000000e+00	3.045406e+00	
40	5.258082e-04	5.000000e+00	2.985101e+00	
41	5.458082e-04	5.000000e+00	2.925990e+00	
42	5.658082e-04	5.000000e+00	2.868050e+00	
43	5.858082e-04	5.000000e+00	2.811257e+00	
44	6.058082e-04	5.000000e+00	2.755588e+00	
45	6.258082e-04	5.000000e+00	2.701022e+00	
46	6.458082e-04	5.000000e+00	2.647537e+00	
47	6.658082e-04	5.000000e+00	2.595110e+00	
48	6.858082e-04	5.000000e+00	2.543722e+00	
49	7.058082e-04	5.000000e+00	2.493351e+00	
50	7.258082e-04	5.000000e+00	2.443978e+00	
51	7.458082e-04	5.000000e+00	2.395582e+00	
52	7.658082e-04	5.000000e+00	2.348145e+00	
53	7.858082e-04	5.000000e+00	2.301647e+00	
54	8.058082e-04	5.000000e+00	2.256070e+00	

Index   time            v(1)            v(2)            
--------------------------------------------------------------------------------
55	8.258082e-04	5.000000e+00	2.211395e+00	
56	8.458082e-04	5.000000e+00	2.167605e+00	
57	8.658082e-04	5.000000e+00	2.124682e+00	
58	8.858082e-04	5.000000e+00	2.082609e+00	
59	9.058082e-04	5.000000e+00	2.041370e+00	
60	9.258082e-04	5.000000e+00	2.000946e+00	
61	9.458082e-04	5.000000e+00	1.961324e+00	
62	9.658082e-04	5.000000e+00	1.922486e+00	
63	9.858082e-04	5.000000e+00	1.884417e+00	
64	1.005808e-03	5.000000e+00	1.847101e+00	
65	1.025808e-03	5.000000e+00	1.810525e+00	
66	1.045808e-03	5.000000e+00	1.774673e+00	
67	1.065808e-03	5.000000e+00	1.739531e+00	
68	1.085808e-03	5.000000e+00	1.705085e+00	
69	1.105808e-03	5.000000e+00	1.671321e+00	
70	1.125808e-03	5.000000e+00	1.638226e+00	
71	1.145808e-03	5.000000e+00	1.605785e+00	
72	1.165808e-03	5.000000e+00	1.573988e+00	
73	1.185808e-03	5.000000e+00	1.542820e+00	
74	1.205808e-03	5.000000e+00	1.512269e+00	
75	1.225808e-03	5.000000e+00	1.482323e+00	
76	1.245808e-03	5.000000e+00	1.452970e+00	
77	1.265808e-03	5.000000e+00	1.424198e+00	
78	1.285808e-03	5.000000e+00	1.395996e+00	
79	1.305808e-03	5.000000e+00	1.368353e+00	
80	1.325808e-03	5.000000e+00	1.341257e+00	
81	1.345808e-03	5.000000e+00	1.314697e+00	
82	1.365808e-03	5.000000e+00	1.288664e+00	
83	1.385808e-03	5.000000e+00	1.263145e+00	
84	1.405808e-03	5.000000e+00	1.238133e+00	
85	1.425808e-03	5.000000e+00	1.213615e+00	
86	1.445808e-03	5.000000e+00	1.189583e+00	
87	1.465808e-03	5.000000e+00	1.166027e+00	
88	1.485808e-03	5.000000e+00	1.142937e+00	
89	1.505808e-03	5.000000e+00	1.120305e+00	
90	1.525808e-03	5.000000e+00	1.098121e+00	
91	1.545808e-03	5.000000e+00	1.076376e+00	
92	1.565808e-03	5.000000e+00	1.055061e+00	
93	1.585808e-03	5.000000e+00	1.034169e+00	
94	1.605808e-03	5.000000e+00	1.013691e+00	
95	1.625808e-03	5.000000e+00	9.936174e-01	
96	1.645808e-03	5.000000e+00	9.739418e-01	
97	1.665808e-03	5.000000e+00	9.546559e-01	
98	1.685808e-03	5.000000e+00	9.357518e-01	
99	1.705808e-03	5.000000e+00	9.172220e-01	
100	1.725808e-03	5.000000e+00	8.990592e-01	
101	1.745808e-03	5.000000e+00	8.812561e-01	
102	1.765808e-03	5.000000e+00	8.638055e-01	
103	1.785808e-03	5.000000e+00	8.467004e-01	
104	1.805808e-03	5.000000e+00	8.299341e-01	
105	1.825808e-03	5.000000e+00	8.134997e-01	
106	1.845808e-03	5.000000e+00	7.973908e-01	
107	1.865808e-03	5.000000e+00	7.816009e-01	
108	1.885808e-03	5.000000e+00	7.661237e-01	
109	1.905808e-03	5.000000e+00	7.509529e-01	
110	1.925808e-03	5.000000e+00	7.360825e-01	
111	1.945808e-03	5.000000e+00	7.215066e-01	
112	1.965808e-03	5.000000e+00	7.072194e-01	

Index   time            v(1)            v(2)            
--------------------------------------------------------------------------------
113	1.985808e-03	5.000000e+00	6.932150e-01	
114	2.005808e-03	5.000000e+00	6.794880e-01	
115	2.025808e-03	5.000000e+00	6.660328e-01	
116	2.045808e-03	5.000000e+00	6.528440e-01	
117	2.065808e-03	5.000000e+00	6.399164e-01	
118	2.085808e-03	5.000000e+00	6.272448e-01	
119	2.105808e-03	5.000000e+00	6.148241e-01	
120	2.125808e-03	5.000000e+00	6.026494e-01	
121	2.145808e-03	5.000000e+00	5.907157e-01	
122	2.165808e-03	5.000000e+00	5.790184e-01	
123	2.185808e-03	5.000000e+00	5.675527e-01	
124	2.205808e-03	5.000000e+00	5.563140e-01	
125	2.225808e-03	5.000000e+00	5.452979e-01	
126	2.245808e-03	5.000000e+00	5.344999e-01	
127	2.265808e-03	5.000000e+00	5.239158e-01	
128	2.285808e-03	5.000000e+00	5.135412e-01	
129	2.305808e-03	5.000000e+00	5.033721e-01	
130	2.325808e-03	5.000000e+00	4.934043e-01	
131	2.345808e-03	5.000000e+00	4.836339e-01	
132	2.365808e-03	5.000000e+00	4.740570e-01	
133	2.385808e-03	5.000000e+00	4.646697e-01	
134	2.405808e-03	5.000000e+00	4.554684e-01	
135	2.425808e-03	5.000000e+00	4.464492e-01	
136	2.445808e-03	5.000000e+00	4.376086e-01	
137	2.465808e-03	5.000000e+00	4.289431e-01	
138	2.485808e-03	5.000000e+00	4.204492e-01	
139	2.505808e-03	5.000000e+00	4.121234e-01	
140	2.525808e-03	5.000000e+00	4.039626e-01	
141	2.545808e-03	5.000000e+00	3.959633e-01	
142	2.565808e-03	5.000000e+00	3.881225e-01	
143	2.585808e-03	5.000000e+00	3.804369e-01	
144	2.605808e-03	5.000000e+00	3.729035e-01	
145	2.625808e-03	5.000000e+00	3.655192e-01	
146	2.645808e-03	5.000000e+00	3.582812e-01	
147	2.665808e-03	5.000000e+00	3.511866e-01	
148	2.685808e-03	5.000000e+00	3.442324e-01	
149	2.705808e-03	5.000000e+00	3.374159e-01	
150	2.725808e-03	5.000000e+00	3.307344e-01	
151	2.745808e-03	5.000000e+00	3.241852e-01	
152	2.765808e-03	5.000000e+00	3.177657e-01	
153	2.785808e-03	5.000000e+00	3.114733e-01	
154	2.805808e-03	5.000000e+00	3.053055e-01	
155	2.825808e-03	5.000000e+00	2.992598e-01	
156	2.845808e-03	5.000000e+00	2.933339e-01	
157	2.865808e-03	5.000000e+00	2.875253e-01	
158	2.885808e-03	5.000000e+00	2.818317e-01	
159	2.905808e-03	5.000000e+00	2.762509e-01	
160	2.925808e-03	5.000000e+00	2.707806e-01	
161	2.945808e-03	5.000000e+00	2.654186e-01	
162	2.965808e-03	5.000000e+00	2.601628e-01	
163	2.985808e-03	5.000000e+00	2.550111e-01	
164	3.005808e-03	5.000000e+00	2.499613e-01	
165	3.025808e-03	5.000000e+00	2.450116e-01	
166	3.045808e-03	5.000000e+00	2.401599e-01	
167	3.065808e-03	5.000000e+00	2.354043e-01	
168	3.085808e-03	5.000000e+00	2.307428e-01	
169	3.105808e-03	5.000000e+00	2.261736e-01	
170	3.125808e-03	5.000000e+00	2.216949e-01	

Index   time            v(1)            v(2)            
--------------------------------------------------------------------------------
171	3.145808e-03	5.000000e+00	2.173049e-01	
172	3.165808e-03	5.000000e+00	2.130019e-01	
173	3.185808e-03	5.000000e+00	2.087840e-01	
174	3.205808e-03	5.000000e+00	2.046497e-01	
175	3.225808e-03	5.000000e+00	2.005972e-01	
176	3.245808e-03	5.000000e+00	1.966250e-01	
177	3.265808e-03	5.000000e+00	1.927314e-01	
178	3.285808e-03	5.000000e+00	1.889150e-01	
179	3.305808e-03	5.000000e+00	1.851741e-01	
180	3.325808e-03	5.000000e+00	1.815072e-01	
181	3.345808e-03	5.000000e+00	1.779130e-01	
182	3.365808e-03	5.000000e+00	1.743900e-01	
183	3.385808e-03	5.000000e+00	1.709367e-01	
184	3.405808e-03	5.000000e+00	1.675519e-01	
185	3.425808e-03	5.000000e+00	1.642340e-01	
186	3.445808e-03	5.000000e+00	1.609818e-01	
187	3.465808e-03	5.000000e+00	1.577941e-01	
188	3.485808e-03	5.000000e+00	1.546694e-01	
189	3.505808e-03	5.000000e+00	1.516067e-01	
190	3.525808e-03	5.000000e+00	1.486046e-01	
191	3.545808e-03	5.000000e+00	1.456619e-01	
192	3.565808e-03	5.000000e+00	1.427775e-01	
193	3.585808e-03	5.000000e+00	1.399502e-01	
194	3.605808e-03	5.000000e+00	1.371789e-01	
195	3.625808e-03	5.000000e+00	1.344625e-01	
196	3.645808e-03	5.000000e+00	1.317999e-01	
197	3.665808e-03	5.000000e+00	1.291900e-01	
198	3.685808e-03	5.000000e+00	1.266318e-01	
199	3.705808e-03	5.000000e+00	1.241242e-01	
200	3.725808e-03	5.000000e+00	1.216663e-01	
201	3.745808e-03	5.000000e+00	1.192571e-01	
202	3.765808e-03	5.000000e+00	1.168956e-01	
203	3.785808e-03	5.000000e+00	1.145808e-01	
204	3.805808e-03	5.000000e+00	1.123119e-01	
205	3.825808e-03	5.000000e+00	1.100879e-01	
206	3.845808e-03	5.000000e+00	1.079079e-01	
207	3.865808e-03	5.000000e+00	1.057711e-01	
208	3.885808e-03	5.000000e+00	1.036766e-01	
209	3.905808e-03	5.000000e+00	1.016236e-01	
210	3.925808e-03	5.000000e+00	9.961130e-02	
211	3.945808e-03	5.000000e+00	9.763880e-02	
212	3.965808e-03	5.000000e+00	9.570535e-02	
213	3.985808e-03	5.000000e+00	9.381020e-02	
214	4.005808e-03	5.000000e+00	9.195257e-02	
215	4.025808e-03	5.000000e+00	9.013173e-02	
216	4.045808e-03	5.000000e+00	8.834694e-02	
217	4.065808e-03	5.000000e+00	8.659750e-02	
218	4.085808e-03	5.000000e+00	8.488270e-02	
219	4.105808e-03	5.000000e+00	8.320185e-02	
220	4.125808e-03	5.000000e+00	8.155429e-02	
221	4.145808e-03	5.000000e+00	7.993935e-02	
222	4.165808e-03	5.000000e+00	7.835639e-02	
223	4.185808e-03	5.000000e+00	7.680478e-02	
224	4.205808e-03	5.000000e+00	7.528390e-02	
225	4.225808e-03	5.000000e+00	7.379313e-02	
226	4.245808e-03	5.000000e+00	7.233188e-02	
227	4.265808e-03	5.000000e+00	7.089956e-02	
228	4.285808e-03	5.000000e+00	6.949561e-02	

Index   time            v(1)            v(2)            
--------------------------------------------------------------------------------
229	4.305808e-03	5.000000e+00	6.811946e-02	
230	4.325808e-03	5.000000e+00	6.677056e-02	
231	4.345808e-03	5.000000e+00	6.544837e-02	
232	4.365808e-03	5.000000e+00	6.415236e-02	
233	4.385808e-03	5.000000e+00	6.288202e-02	
234	4.405808e-03	5.000000e+00	6.163683e-02	
235	4.425808e-03	5.000000e+00	6.041630e-02	
236	4.445808e-03	5.000000e+00	5.921994e-02	
237	4.465808e-03	5.000000e+00	5.804726e-02	
238	4.485808e-03	5.000000e+00	5.689781e-02	
239	4.505808e-03	5.000000e+00	5.577112e-02	
240	4.525808e-03	5.000000e+00	5.466675e-02	
241	4.545808e-03	5.000000e+00	5.358424e-02	
242	4.565808e-03	5.000000e+00	5.252316e-02	
243	4.585808e-03	5.000000e+00	5.148310e-02	
244	4.605808e-03	5.000000e+00	5.046363e-02	
245	4.625808e-03	5.000000e+00	4.946435e-02	
246	4.645808e-03	5.000000e+00	4.848486e-02	
247	4.665808e-03	5.000000e+00	4.752476e-02	
248	4.685808e-03	5.000000e+00	4.658368e-02	
249	4.705808e-03	5.000000e+00	4.566123e-02	
250	4.725808e-03	5.000000e+00	4.475705e-02	
251	4.745808e-03	5.000000e+00	4.387077e-02	
252	4.765808e-03	5.000000e+00	4.300204e-02	
253	4.785808e-03	5.000000e+00	4.215052e-02	
254	4.805808e-03	5.000000e+00	4.131585e-02	
255	4.825808e-03	5.000000e+00	4.049772e-02	
256	4.845808e-03	5.000000e+00	3.969578e-02	
257	4.865808e-03	5.000000e+00	3.890973e-02	
258	4.885808e-03	5.000000e+00	3.813924e-02	
259	4.905808e-03	5.000000e+00	3.738400e-02	
260	4.925808e-03	5.000000e+00	3.664373e-02	
261	4.945808e-03	5.000000e+00	3.591811e-02	
262	4.965808e-03	5.000000e+00	3.520686e-02	
263	4.985808e-03	5.000000e+00	3.450969e-02	
264	5.005808e-03	5.000000e+00	3.382633e-02	
265	5.020000e-03	5.000000e+00	3.334966e-02	
266	5.022000e-03	4.500000e+00	-4.65719e-01	
267	5.026000e-03	3.500000e+00	-1.46186e+00	
268	5.034000e-03	1.500000e+00	-3.44225e+00	
269	5.040000e-03	0.000000e+00	-4.91717e+00	
270	5.041600e-03	0.000000e+00	-4.90931e+00	
271	5.044800e-03	0.000000e+00	-4.89363e+00	
272	5.051200e-03	0.000000e+00	-4.86241e+00	
273	5.064000e-03	0.000000e+00	-4.80057e+00	
274	5.084000e-03	0.000000e+00	-4.70551e+00	
275	5.104000e-03	0.000000e+00	-4.61233e+00	
276	5.124000e-03	0.000000e+00	-4.52099e+00	
277	5.144000e-03	0.000000e+00	-4.43147e+00	
278	5.164000e-03	0.000000e+00	-4.34372e+00	
279	5.184000e-03	0.000000e+00	-4.25770e+00	
280	5.204000e-03	0.000000e+00	-4.17339e+00	
281	5.224000e-03	0.000000e+00	-4.09075e+00	
282	5.244000e-03	0.000000e+00	-4.00975e+00	
283	5.264000e-03	0.000000e+00	-3.93035e+00	
284	5.284000e-03	0.000000e+00	-3.85252e+00	
285	5.304000e-03	0.000000e+00	-3.77623e+00	
286	5.324000e-03	0.000000e+00	-3.70145e+00	

Index   time            v(1)            v(2)            
--------------------------------------------------------------------------------
287	5.344000e-03	0.000000e+00	-3.62816e+00	
288	5.364000e-03	0.000000e+00	-3.55631e+00	
289	5.384000e-03	0.000000e+00	-3.48589e+00	
290	5.404000e-03	0.000000e+00	-3.41686e+00	
291	5.424000e-03	0.000000e+00	-3.34920e+00	
292	5.444000e-03	0.000000e+00	-3.28288e+00	
293	5.464000e-03	0.000000e+00	-3.21787e+00	
294	5.484000e-03	0.000000e+00	-3.15415e+00	
295	5.504000e-03	0.000000e+00	-3.09169e+00	
296	5.524000e-03	0.000000e+00	-3.03047e+00	
297	5.544000e-03	0.000000e+00	-2.97046e+00	
298	5.564000e-03	0.000000e+00	-2.91164e+00	
299	5.584000e-03	0.000000e+00	-2.85399e+00	
300	5.604000e-03	0.000000e+00	-2.79747e+00	
301	5.624000e-03	0.000000e+00	-2.74208e+00	
302	5.644000e-03	0.000000e+00	-2.68778e+00	
303	5.664000e-03	0.000000e+00	-2.63455e+00	
304	5.684000e-03	0.000000e+00	-2.58238e+00	
305	5.704000e-03	0.000000e+00	-2.53125e+00	
306	5.724000e-03	0.000000e+00	-2.48112e+00	
307	5.744000e-03	0.000000e+00	-2.43199e+00	
308	5.764000e-03	0.000000e+00	-2.38384e+00	
309	5.784000e-03	0.000000e+00	-2.33663e+00	
310	5.804000e-03	0.000000e+00	-2.29036e+00	
311	5.824000e-03	0.000000e+00	-2.24501e+00	
312	5.844000e-03	0.000000e+00	-2.20055e+00	
313	5.864000e-03	0.000000e+00	-2.15698e+00	
314	5.884000e-03	0.000000e+00	-2.11426e+00	
315	5.904000e-03	0.000000e+00	-2.07240e+00	
316	5.924000e-03	0.000000e+00	-2.03136e+00	
317	5.944000e-03	0.000000e+00	-1.99113e+00	
318	5.964000e-03	0.000000e+00	-1.95171e+00	
319	5.984000e-03	0.000000e+00	-1.91306e+00	
320	6.004000e-03	0.000000e+00	-1.87518e+00	
321	6.024000e-03	0.000000e+00	-1.83804e+00	
322	6.044000e-03	0.000000e+00	-1.80165e+00	
323	6.064000e-03	0.000000e+00	-1.76597e+00	
324	6.084000e-03	0.000000e+00	-1.73100e+00	
325	6.104000e-03	0.000000e+00	-1.69672e+00	
326	6.124000e-03	0.000000e+00	-1.66313e+00	
327	6.144000e-03	0.000000e+00	-1.63019e+00	
328	6.164000e-03	0.000000e+00	-1.59791e+00	
329	6.184000e-03	0.000000e+00	-1.56627e+00	
330	6.204000e-03	0.000000e+00	-1.53525e+00	
331	6.224000e-03	0.000000e+00	-1.50485e+00	
332	6.244000e-03	0.000000e+00	-1.47505e+00	
333	6.264000e-03	0.000000e+00	-1.44585e+00	
334	6.284000e-03	0.000000e+00	-1.41721e+00	
335	6.304000e-03	0.000000e+00	-1.38915e+00	
336	6.324000e-03	0.000000e+00	-1.36164e+00	
337	6.344000e-03	0.000000e+00	-1.33468e+00	
338	6.364000e-03	0.000000e+00	-1.30825e+00	
339	6.384000e-03	0.000000e+00	-1.28234e+00	
340	6.404000e-03	0.000000e+00	-1.25695e+00	
341	6.424000e-03	0.000000e+00	-1.23206e+00	
342	6.444000e-03	0.000000e+00	-1.20766e+00	
343	6.464000e-03	0.000000e+00	-1.18375e+00	
344	6.484000e-03	0.000000e+00	-1.16031e+00	

Index   time            v(1)            v(2)            
--------------------------------------------------------------------------------
345	6.504000e-03	0.000000e+00	-1.13733e+00	
346	6.524000e-03	0.000000e+00	-1.11481e+00	
347	6.544000e-03	0.000000e+00	-1.09274e+00	
348	6.564000e-03	0.000000e+00	-1.07110e+00	
349	6.584000e-03	0.000000e+00	-1.04989e+00	
350	6.604000e-03	0.000000e+00	-1.02910e+00	
351	6.624000e-03	0.000000e+00	-1.00872e+00	
352	6.644000e-03	0.000000e+00	-9.88745e-01	
353	6.664000e-03	0.000000e+00	-9.69166e-01	
354	6.684000e-03	0.000000e+00	-9.49975e-01	
355	6.704000e-03	0.000000e+00	-9.31163e-01	
356	6.724000e-03	0.000000e+00	-9.12724e-01	
357	6.744000e-03	0.000000e+00	-8.94651e-01	
358	6.764000e-03	0.000000e+00	-8.76935e-01	
359	6.784000e-03	0.000000e+00	-8.59570e-01	
360	6.804000e-03	0.000000e+00	-8.42549e-01	
361	6.824000e-03	0.000000e+00	-8.25864e-01	
362	6.844000e-03	0.000000e+00	-8.09511e-01	
363	6.864000e-03	0.000000e+00	-7.93481e-01	
364	6.884000e-03	0.000000e+00	-7.77768e-01	
365	6.904000e-03	0.000000e+00	-7.62367e-01	
366	6.924000e-03	0.000000e+00	-7.47271e-01	
367	6.944000e-03	0.000000e+00	-7.32473e-01	
368	6.964000e-03	0.000000e+00	-7.17969e-01	
369	6.984000e-03	0.000000e+00	-7.03752e-01	
370	7.004000e-03	0.000000e+00	-6.89816e-01	
371	7.024000e-03	0.000000e+00	-6.76156e-01	
372	7.044000e-03	0.000000e+00	-6.62767e-01	
373	7.064000e-03	0.000000e+00	-6.49643e-01	
374	7.084000e-03	0.000000e+00	-6.36779e-01	
375	7.104000e-03	0.000000e+00	-6.24169e-01	
376	7.124000e-03	0.000000e+00	-6.11809e-01	
377	7.144000e-03	0.000000e+00	-5.99694e-01	
378	7.164000e-03	0.000000e+00	-5.87819e-01	
379	7.184000e-03	0.000000e+00	-5.76179e-01	
380	7.204000e-03	0.000000e+00	-5.64770e-01	
381	7.224000e-03	0.000000e+00	-5.53586e-01	
382	7.244000e-03	0.000000e+00	-5.42624e-01	
383	7.264000e-03	0.000000e+00	-5.31879e-01	
384	7.284000e-03	0.000000e+00	-5.21347e-01	
385	7.304000e-03	0.000000e+00	-5.11023e-01	
386	7.324000e-03	0.000000e+00	-5.00904e-01	
387	7.344000e-03	0.000000e+00	-4.90985e-01	
388	7.364000e-03	0.000000e+00	-4.81262e-01	
389	7.384000e-03	0.000000e+00	-4.71732e-01	
390	7.404000e-03	0.000000e+00	-4.62391e-01	
391	7.424000e-03	0.000000e+00	-4.53235e-01	
392	7.444000e-03	0.000000e+00	-4.44260e-01	
393	7.464000e-03	0.000000e+00	-4.35463e-01	
394	7.484000e-03	0.000000e+00	-4.26840e-01	
395	7.504000e-03	0.000000e+00	-4.18387e-01	
396	7.524000e-03	0.000000e+00	-4.10103e-01	
397	7.544000e-03	0.000000e+00	-4.01982e-01	
398	7.564000e-03	0.000000e+00	-3.94022e-01	
399	7.584000e-03	0.000000e+00	-3.86219e-01	
400	7.604000e-03	0.000000e+00	-3.78571e-01	
401	7.624000e-03	0.000000e+00	-3.71075e-01	
402	7.644000e-03	0.000000e+00	-3.63727e-01	

Index   time            v(1)            v(2)            
--------------------------------------------------------------------------------
403	7.664000e-03	0.000000e+00	-3.56524e-01	
404	7.684000e-03	0.000000e+00	-3.49465e-01	
405	7.704000e-03	0.000000e+00	-3.42544e-01	
406	7.724000e-03	0.000000e+00	-3.35761e-01	
407	7.744000e-03	0.000000e+00	-3.29113e-01	
408	7.764000e-03	0.000000e+00	-3.22596e-01	
409	7.784000e-03	0.000000e+00	-3.16208e-01	
410	7.804000e-03	0.000000e+00	-3.09946e-01	
411	7.824000e-03	0.000000e+00	-3.03808e-01	
412	7.844000e-03	0.000000e+00	-2.97792e-01	
413	7.864000e-03	0.000000e+00	-2.91896e-01	
414	7.884000e-03	0.000000e+00	-2.86115e-01	
415	7.904000e-03	0.000000e+00	-2.80450e-01	
416	7.924000e-03	0.000000e+00	-2.74896e-01	
417	7.944000e-03	0.000000e+00	-2.69453e-01	
418	7.964000e-03	0.000000e+00	-2.64117e-01	
419	7.984000e-03	0.000000e+00	-2.58887e-01	
420	8.004000e-03	0.000000e+00	-2.53761e-01	
421	8.024000e-03	0.000000e+00	-2.48736e-01	
422	8.044000e-03	0.000000e+00	-2.43810e-01	
423	8.064000e-03	0.000000e+00	-2.38982e-01	
424	8.084000e-03	0.000000e+00	-2.34250e-01	
425	8.104000e-03	0.000000e+00	-2.29611e-01	
