
Circuit: rc differentiator

                               rc differentiator
                               Transient Analysis  Wed Jan 12 23:38:08  2022
--------------------------------------------------------------------------------
Index   time            v(1)            v(2)            
--------------------------------------------------------------------------------
0	0.000000e+00	0.000000e+00	0.000000e+00	
1	2.000000e-08	5.000000e-02	4.999900e-02	
2	2.168002e-08	5.420006e-02	5.419896e-02	
3	2.504007e-08	6.260017e-02	6.259888e-02	
4	3.176016e-08	7.940039e-02	7.939863e-02	
5	4.520034e-08	1.130008e-01	1.129978e-01	
6	7.208069e-08	1.802017e-01	1.801947e-01	
7	1.258414e-07	3.146035e-01	3.145832e-01	
8	2.333628e-07	5.834071e-01	5.833385e-01	
9	4.484057e-07	1.121014e+00	1.120762e+00	
10	8.784914e-07	2.196229e+00	2.195264e+00	
11	1.738663e-06	4.346657e+00	4.342880e+00	
12	2.000000e-06	5.000000e+00	4.995003e+00	
13	2.172034e-06	5.000000e+00	4.994144e+00	
14	2.516103e-06	5.000000e+00	4.992426e+00	
15	3.204240e-06	5.000000e+00	4.988991e+00	
16	4.580514e-06	5.000000e+00	4.982130e+00	
17	6.580514e-06	5.000000e+00	4.972176e+00	
18	8.580514e-06	5.000000e+00	4.962241e+00	
19	1.058051e-05	5.000000e+00	4.952327e+00	
20	1.258051e-05	5.000000e+00	4.942432e+00	
21	1.458051e-05	5.000000e+00	4.932557e+00	
22	1.658051e-05	5.000000e+00	4.922702e+00	
23	1.858051e-05	5.000000e+00	4.912866e+00	
24	2.058051e-05	5.000000e+00	4.903050e+00	
25	2.258051e-05	5.000000e+00	4.893254e+00	
26	2.458051e-05	5.000000e+00	4.883477e+00	
27	2.658051e-05	5.000000e+00	4.873720e+00	
28	2.858051e-05	5.000000e+00	4.863982e+00	
29	3.058051e-05	5.000000e+00	4.854264e+00	
30	3.258051e-05	5.000000e+00	4.844565e+00	
31	3.458051e-05	5.000000e+00	4.834886e+00	
32	3.658051e-05	5.000000e+00	4.825226e+00	
33	3.858051e-05	5.000000e+00	4.815585e+00	
34	4.058051e-05	5.000000e+00	4.805963e+00	
35	4.258051e-05	5.000000e+00	4.796361e+00	
36	4.458051e-05	5.000000e+00	4.786778e+00	
37	4.658051e-05	5.000000e+00	4.777214e+00	
38	4.858051e-05	5.000000e+00	4.767669e+00	
39	5.058051e-05	5.000000e+00	4.758143e+00	
40	5.258051e-05	5.000000e+00	4.748636e+00	
41	5.458051e-05	5.000000e+00	4.739149e+00	
42	5.658051e-05	5.000000e+00	4.729680e+00	
43	5.858051e-05	5.000000e+00	4.720230e+00	
44	6.058051e-05	5.000000e+00	4.710799e+00	
45	6.258051e-05	5.000000e+00	4.701387e+00	
46	6.458051e-05	5.000000e+00	4.691993e+00	
47	6.658051e-05	5.000000e+00	4.682619e+00	
48	6.858051e-05	5.000000e+00	4.673263e+00	
49	7.058051e-05	5.000000e+00	4.663926e+00	
50	7.258051e-05	5.000000e+00	4.654607e+00	
51	7.458051e-05	5.000000e+00	4.645307e+00	
52	7.658051e-05	5.000000e+00	4.636026e+00	
53	7.858051e-05	5.000000e+00	4.626763e+00	
54	8.058051e-05	5.000000e+00	4.617519e+00	

Index   time            v(1)            v(2)            
--------------------------------------------------------------------------------
55	8.258051e-05	5.000000e+00	4.608293e+00	
56	8.458051e-05	5.000000e+00	4.599086e+00	
57	8.658051e-05	5.000000e+00	4.589897e+00	
58	8.858051e-05	5.000000e+00	4.580726e+00	
59	9.058051e-05	5.000000e+00	4.571574e+00	
60	9.258051e-05	5.000000e+00	4.562440e+00	
61	9.458051e-05	5.000000e+00	4.553324e+00	
62	9.658051e-05	5.000000e+00	4.544226e+00	
63	9.858051e-05	5.000000e+00	4.535147e+00	
64	1.005805e-04	5.000000e+00	4.526086e+00	
65	1.020000e-04	5.000000e+00	4.519666e+00	
66	1.022000e-04	4.500000e+00	4.018862e+00	
67	1.026000e-04	3.500000e+00	3.017454e+00	
68	1.034000e-04	1.500000e+00	1.015841e+00	
69	1.040000e-04	0.000000e+00	-4.84318e-01	
70	1.041600e-04	0.000000e+00	-4.84241e-01	
71	1.044800e-04	0.000000e+00	-4.84086e-01	
72	1.051200e-04	0.000000e+00	-4.83776e-01	
73	1.064000e-04	0.000000e+00	-4.83157e-01	
74	1.084000e-04	0.000000e+00	-4.82192e-01	
75	1.104000e-04	0.000000e+00	-4.81229e-01	
76	1.124000e-04	0.000000e+00	-4.80267e-01	
77	1.144000e-04	0.000000e+00	-4.79307e-01	
78	1.164000e-04	0.000000e+00	-4.78350e-01	
79	1.184000e-04	0.000000e+00	-4.77394e-01	
80	1.204000e-04	0.000000e+00	-4.76440e-01	
81	1.224000e-04	0.000000e+00	-4.75488e-01	
82	1.244000e-04	0.000000e+00	-4.74538e-01	
83	1.264000e-04	0.000000e+00	-4.73590e-01	
84	1.284000e-04	0.000000e+00	-4.72644e-01	
85	1.304000e-04	0.000000e+00	-4.71700e-01	
86	1.324000e-04	0.000000e+00	-4.70757e-01	
87	1.344000e-04	0.000000e+00	-4.69817e-01	
88	1.364000e-04	0.000000e+00	-4.68878e-01	
89	1.384000e-04	0.000000e+00	-4.67941e-01	
90	1.404000e-04	0.000000e+00	-4.67006e-01	
91	1.424000e-04	0.000000e+00	-4.66073e-01	
92	1.444000e-04	0.000000e+00	-4.65142e-01	
93	1.464000e-04	0.000000e+00	-4.64212e-01	
94	1.484000e-04	0.000000e+00	-4.63285e-01	
95	1.504000e-04	0.000000e+00	-4.62359e-01	
96	1.524000e-04	0.000000e+00	-4.61436e-01	
97	1.544000e-04	0.000000e+00	-4.60514e-01	
98	1.564000e-04	0.000000e+00	-4.59593e-01	
99	1.584000e-04	0.000000e+00	-4.58675e-01	
100	1.604000e-04	0.000000e+00	-4.57759e-01	
101	1.624000e-04	0.000000e+00	-4.56844e-01	
102	1.644000e-04	0.000000e+00	-4.55931e-01	
103	1.664000e-04	0.000000e+00	-4.55020e-01	
104	1.684000e-04	0.000000e+00	-4.54111e-01	
105	1.704000e-04	0.000000e+00	-4.53204e-01	
106	1.724000e-04	0.000000e+00	-4.52298e-01	
107	1.744000e-04	0.000000e+00	-4.51395e-01	
108	1.764000e-04	0.000000e+00	-4.50493e-01	
109	1.784000e-04	0.000000e+00	-4.49593e-01	
110	1.804000e-04	0.000000e+00	-4.48695e-01	
111	1.824000e-04	0.000000e+00	-4.47798e-01	
112	1.844000e-04	0.000000e+00	-4.46903e-01	

Index   time            v(1)            v(2)            
--------------------------------------------------------------------------------
113	1.864000e-04	0.000000e+00	-4.46010e-01	
114	1.884000e-04	0.000000e+00	-4.45119e-01	
115	1.904000e-04	0.000000e+00	-4.44230e-01	
116	1.924000e-04	0.000000e+00	-4.43342e-01	
117	1.944000e-04	0.000000e+00	-4.42457e-01	
118	1.964000e-04	0.000000e+00	-4.41573e-01	
119	1.984000e-04	0.000000e+00	-4.40690e-01	
120	2.000000e-04	0.000000e+00	-4.39986e-01	
121	2.002000e-04	5.000000e-01	6.000227e-02	
122	2.006000e-04	1.500000e+00	1.059778e+00	
123	2.014000e-04	3.500000e+00	3.058131e+00	
124	2.020000e-04	5.000000e+00	4.555847e+00	
125	2.021600e-04	5.000000e+00	4.555118e+00	
126	2.024800e-04	5.000000e+00	4.553661e+00	
127	2.031200e-04	5.000000e+00	4.550747e+00	
128	2.044000e-04	5.000000e+00	4.544926e+00	
129	2.064000e-04	5.000000e+00	4.535845e+00	
130	2.084000e-04	5.000000e+00	4.526783e+00	
131	2.104000e-04	5.000000e+00	4.517738e+00	
132	2.124000e-04	5.000000e+00	4.508712e+00	
133	2.144000e-04	5.000000e+00	4.499703e+00	
134	2.164000e-04	5.000000e+00	4.490713e+00	
135	2.184000e-04	5.000000e+00	4.481740e+00	
136	2.204000e-04	5.000000e+00	4.472786e+00	
137	2.224000e-04	5.000000e+00	4.463849e+00	
138	2.244000e-04	5.000000e+00	4.454930e+00	
139	2.264000e-04	5.000000e+00	4.446030e+00	
140	2.284000e-04	5.000000e+00	4.437146e+00	
141	2.304000e-04	5.000000e+00	4.428281e+00	
142	2.324000e-04	5.000000e+00	4.419433e+00	
143	2.344000e-04	5.000000e+00	4.410603e+00	
144	2.364000e-04	5.000000e+00	4.401791e+00	
145	2.384000e-04	5.000000e+00	4.392996e+00	
146	2.404000e-04	5.000000e+00	4.384219e+00	
147	2.424000e-04	5.000000e+00	4.375459e+00	
148	2.444000e-04	5.000000e+00	4.366717e+00	
149	2.464000e-04	5.000000e+00	4.357992e+00	
150	2.484000e-04	5.000000e+00	4.349285e+00	
151	2.504000e-04	5.000000e+00	4.340595e+00	
152	2.524000e-04	5.000000e+00	4.331923e+00	
153	2.544000e-04	5.000000e+00	4.323267e+00	
154	2.564000e-04	5.000000e+00	4.314629e+00	
155	2.584000e-04	5.000000e+00	4.306009e+00	
156	2.604000e-04	5.000000e+00	4.297405e+00	
157	2.624000e-04	5.000000e+00	4.288819e+00	
158	2.644000e-04	5.000000e+00	4.280250e+00	
159	2.664000e-04	5.000000e+00	4.271698e+00	
160	2.684000e-04	5.000000e+00	4.263163e+00	
161	2.704000e-04	5.000000e+00	4.254645e+00	
162	2.724000e-04	5.000000e+00	4.246145e+00	
163	2.744000e-04	5.000000e+00	4.237661e+00	
164	2.764000e-04	5.000000e+00	4.229194e+00	
165	2.784000e-04	5.000000e+00	4.220744e+00	
166	2.804000e-04	5.000000e+00	4.212311e+00	
167	2.824000e-04	5.000000e+00	4.203895e+00	
168	2.844000e-04	5.000000e+00	4.195495e+00	
169	2.864000e-04	5.000000e+00	4.187113e+00	
170	2.884000e-04	5.000000e+00	4.178747e+00	

Index   time            v(1)            v(2)            
--------------------------------------------------------------------------------
171	2.904000e-04	5.000000e+00	4.170398e+00	
172	2.924000e-04	5.000000e+00	4.162065e+00	
173	2.944000e-04	5.000000e+00	4.153750e+00	
174	2.964000e-04	5.000000e+00	4.145450e+00	
175	2.984000e-04	5.000000e+00	4.137168e+00	
176	3.004000e-04	5.000000e+00	4.128902e+00	
177	3.020000e-04	5.000000e+00	4.122301e+00	
178	3.022000e-04	4.500000e+00	3.621576e+00	
179	3.026000e-04	3.500000e+00	2.620328e+00	
180	3.034000e-04	1.500000e+00	6.190323e-01	
181	3.040000e-04	0.000000e+00	-8.80889e-01	
182	3.041600e-04	0.000000e+00	-8.80748e-01	
183	3.044800e-04	0.000000e+00	-8.80466e-01	
184	3.051200e-04	0.000000e+00	-8.79903e-01	
185	3.064000e-04	0.000000e+00	-8.78778e-01	
186	3.084000e-04	0.000000e+00	-8.77022e-01	
187	3.104000e-04	0.000000e+00	-8.75269e-01	
188	3.124000e-04	0.000000e+00	-8.73521e-01	
189	3.144000e-04	0.000000e+00	-8.71775e-01	
190	3.164000e-04	0.000000e+00	-8.70034e-01	
191	3.184000e-04	0.000000e+00	-8.68295e-01	
192	3.204000e-04	0.000000e+00	-8.66560e-01	
193	3.224000e-04	0.000000e+00	-8.64829e-01	
194	3.244000e-04	0.000000e+00	-8.63101e-01	
195	3.264000e-04	0.000000e+00	-8.61377e-01	
196	3.284000e-04	0.000000e+00	-8.59656e-01	
197	3.304000e-04	0.000000e+00	-8.57938e-01	
198	3.324000e-04	0.000000e+00	-8.56224e-01	
199	3.344000e-04	0.000000e+00	-8.54513e-01	
200	3.364000e-04	0.000000e+00	-8.52806e-01	
201	3.384000e-04	0.000000e+00	-8.51102e-01	
202	3.404000e-04	0.000000e+00	-8.49401e-01	
203	3.424000e-04	0.000000e+00	-8.47704e-01	
204	3.444000e-04	0.000000e+00	-8.46011e-01	
205	3.464000e-04	0.000000e+00	-8.44320e-01	
206	3.484000e-04	0.000000e+00	-8.42633e-01	
207	3.504000e-04	0.000000e+00	-8.40950e-01	
208	3.524000e-04	0.000000e+00	-8.39269e-01	
209	3.544000e-04	0.000000e+00	-8.37593e-01	
210	3.564000e-04	0.000000e+00	-8.35919e-01	
211	3.584000e-04	0.000000e+00	-8.34249e-01	
212	3.604000e-04	0.000000e+00	-8.32582e-01	
213	3.624000e-04	0.000000e+00	-8.30919e-01	
214	3.644000e-04	0.000000e+00	-8.29258e-01	
215	3.664000e-04	0.000000e+00	-8.27602e-01	
216	3.684000e-04	0.000000e+00	-8.25948e-01	
217	3.704000e-04	0.000000e+00	-8.24298e-01	
218	3.724000e-04	0.000000e+00	-8.22651e-01	
219	3.744000e-04	0.000000e+00	-8.21007e-01	
220	3.764000e-04	0.000000e+00	-8.19367e-01	
221	3.784000e-04	0.000000e+00	-8.17730e-01	
222	3.804000e-04	0.000000e+00	-8.16096e-01	
223	3.824000e-04	0.000000e+00	-8.14465e-01	
224	3.844000e-04	0.000000e+00	-8.12838e-01	
225	3.864000e-04	0.000000e+00	-8.11214e-01	
226	3.884000e-04	0.000000e+00	-8.09593e-01	
227	3.904000e-04	0.000000e+00	-8.07976e-01	
228	3.924000e-04	0.000000e+00	-8.06361e-01	

Index   time            v(1)            v(2)            
--------------------------------------------------------------------------------
229	3.944000e-04	0.000000e+00	-8.04750e-01	
230	3.964000e-04	0.000000e+00	-8.03142e-01	
231	3.984000e-04	0.000000e+00	-8.01538e-01	
232	4.000000e-04	0.000000e+00	-8.00256e-01	
233	4.002000e-04	5.000000e-01	-3.00196e-01	
234	4.006000e-04	1.500000e+00	6.997240e-01	
235	4.014000e-04	3.500000e+00	2.698365e+00	
236	4.020000e-04	5.000000e+00	4.196296e+00	
237	4.021600e-04	5.000000e+00	4.195625e+00	
238	4.024800e-04	5.000000e+00	4.194283e+00	
239	4.031200e-04	5.000000e+00	4.191599e+00	
240	4.044000e-04	5.000000e+00	4.186237e+00	
241	4.064000e-04	5.000000e+00	4.177873e+00	
242	4.084000e-04	5.000000e+00	4.169526e+00	
243	4.104000e-04	5.000000e+00	4.161195e+00	
244	4.124000e-04	5.000000e+00	4.152881e+00	
245	4.144000e-04	5.000000e+00	4.144584e+00	
246	4.164000e-04	5.000000e+00	4.136303e+00	
247	4.184000e-04	5.000000e+00	4.128038e+00	
248	4.204000e-04	5.000000e+00	4.119791e+00	
249	4.224000e-04	5.000000e+00	4.111559e+00	
250	4.244000e-04	5.000000e+00	4.103344e+00	
251	4.264000e-04	5.000000e+00	4.095146e+00	
252	4.284000e-04	5.000000e+00	4.086964e+00	
253	4.304000e-04	5.000000e+00	4.078798e+00	
254	4.324000e-04	5.000000e+00	4.070649e+00	
255	4.344000e-04	5.000000e+00	4.062515e+00	
256	4.364000e-04	5.000000e+00	4.054398e+00	
257	4.384000e-04	5.000000e+00	4.046298e+00	
258	4.404000e-04	5.000000e+00	4.038213e+00	
259	4.424000e-04	5.000000e+00	4.030145e+00	
260	4.444000e-04	5.000000e+00	4.022093e+00	
261	4.464000e-04	5.000000e+00	4.014057e+00	
262	4.484000e-04	5.000000e+00	4.006036e+00	
263	4.504000e-04	5.000000e+00	3.998032e+00	
264	4.524000e-04	5.000000e+00	3.990044e+00	
265	4.544000e-04	5.000000e+00	3.982072e+00	
266	4.564000e-04	5.000000e+00	3.974116e+00	
267	4.584000e-04	5.000000e+00	3.966176e+00	
268	4.604000e-04	5.000000e+00	3.958251e+00	
269	4.624000e-04	5.000000e+00	3.950343e+00	
270	4.644000e-04	5.000000e+00	3.942450e+00	
271	4.664000e-04	5.000000e+00	3.934573e+00	
272	4.684000e-04	5.000000e+00	3.926712e+00	
273	4.704000e-04	5.000000e+00	3.918866e+00	
274	4.724000e-04	5.000000e+00	3.911036e+00	
275	4.744000e-04	5.000000e+00	3.903222e+00	
276	4.764000e-04	5.000000e+00	3.895423e+00	
277	4.784000e-04	5.000000e+00	3.887640e+00	
278	4.804000e-04	5.000000e+00	3.879873e+00	
279	4.824000e-04	5.000000e+00	3.872121e+00	
280	4.844000e-04	5.000000e+00	3.864384e+00	
281	4.864000e-04	5.000000e+00	3.856663e+00	
282	4.884000e-04	5.000000e+00	3.848957e+00	
283	4.904000e-04	5.000000e+00	3.841267e+00	
284	4.924000e-04	5.000000e+00	3.833592e+00	
285	4.944000e-04	5.000000e+00	3.825933e+00	
286	4.964000e-04	5.000000e+00	3.818289e+00	

Index   time            v(1)            v(2)            
--------------------------------------------------------------------------------
287	4.984000e-04	5.000000e+00	3.810660e+00	
288	5.004000e-04	5.000000e+00	3.803046e+00	
289	5.020000e-04	5.000000e+00	3.796966e+00	
290	5.022000e-04	4.500000e+00	3.296307e+00	
291	5.026000e-04	3.500000e+00	2.295188e+00	
292	5.034000e-04	1.500000e+00	2.941526e-01	
293	5.040000e-04	0.000000e+00	-1.20557e+00	
294	5.041600e-04	0.000000e+00	-1.20538e+00	
295	5.044800e-04	0.000000e+00	-1.20500e+00	
296	5.051200e-04	0.000000e+00	-1.20422e+00	
297	5.064000e-04	0.000000e+00	-1.20268e+00	
298	5.084000e-04	0.000000e+00	-1.20028e+00	
299	5.104000e-04	0.000000e+00	-1.19788e+00	
300	5.124000e-04	0.000000e+00	-1.19549e+00	
301	5.144000e-04	0.000000e+00	-1.19310e+00	
302	5.164000e-04	0.000000e+00	-1.19072e+00	
303	5.184000e-04	0.000000e+00	-1.18834e+00	
304	5.204000e-04	0.000000e+00	-1.18596e+00	
305	5.224000e-04	0.000000e+00	-1.18359e+00	
306	5.244000e-04	0.000000e+00	-1.18123e+00	
307	5.264000e-04	0.000000e+00	-1.17887e+00	
308	5.284000e-04	0.000000e+00	-1.17651e+00	
309	5.304000e-04	0.000000e+00	-1.17416e+00	
310	5.324000e-04	0.000000e+00	-1.17182e+00	
311	5.344000e-04	0.000000e+00	-1.16948e+00	
312	5.364000e-04	0.000000e+00	-1.16714e+00	
313	5.384000e-04	0.000000e+00	-1.16481e+00	
314	5.404000e-04	0.000000e+00	-1.16248e+00	
315	5.424000e-04	0.000000e+00	-1.16016e+00	
316	5.444000e-04	0.000000e+00	-1.15784e+00	
317	5.464000e-04	0.000000e+00	-1.15553e+00	
318	5.484000e-04	0.000000e+00	-1.15322e+00	
319	5.504000e-04	0.000000e+00	-1.15091e+00	
320	5.524000e-04	0.000000e+00	-1.14861e+00	
321	5.544000e-04	0.000000e+00	-1.14632e+00	
322	5.564000e-04	0.000000e+00	-1.14403e+00	
323	5.584000e-04	0.000000e+00	-1.14174e+00	
324	5.604000e-04	0.000000e+00	-1.13946e+00	
325	5.624000e-04	0.000000e+00	-1.13718e+00	
326	5.644000e-04	0.000000e+00	-1.13491e+00	
327	5.664000e-04	0.000000e+00	-1.13265e+00	
328	5.684000e-04	0.000000e+00	-1.13038e+00	
329	5.704000e-04	0.000000e+00	-1.12812e+00	
330	5.724000e-04	0.000000e+00	-1.12587e+00	
331	5.744000e-04	0.000000e+00	-1.12362e+00	
332	5.764000e-04	0.000000e+00	-1.12138e+00	
333	5.784000e-04	0.000000e+00	-1.11913e+00	
334	5.804000e-04	0.000000e+00	-1.11690e+00	
335	5.824000e-04	0.000000e+00	-1.11467e+00	
336	5.844000e-04	0.000000e+00	-1.11244e+00	
337	5.864000e-04	0.000000e+00	-1.11022e+00	
338	5.884000e-04	0.000000e+00	-1.10800e+00	
339	5.904000e-04	0.000000e+00	-1.10579e+00	
340	5.924000e-04	0.000000e+00	-1.10358e+00	
341	5.944000e-04	0.000000e+00	-1.10137e+00	
342	5.964000e-04	0.000000e+00	-1.09917e+00	
343	5.984000e-04	0.000000e+00	-1.09697e+00	
344	6.000000e-04	0.000000e+00	-1.09522e+00	
