
Circuit: rc differentiator

                               rc differentiator
                               Transient Analysis  Wed Jan 12 23:41:34  2022
--------------------------------------------------------------------------------
Index   time            v(1)            v(2)            
--------------------------------------------------------------------------------
0	0.000000e+00	0.000000e+00	0.000000e+00	
1	2.000000e-07	5.000000e-02	4.999000e-02	
2	2.168022e-07	5.420056e-02	5.418965e-02	
3	2.504067e-07	6.260168e-02	6.258881e-02	
4	3.176157e-07	7.940392e-02	7.938628e-02	
5	4.520336e-07	1.130084e-01	1.129778e-01	
6	7.208694e-07	1.802174e-01	1.801474e-01	
7	1.258541e-06	3.146353e-01	3.144323e-01	
8	2.333884e-06	5.834711e-01	5.827858e-01	
9	4.484571e-06	1.121143e+00	1.118628e+00	
10	8.785945e-06	2.196486e+00	2.186862e+00	
11	1.738869e-05	4.347173e+00	4.309605e+00	
12	2.000000e-05	5.000000e+00	4.950342e+00	
13	2.172055e-05	5.000000e+00	4.941839e+00	
14	2.516165e-05	5.000000e+00	4.924863e+00	
15	3.204385e-05	5.000000e+00	4.891085e+00	
16	4.580824e-05	5.000000e+00	4.824223e+00	
17	6.580824e-05	5.000000e+00	4.728694e+00	
18	8.580824e-05	5.000000e+00	4.635056e+00	
19	1.058082e-04	5.000000e+00	4.543273e+00	
20	1.258082e-04	5.000000e+00	4.453307e+00	
21	1.458082e-04	5.000000e+00	4.365123e+00	
22	1.658082e-04	5.000000e+00	4.278685e+00	
23	1.858082e-04	5.000000e+00	4.193958e+00	
24	2.058082e-04	5.000000e+00	4.110910e+00	
25	2.258082e-04	5.000000e+00	4.029505e+00	
26	2.458082e-04	5.000000e+00	3.949713e+00	
27	2.658082e-04	5.000000e+00	3.871501e+00	
28	2.858082e-04	5.000000e+00	3.794838e+00	
29	3.058082e-04	5.000000e+00	3.719692e+00	
30	3.258082e-04	5.000000e+00	3.646035e+00	
31	3.458082e-04	5.000000e+00	3.573836e+00	
32	3.658082e-04	5.000000e+00	3.503067e+00	
33	3.858082e-04	5.000000e+00	3.433700e+00	
34	4.058082e-04	5.000000e+00	3.365706e+00	
35	4.258082e-04	5.000000e+00	3.299058e+00	
36	4.458082e-04	5.000000e+00	3.233730e+00	
37	4.658082e-04	5.000000e+00	3.169696e+00	
38	4.858082e-04	5.000000e+00	3.106930e+00	
39	5.058082e-04	5.000000e+00	3.045406e+00	
40	5.258082e-04	5.000000e+00	2.985101e+00	
41	5.458082e-04	5.000000e+00	2.925990e+00	
42	5.658082e-04	5.000000e+00	2.868050e+00	
43	5.858082e-04	5.000000e+00	2.811257e+00	
44	6.058082e-04	5.000000e+00	2.755588e+00	
45	6.258082e-04	5.000000e+00	2.701022e+00	
46	6.458082e-04	5.000000e+00	2.647537e+00	
47	6.658082e-04	5.000000e+00	2.595110e+00	
48	6.858082e-04	5.000000e+00	2.543722e+00	
49	7.058082e-04	5.000000e+00	2.493351e+00	
50	7.258082e-04	5.000000e+00	2.443978e+00	
51	7.458082e-04	5.000000e+00	2.395582e+00	
52	7.658082e-04	5.000000e+00	2.348145e+00	
53	7.858082e-04	5.000000e+00	2.301647e+00	
54	8.058082e-04	5.000000e+00	2.256070e+00	

Index   time            v(1)            v(2)            
--------------------------------------------------------------------------------
55	8.258082e-04	5.000000e+00	2.211395e+00	
56	8.458082e-04	5.000000e+00	2.167605e+00	
57	8.658082e-04	5.000000e+00	2.124682e+00	
58	8.858082e-04	5.000000e+00	2.082609e+00	
59	9.058082e-04	5.000000e+00	2.041370e+00	
60	9.258082e-04	5.000000e+00	2.000946e+00	
61	9.458082e-04	5.000000e+00	1.961324e+00	
62	9.658082e-04	5.000000e+00	1.922486e+00	
63	9.858082e-04	5.000000e+00	1.884417e+00	
64	1.005808e-03	5.000000e+00	1.847101e+00	
65	1.020000e-03	5.000000e+00	1.821073e+00	
66	1.022000e-03	4.500000e+00	1.318436e+00	
67	1.026000e-03	3.500000e+00	3.151685e-01	
68	1.034000e-03	1.500000e+00	-1.67937e+00	
69	1.040000e-03	0.000000e+00	-3.16484e+00	
70	1.041600e-03	0.000000e+00	-3.15979e+00	
71	1.044800e-03	0.000000e+00	-3.14969e+00	
72	1.051200e-03	0.000000e+00	-3.12960e+00	
73	1.064000e-03	0.000000e+00	-3.08979e+00	
74	1.084000e-03	0.000000e+00	-3.02861e+00	
75	1.104000e-03	0.000000e+00	-2.96864e+00	
76	1.124000e-03	0.000000e+00	-2.90985e+00	
77	1.144000e-03	0.000000e+00	-2.85223e+00	
78	1.164000e-03	0.000000e+00	-2.79575e+00	
79	1.184000e-03	0.000000e+00	-2.74039e+00	
80	1.204000e-03	0.000000e+00	-2.68612e+00	
81	1.224000e-03	0.000000e+00	-2.63293e+00	
82	1.244000e-03	0.000000e+00	-2.58080e+00	
83	1.264000e-03	0.000000e+00	-2.52969e+00	
84	1.284000e-03	0.000000e+00	-2.47960e+00	
85	1.304000e-03	0.000000e+00	-2.43050e+00	
86	1.324000e-03	0.000000e+00	-2.38237e+00	
87	1.344000e-03	0.000000e+00	-2.33519e+00	
88	1.364000e-03	0.000000e+00	-2.28895e+00	
89	1.384000e-03	0.000000e+00	-2.24363e+00	
90	1.404000e-03	0.000000e+00	-2.19920e+00	
91	1.424000e-03	0.000000e+00	-2.15565e+00	
92	1.444000e-03	0.000000e+00	-2.11296e+00	
93	1.464000e-03	0.000000e+00	-2.07112e+00	
94	1.484000e-03	0.000000e+00	-2.03011e+00	
95	1.504000e-03	0.000000e+00	-1.98991e+00	
96	1.524000e-03	0.000000e+00	-1.95051e+00	
97	1.544000e-03	0.000000e+00	-1.91188e+00	
98	1.564000e-03	0.000000e+00	-1.87402e+00	
99	1.584000e-03	0.000000e+00	-1.83691e+00	
100	1.604000e-03	0.000000e+00	-1.80054e+00	
101	1.624000e-03	0.000000e+00	-1.76489e+00	
102	1.644000e-03	0.000000e+00	-1.72994e+00	
103	1.664000e-03	0.000000e+00	-1.69568e+00	
104	1.684000e-03	0.000000e+00	-1.66210e+00	
105	1.704000e-03	0.000000e+00	-1.62919e+00	
106	1.724000e-03	0.000000e+00	-1.59693e+00	
107	1.744000e-03	0.000000e+00	-1.56531e+00	
108	1.764000e-03	0.000000e+00	-1.53431e+00	
109	1.784000e-03	0.000000e+00	-1.50393e+00	
110	1.804000e-03	0.000000e+00	-1.47415e+00	
111	1.824000e-03	0.000000e+00	-1.44496e+00	
112	1.844000e-03	0.000000e+00	-1.41634e+00	

Index   time            v(1)            v(2)            
--------------------------------------------------------------------------------
113	1.864000e-03	0.000000e+00	-1.38830e+00	
114	1.884000e-03	0.000000e+00	-1.36081e+00	
115	1.904000e-03	0.000000e+00	-1.33386e+00	
116	1.924000e-03	0.000000e+00	-1.30745e+00	
117	1.944000e-03	0.000000e+00	-1.28156e+00	
118	1.964000e-03	0.000000e+00	-1.25618e+00	
119	1.984000e-03	0.000000e+00	-1.23130e+00	
120	2.000000e-03	0.000000e+00	-1.21176e+00	
121	2.002000e-03	5.000000e-01	-7.10339e-01	
122	2.006000e-03	1.500000e+00	2.905011e-01	
123	2.014000e-03	3.500000e+00	2.280218e+00	
124	2.020000e-03	5.000000e+00	3.762091e+00	
125	2.021600e-03	5.000000e+00	3.756082e+00	
126	2.024800e-03	5.000000e+00	3.744081e+00	
127	2.031200e-03	5.000000e+00	3.720196e+00	
128	2.044000e-03	5.000000e+00	3.672880e+00	
129	2.064000e-03	5.000000e+00	3.600150e+00	
130	2.084000e-03	5.000000e+00	3.528860e+00	
131	2.104000e-03	5.000000e+00	3.458981e+00	
132	2.124000e-03	5.000000e+00	3.390486e+00	
133	2.144000e-03	5.000000e+00	3.323348e+00	
134	2.164000e-03	5.000000e+00	3.257539e+00	
135	2.184000e-03	5.000000e+00	3.193034e+00	
136	2.204000e-03	5.000000e+00	3.129805e+00	
137	2.224000e-03	5.000000e+00	3.067829e+00	
138	2.244000e-03	5.000000e+00	3.007080e+00	
139	2.264000e-03	5.000000e+00	2.947534e+00	
140	2.284000e-03	5.000000e+00	2.889167e+00	
141	2.304000e-03	5.000000e+00	2.831955e+00	
142	2.324000e-03	5.000000e+00	2.775877e+00	
143	2.344000e-03	5.000000e+00	2.720909e+00	
144	2.364000e-03	5.000000e+00	2.667030e+00	
145	2.384000e-03	5.000000e+00	2.614217e+00	
146	2.404000e-03	5.000000e+00	2.562451e+00	
147	2.424000e-03	5.000000e+00	2.511709e+00	
148	2.444000e-03	5.000000e+00	2.461972e+00	
149	2.464000e-03	5.000000e+00	2.413220e+00	
150	2.484000e-03	5.000000e+00	2.365434e+00	
151	2.504000e-03	5.000000e+00	2.318593e+00	
152	2.524000e-03	5.000000e+00	2.272681e+00	
153	2.544000e-03	5.000000e+00	2.227677e+00	
154	2.564000e-03	5.000000e+00	2.183565e+00	
155	2.584000e-03	5.000000e+00	2.140326e+00	
156	2.604000e-03	5.000000e+00	2.097943e+00	
157	2.624000e-03	5.000000e+00	2.056400e+00	
158	2.644000e-03	5.000000e+00	2.015679e+00	
159	2.664000e-03	5.000000e+00	1.975765e+00	
160	2.684000e-03	5.000000e+00	1.936640e+00	
161	2.704000e-03	5.000000e+00	1.898291e+00	
162	2.724000e-03	5.000000e+00	1.860701e+00	
163	2.744000e-03	5.000000e+00	1.823856e+00	
164	2.764000e-03	5.000000e+00	1.787740e+00	
165	2.784000e-03	5.000000e+00	1.752339e+00	
166	2.804000e-03	5.000000e+00	1.717639e+00	
167	2.824000e-03	5.000000e+00	1.683626e+00	
168	2.844000e-03	5.000000e+00	1.650287e+00	
169	2.864000e-03	5.000000e+00	1.617608e+00	
170	2.884000e-03	5.000000e+00	1.585577e+00	

Index   time            v(1)            v(2)            
--------------------------------------------------------------------------------
171	2.904000e-03	5.000000e+00	1.554179e+00	
172	2.924000e-03	5.000000e+00	1.523403e+00	
173	2.944000e-03	5.000000e+00	1.493237e+00	
174	2.964000e-03	5.000000e+00	1.463668e+00	
175	2.984000e-03	5.000000e+00	1.434684e+00	
176	3.004000e-03	5.000000e+00	1.406275e+00	
177	3.020000e-03	5.000000e+00	1.383953e+00	
178	3.022000e-03	4.500000e+00	8.821884e-01	
179	3.026000e-03	3.500000e+00	-1.19337e-01	
180	3.034000e-03	1.500000e+00	-2.11042e+00	
181	3.040000e-03	0.000000e+00	-3.59331e+00	
182	3.041600e-03	0.000000e+00	-3.58757e+00	
183	3.044800e-03	0.000000e+00	-3.57611e+00	
184	3.051200e-03	0.000000e+00	-3.55329e+00	
185	3.064000e-03	0.000000e+00	-3.50810e+00	
186	3.084000e-03	0.000000e+00	-3.43863e+00	
187	3.104000e-03	0.000000e+00	-3.37054e+00	
188	3.124000e-03	0.000000e+00	-3.30380e+00	
189	3.144000e-03	0.000000e+00	-3.23837e+00	
190	3.164000e-03	0.000000e+00	-3.17425e+00	
191	3.184000e-03	0.000000e+00	-3.11139e+00	
192	3.204000e-03	0.000000e+00	-3.04978e+00	
193	3.224000e-03	0.000000e+00	-2.98939e+00	
194	3.244000e-03	0.000000e+00	-2.93019e+00	
195	3.264000e-03	0.000000e+00	-2.87217e+00	
196	3.284000e-03	0.000000e+00	-2.81529e+00	
197	3.304000e-03	0.000000e+00	-2.75955e+00	
198	3.324000e-03	0.000000e+00	-2.70490e+00	
199	3.344000e-03	0.000000e+00	-2.65134e+00	
200	3.364000e-03	0.000000e+00	-2.59884e+00	
201	3.384000e-03	0.000000e+00	-2.54737e+00	
202	3.404000e-03	0.000000e+00	-2.49693e+00	
203	3.424000e-03	0.000000e+00	-2.44749e+00	
204	3.444000e-03	0.000000e+00	-2.39902e+00	
205	3.464000e-03	0.000000e+00	-2.35152e+00	
206	3.484000e-03	0.000000e+00	-2.30495e+00	
207	3.504000e-03	0.000000e+00	-2.25931e+00	
208	3.524000e-03	0.000000e+00	-2.21457e+00	
209	3.544000e-03	0.000000e+00	-2.17072e+00	
210	3.564000e-03	0.000000e+00	-2.12773e+00	
211	3.584000e-03	0.000000e+00	-2.08560e+00	
212	3.604000e-03	0.000000e+00	-2.04430e+00	
213	3.624000e-03	0.000000e+00	-2.00382e+00	
214	3.644000e-03	0.000000e+00	-1.96414e+00	
215	3.664000e-03	0.000000e+00	-1.92525e+00	
216	3.684000e-03	0.000000e+00	-1.88712e+00	
217	3.704000e-03	0.000000e+00	-1.84975e+00	
218	3.724000e-03	0.000000e+00	-1.81313e+00	
219	3.744000e-03	0.000000e+00	-1.77722e+00	
220	3.764000e-03	0.000000e+00	-1.74203e+00	
221	3.784000e-03	0.000000e+00	-1.70753e+00	
222	3.804000e-03	0.000000e+00	-1.67372e+00	
223	3.824000e-03	0.000000e+00	-1.64058e+00	
224	3.844000e-03	0.000000e+00	-1.60809e+00	
225	3.864000e-03	0.000000e+00	-1.57625e+00	
226	3.884000e-03	0.000000e+00	-1.54504e+00	
227	3.904000e-03	0.000000e+00	-1.51444e+00	
228	3.924000e-03	0.000000e+00	-1.48445e+00	

Index   time            v(1)            v(2)            
--------------------------------------------------------------------------------
229	3.944000e-03	0.000000e+00	-1.45506e+00	
230	3.964000e-03	0.000000e+00	-1.42624e+00	
231	3.984000e-03	0.000000e+00	-1.39800e+00	
232	4.000000e-03	0.000000e+00	-1.37581e+00	
233	4.002000e-03	5.000000e-01	-8.74062e-01	
234	4.006000e-03	1.500000e+00	1.274308e-01	
235	4.014000e-03	3.500000e+00	2.118447e+00	
236	4.020000e-03	5.000000e+00	3.601288e+00	
237	4.021600e-03	5.000000e+00	3.595535e+00	
238	4.024800e-03	5.000000e+00	3.584048e+00	
239	4.031200e-03	5.000000e+00	3.561183e+00	
240	4.044000e-03	5.000000e+00	3.515890e+00	
241	4.064000e-03	5.000000e+00	3.446268e+00	
242	4.084000e-03	5.000000e+00	3.378025e+00	
243	4.104000e-03	5.000000e+00	3.311134e+00	
244	4.124000e-03	5.000000e+00	3.245567e+00	
245	4.144000e-03	5.000000e+00	3.181298e+00	
246	4.164000e-03	5.000000e+00	3.118302e+00	
247	4.184000e-03	5.000000e+00	3.056554e+00	
248	4.204000e-03	5.000000e+00	2.996028e+00	
249	4.224000e-03	5.000000e+00	2.936701e+00	
250	4.244000e-03	5.000000e+00	2.878548e+00	
251	4.264000e-03	5.000000e+00	2.821547e+00	
252	4.284000e-03	5.000000e+00	2.765675e+00	
253	4.304000e-03	5.000000e+00	2.710909e+00	
254	4.324000e-03	5.000000e+00	2.657228e+00	
255	4.344000e-03	5.000000e+00	2.604609e+00	
256	4.364000e-03	5.000000e+00	2.553033e+00	
257	4.384000e-03	5.000000e+00	2.502478e+00	
258	4.404000e-03	5.000000e+00	2.452924e+00	
259	4.424000e-03	5.000000e+00	2.404351e+00	
260	4.444000e-03	5.000000e+00	2.356740e+00	
261	4.464000e-03	5.000000e+00	2.310072e+00	
262	4.484000e-03	5.000000e+00	2.264328e+00	
263	4.504000e-03	5.000000e+00	2.219490e+00	
264	4.524000e-03	5.000000e+00	2.175539e+00	
265	4.544000e-03	5.000000e+00	2.132459e+00	
266	4.564000e-03	5.000000e+00	2.090233e+00	
267	4.584000e-03	5.000000e+00	2.048842e+00	
268	4.604000e-03	5.000000e+00	2.008271e+00	
269	4.624000e-03	5.000000e+00	1.968503e+00	
270	4.644000e-03	5.000000e+00	1.929523e+00	
271	4.664000e-03	5.000000e+00	1.891314e+00	
272	4.684000e-03	5.000000e+00	1.853863e+00	
273	4.704000e-03	5.000000e+00	1.817152e+00	
274	4.724000e-03	5.000000e+00	1.781169e+00	
275	4.744000e-03	5.000000e+00	1.745899e+00	
276	4.764000e-03	5.000000e+00	1.711326e+00	
277	4.784000e-03	5.000000e+00	1.677439e+00	
278	4.804000e-03	5.000000e+00	1.644222e+00	
279	4.824000e-03	5.000000e+00	1.611663e+00	
280	4.844000e-03	5.000000e+00	1.579749e+00	
281	4.864000e-03	5.000000e+00	1.548467e+00	
282	4.884000e-03	5.000000e+00	1.517804e+00	
283	4.904000e-03	5.000000e+00	1.487749e+00	
284	4.924000e-03	5.000000e+00	1.458288e+00	
285	4.944000e-03	5.000000e+00	1.429411e+00	
286	4.964000e-03	5.000000e+00	1.401106e+00	

Index   time            v(1)            v(2)            
--------------------------------------------------------------------------------
287	4.984000e-03	5.000000e+00	1.373361e+00	
288	5.004000e-03	5.000000e+00	1.346166e+00	
289	5.020000e-03	5.000000e+00	1.324798e+00	
290	5.022000e-03	4.500000e+00	8.231521e-01	
291	5.026000e-03	3.500000e+00	-1.78138e-01	
292	5.034000e-03	1.500000e+00	-2.16875e+00	
293	5.040000e-03	0.000000e+00	-3.65129e+00	
294	5.041600e-03	0.000000e+00	-3.64546e+00	
295	5.044800e-03	0.000000e+00	-3.63381e+00	
296	5.051200e-03	0.000000e+00	-3.61063e+00	
297	5.064000e-03	0.000000e+00	-3.56471e+00	
298	5.084000e-03	0.000000e+00	-3.49412e+00	
299	5.104000e-03	0.000000e+00	-3.42493e+00	
300	5.124000e-03	0.000000e+00	-3.35711e+00	
301	5.144000e-03	0.000000e+00	-3.29063e+00	
302	5.164000e-03	0.000000e+00	-3.22547e+00	
303	5.184000e-03	0.000000e+00	-3.16160e+00	
304	5.204000e-03	0.000000e+00	-3.09899e+00	
305	5.224000e-03	0.000000e+00	-3.03763e+00	
306	5.244000e-03	0.000000e+00	-2.97748e+00	
307	5.264000e-03	0.000000e+00	-2.91852e+00	
308	5.284000e-03	0.000000e+00	-2.86072e+00	
309	5.304000e-03	0.000000e+00	-2.80407e+00	
310	5.324000e-03	0.000000e+00	-2.74855e+00	
311	5.344000e-03	0.000000e+00	-2.69412e+00	
312	5.364000e-03	0.000000e+00	-2.64077e+00	
313	5.384000e-03	0.000000e+00	-2.58848e+00	
314	5.404000e-03	0.000000e+00	-2.53722e+00	
315	5.424000e-03	0.000000e+00	-2.48698e+00	
316	5.444000e-03	0.000000e+00	-2.43773e+00	
317	5.464000e-03	0.000000e+00	-2.38946e+00	
318	5.484000e-03	0.000000e+00	-2.34215e+00	
319	5.504000e-03	0.000000e+00	-2.29577e+00	
320	5.524000e-03	0.000000e+00	-2.25031e+00	
321	5.544000e-03	0.000000e+00	-2.20575e+00	
322	5.564000e-03	0.000000e+00	-2.16207e+00	
323	5.584000e-03	0.000000e+00	-2.11925e+00	
324	5.604000e-03	0.000000e+00	-2.07729e+00	
325	5.624000e-03	0.000000e+00	-2.03615e+00	
326	5.644000e-03	0.000000e+00	-1.99583e+00	
327	5.664000e-03	0.000000e+00	-1.95631e+00	
328	5.684000e-03	0.000000e+00	-1.91757e+00	
329	5.704000e-03	0.000000e+00	-1.87960e+00	
330	5.724000e-03	0.000000e+00	-1.84238e+00	
331	5.744000e-03	0.000000e+00	-1.80590e+00	
332	5.764000e-03	0.000000e+00	-1.77014e+00	
333	5.784000e-03	0.000000e+00	-1.73509e+00	
334	5.804000e-03	0.000000e+00	-1.70073e+00	
335	5.824000e-03	0.000000e+00	-1.66705e+00	
336	5.844000e-03	0.000000e+00	-1.63404e+00	
337	5.864000e-03	0.000000e+00	-1.60168e+00	
338	5.884000e-03	0.000000e+00	-1.56997e+00	
339	5.904000e-03	0.000000e+00	-1.53888e+00	
340	5.924000e-03	0.000000e+00	-1.50841e+00	
341	5.944000e-03	0.000000e+00	-1.47854e+00	
342	5.964000e-03	0.000000e+00	-1.44926e+00	
343	5.984000e-03	0.000000e+00	-1.42056e+00	
344	6.000000e-03	0.000000e+00	-1.39801e+00	
