
Circuit: rc integrator

                                 rc integrator
                                 Transient Analysis  Wed Jan 12 23:45:02  2022
--------------------------------------------------------------------------------
Index   time            v(1)            v(2)            
--------------------------------------------------------------------------------
0	0.000000e+00	0.000000e+00	0.000000e+00	
1	2.000000e-07	5.000000e-02	9.998000e-06	
2	2.168022e-07	5.420056e-02	1.090851e-05	
3	2.504067e-07	6.260168e-02	1.287065e-05	
4	3.176157e-07	7.940392e-02	1.764165e-05	
5	4.520336e-07	1.130084e-01	3.057024e-05	
6	7.208694e-07	1.802174e-01	6.997152e-05	
7	1.258541e-06	3.146353e-01	2.029323e-04	
8	2.333884e-06	5.834711e-01	6.853411e-04	
9	4.484571e-06	1.121143e+00	2.514945e-03	
10	8.785945e-06	2.196486e+00	9.624018e-03	
11	1.738869e-05	4.347173e+00	3.756775e-02	
12	2.000000e-05	5.000000e+00	4.965804e-02	
13	2.172055e-05	5.000000e+00	5.816072e-02	
14	2.516165e-05	5.000000e+00	7.513687e-02	
15	3.204385e-05	5.000000e+00	1.089145e-01	
16	4.580824e-05	5.000000e+00	1.757772e-01	
17	6.580824e-05	5.000000e+00	2.713064e-01	
18	8.580824e-05	5.000000e+00	3.649438e-01	
19	1.058082e-04	5.000000e+00	4.567271e-01	
20	1.258082e-04	5.000000e+00	5.466929e-01	
21	1.458082e-04	5.000000e+00	6.348772e-01	
22	1.658082e-04	5.000000e+00	7.213153e-01	
23	1.858082e-04	5.000000e+00	8.060417e-01	
24	2.058082e-04	5.000000e+00	8.890904e-01	
25	2.258082e-04	5.000000e+00	9.704946e-01	
26	2.458082e-04	5.000000e+00	1.050287e+00	
27	2.658082e-04	5.000000e+00	1.128499e+00	
28	2.858082e-04	5.000000e+00	1.205162e+00	
29	3.058082e-04	5.000000e+00	1.280308e+00	
30	3.258082e-04	5.000000e+00	1.353965e+00	
31	3.458082e-04	5.000000e+00	1.426164e+00	
32	3.658082e-04	5.000000e+00	1.496933e+00	
33	3.858082e-04	5.000000e+00	1.566300e+00	
34	4.058082e-04	5.000000e+00	1.634294e+00	
35	4.258082e-04	5.000000e+00	1.700942e+00	
36	4.458082e-04	5.000000e+00	1.766270e+00	
37	4.658082e-04	5.000000e+00	1.830304e+00	
38	4.858082e-04	5.000000e+00	1.893070e+00	
39	5.058082e-04	5.000000e+00	1.954594e+00	
40	5.258082e-04	5.000000e+00	2.014899e+00	
41	5.458082e-04	5.000000e+00	2.074010e+00	
42	5.658082e-04	5.000000e+00	2.131950e+00	
43	5.858082e-04	5.000000e+00	2.188743e+00	
44	6.058082e-04	5.000000e+00	2.244412e+00	
45	6.258082e-04	5.000000e+00	2.298978e+00	
46	6.458082e-04	5.000000e+00	2.352463e+00	
47	6.658082e-04	5.000000e+00	2.404890e+00	
48	6.858082e-04	5.000000e+00	2.456278e+00	
49	7.058082e-04	5.000000e+00	2.506649e+00	
50	7.258082e-04	5.000000e+00	2.556022e+00	
51	7.458082e-04	5.000000e+00	2.604418e+00	
52	7.658082e-04	5.000000e+00	2.651855e+00	
53	7.858082e-04	5.000000e+00	2.698353e+00	
54	8.058082e-04	5.000000e+00	2.743930e+00	

Index   time            v(1)            v(2)            
--------------------------------------------------------------------------------
55	8.258082e-04	5.000000e+00	2.788605e+00	
56	8.458082e-04	5.000000e+00	2.832395e+00	
57	8.658082e-04	5.000000e+00	2.875318e+00	
58	8.858082e-04	5.000000e+00	2.917391e+00	
59	9.058082e-04	5.000000e+00	2.958630e+00	
60	9.258082e-04	5.000000e+00	2.999054e+00	
61	9.458082e-04	5.000000e+00	3.038676e+00	
62	9.658082e-04	5.000000e+00	3.077514e+00	
63	9.858082e-04	5.000000e+00	3.115583e+00	
64	1.005808e-03	5.000000e+00	3.152899e+00	
65	1.020000e-03	5.000000e+00	3.178927e+00	
66	1.022000e-03	4.500000e+00	3.181564e+00	
67	1.026000e-03	3.500000e+00	3.184832e+00	
68	1.034000e-03	1.500000e+00	3.179375e+00	
69	1.040000e-03	0.000000e+00	3.164842e+00	
70	1.041600e-03	0.000000e+00	3.159786e+00	
71	1.044800e-03	0.000000e+00	3.149691e+00	
72	1.051200e-03	0.000000e+00	3.129597e+00	
73	1.064000e-03	0.000000e+00	3.089793e+00	
74	1.084000e-03	0.000000e+00	3.028609e+00	
75	1.104000e-03	0.000000e+00	2.968637e+00	
76	1.124000e-03	0.000000e+00	2.909852e+00	
77	1.144000e-03	0.000000e+00	2.852231e+00	
78	1.164000e-03	0.000000e+00	2.795751e+00	
79	1.184000e-03	0.000000e+00	2.740390e+00	
80	1.204000e-03	0.000000e+00	2.686125e+00	
81	1.224000e-03	0.000000e+00	2.632934e+00	
82	1.244000e-03	0.000000e+00	2.580797e+00	
83	1.264000e-03	0.000000e+00	2.529692e+00	
84	1.284000e-03	0.000000e+00	2.479599e+00	
85	1.304000e-03	0.000000e+00	2.430498e+00	
86	1.324000e-03	0.000000e+00	2.382369e+00	
87	1.344000e-03	0.000000e+00	2.335194e+00	
88	1.364000e-03	0.000000e+00	2.288952e+00	
89	1.384000e-03	0.000000e+00	2.243627e+00	
90	1.404000e-03	0.000000e+00	2.199198e+00	
91	1.424000e-03	0.000000e+00	2.155650e+00	
92	1.444000e-03	0.000000e+00	2.112964e+00	
93	1.464000e-03	0.000000e+00	2.071123e+00	
94	1.484000e-03	0.000000e+00	2.030111e+00	
95	1.504000e-03	0.000000e+00	1.989910e+00	
96	1.524000e-03	0.000000e+00	1.950506e+00	
97	1.544000e-03	0.000000e+00	1.911882e+00	
98	1.564000e-03	0.000000e+00	1.874023e+00	
99	1.584000e-03	0.000000e+00	1.836914e+00	
100	1.604000e-03	0.000000e+00	1.800539e+00	
101	1.624000e-03	0.000000e+00	1.764885e+00	
102	1.644000e-03	0.000000e+00	1.729937e+00	
103	1.664000e-03	0.000000e+00	1.695681e+00	
104	1.684000e-03	0.000000e+00	1.662103e+00	
105	1.704000e-03	0.000000e+00	1.629190e+00	
106	1.724000e-03	0.000000e+00	1.596929e+00	
107	1.744000e-03	0.000000e+00	1.565306e+00	
108	1.764000e-03	0.000000e+00	1.534310e+00	
109	1.784000e-03	0.000000e+00	1.503928e+00	
110	1.804000e-03	0.000000e+00	1.474147e+00	
111	1.824000e-03	0.000000e+00	1.444956e+00	
112	1.844000e-03	0.000000e+00	1.416343e+00	

Index   time            v(1)            v(2)            
--------------------------------------------------------------------------------
113	1.864000e-03	0.000000e+00	1.388297e+00	
114	1.884000e-03	0.000000e+00	1.360806e+00	
115	1.904000e-03	0.000000e+00	1.333859e+00	
116	1.924000e-03	0.000000e+00	1.307446e+00	
117	1.944000e-03	0.000000e+00	1.281556e+00	
118	1.964000e-03	0.000000e+00	1.256179e+00	
119	1.984000e-03	0.000000e+00	1.231304e+00	
120	2.000000e-03	0.000000e+00	1.211759e+00	
121	2.002000e-03	5.000000e-01	1.210339e+00	
122	2.006000e-03	1.500000e+00	1.209499e+00	
123	2.014000e-03	3.500000e+00	1.219782e+00	
124	2.020000e-03	5.000000e+00	1.237909e+00	
125	2.021600e-03	5.000000e+00	1.243918e+00	
126	2.024800e-03	5.000000e+00	1.255919e+00	
127	2.031200e-03	5.000000e+00	1.279804e+00	
128	2.044000e-03	5.000000e+00	1.327120e+00	
129	2.064000e-03	5.000000e+00	1.399850e+00	
130	2.084000e-03	5.000000e+00	1.471140e+00	
131	2.104000e-03	5.000000e+00	1.541019e+00	
132	2.124000e-03	5.000000e+00	1.609514e+00	
133	2.144000e-03	5.000000e+00	1.676652e+00	
134	2.164000e-03	5.000000e+00	1.742461e+00	
135	2.184000e-03	5.000000e+00	1.806966e+00	
136	2.204000e-03	5.000000e+00	1.870195e+00	
137	2.224000e-03	5.000000e+00	1.932171e+00	
138	2.244000e-03	5.000000e+00	1.992920e+00	
139	2.264000e-03	5.000000e+00	2.052466e+00	
140	2.284000e-03	5.000000e+00	2.110833e+00	
141	2.304000e-03	5.000000e+00	2.168045e+00	
142	2.324000e-03	5.000000e+00	2.224123e+00	
143	2.344000e-03	5.000000e+00	2.279091e+00	
144	2.364000e-03	5.000000e+00	2.332970e+00	
145	2.384000e-03	5.000000e+00	2.385783e+00	
146	2.404000e-03	5.000000e+00	2.437549e+00	
147	2.424000e-03	5.000000e+00	2.488291e+00	
148	2.444000e-03	5.000000e+00	2.538028e+00	
149	2.464000e-03	5.000000e+00	2.586780e+00	
150	2.484000e-03	5.000000e+00	2.634566e+00	
151	2.504000e-03	5.000000e+00	2.681407e+00	
152	2.524000e-03	5.000000e+00	2.727319e+00	
153	2.544000e-03	5.000000e+00	2.772323e+00	
154	2.564000e-03	5.000000e+00	2.816435e+00	
155	2.584000e-03	5.000000e+00	2.859674e+00	
156	2.604000e-03	5.000000e+00	2.902057e+00	
157	2.624000e-03	5.000000e+00	2.943600e+00	
158	2.644000e-03	5.000000e+00	2.984321e+00	
159	2.664000e-03	5.000000e+00	3.024235e+00	
160	2.684000e-03	5.000000e+00	3.063360e+00	
161	2.704000e-03	5.000000e+00	3.101709e+00	
162	2.724000e-03	5.000000e+00	3.139299e+00	
163	2.744000e-03	5.000000e+00	3.176144e+00	
164	2.764000e-03	5.000000e+00	3.212260e+00	
165	2.784000e-03	5.000000e+00	3.247661e+00	
166	2.804000e-03	5.000000e+00	3.282361e+00	
167	2.824000e-03	5.000000e+00	3.316374e+00	
168	2.844000e-03	5.000000e+00	3.349713e+00	
169	2.864000e-03	5.000000e+00	3.382392e+00	
170	2.884000e-03	5.000000e+00	3.414423e+00	

Index   time            v(1)            v(2)            
--------------------------------------------------------------------------------
171	2.904000e-03	5.000000e+00	3.445821e+00	
172	2.924000e-03	5.000000e+00	3.476597e+00	
173	2.944000e-03	5.000000e+00	3.506763e+00	
174	2.964000e-03	5.000000e+00	3.536332e+00	
175	2.984000e-03	5.000000e+00	3.565316e+00	
176	3.004000e-03	5.000000e+00	3.593725e+00	
177	3.020000e-03	5.000000e+00	3.616047e+00	
178	3.022000e-03	4.500000e+00	3.617812e+00	
179	3.026000e-03	3.500000e+00	3.619337e+00	
180	3.034000e-03	1.500000e+00	3.610418e+00	
181	3.040000e-03	0.000000e+00	3.593307e+00	
182	3.041600e-03	0.000000e+00	3.587567e+00	
183	3.044800e-03	0.000000e+00	3.576105e+00	
184	3.051200e-03	0.000000e+00	3.553291e+00	
185	3.064000e-03	0.000000e+00	3.508098e+00	
186	3.084000e-03	0.000000e+00	3.438631e+00	
187	3.104000e-03	0.000000e+00	3.370539e+00	
188	3.124000e-03	0.000000e+00	3.303796e+00	
189	3.144000e-03	0.000000e+00	3.238374e+00	
190	3.164000e-03	0.000000e+00	3.174248e+00	
191	3.184000e-03	0.000000e+00	3.111392e+00	
192	3.204000e-03	0.000000e+00	3.049780e+00	
193	3.224000e-03	0.000000e+00	2.989388e+00	
194	3.244000e-03	0.000000e+00	2.930192e+00	
195	3.264000e-03	0.000000e+00	2.872169e+00	
196	3.284000e-03	0.000000e+00	2.815294e+00	
197	3.304000e-03	0.000000e+00	2.759546e+00	
198	3.324000e-03	0.000000e+00	2.704901e+00	
199	3.344000e-03	0.000000e+00	2.651339e+00	
200	3.364000e-03	0.000000e+00	2.598837e+00	
201	3.384000e-03	0.000000e+00	2.547375e+00	
202	3.404000e-03	0.000000e+00	2.496932e+00	
203	3.424000e-03	0.000000e+00	2.447488e+00	
204	3.444000e-03	0.000000e+00	2.399023e+00	
205	3.464000e-03	0.000000e+00	2.351517e+00	
206	3.484000e-03	0.000000e+00	2.304952e+00	
207	3.504000e-03	0.000000e+00	2.259310e+00	
208	3.524000e-03	0.000000e+00	2.214571e+00	
209	3.544000e-03	0.000000e+00	2.170718e+00	
210	3.564000e-03	0.000000e+00	2.127734e+00	
211	3.584000e-03	0.000000e+00	2.085600e+00	
212	3.604000e-03	0.000000e+00	2.044301e+00	
213	3.624000e-03	0.000000e+00	2.003820e+00	
214	3.644000e-03	0.000000e+00	1.964140e+00	
215	3.664000e-03	0.000000e+00	1.925247e+00	
216	3.684000e-03	0.000000e+00	1.887123e+00	
217	3.704000e-03	0.000000e+00	1.849754e+00	
218	3.724000e-03	0.000000e+00	1.813125e+00	
219	3.744000e-03	0.000000e+00	1.777222e+00	
220	3.764000e-03	0.000000e+00	1.742029e+00	
221	3.784000e-03	0.000000e+00	1.707534e+00	
222	3.804000e-03	0.000000e+00	1.673721e+00	
223	3.824000e-03	0.000000e+00	1.640578e+00	
224	3.844000e-03	0.000000e+00	1.608091e+00	
225	3.864000e-03	0.000000e+00	1.576248e+00	
226	3.884000e-03	0.000000e+00	1.545035e+00	
227	3.904000e-03	0.000000e+00	1.514440e+00	
228	3.924000e-03	0.000000e+00	1.484452e+00	

Index   time            v(1)            v(2)            
--------------------------------------------------------------------------------
229	3.944000e-03	0.000000e+00	1.455056e+00	
230	3.964000e-03	0.000000e+00	1.426243e+00	
231	3.984000e-03	0.000000e+00	1.398001e+00	
232	4.000000e-03	0.000000e+00	1.375811e+00	
233	4.002000e-03	5.000000e-01	1.374062e+00	
234	4.006000e-03	1.500000e+00	1.372569e+00	
235	4.014000e-03	3.500000e+00	1.381553e+00	
236	4.020000e-03	5.000000e+00	1.398712e+00	
237	4.021600e-03	5.000000e+00	1.404465e+00	
238	4.024800e-03	5.000000e+00	1.415952e+00	
239	4.031200e-03	5.000000e+00	1.438817e+00	
240	4.044000e-03	5.000000e+00	1.484110e+00	
241	4.064000e-03	5.000000e+00	1.553732e+00	
242	4.084000e-03	5.000000e+00	1.621975e+00	
243	4.104000e-03	5.000000e+00	1.688866e+00	
244	4.124000e-03	5.000000e+00	1.754433e+00	
245	4.144000e-03	5.000000e+00	1.818702e+00	
246	4.164000e-03	5.000000e+00	1.881698e+00	
247	4.184000e-03	5.000000e+00	1.943446e+00	
248	4.204000e-03	5.000000e+00	2.003972e+00	
249	4.224000e-03	5.000000e+00	2.063299e+00	
250	4.244000e-03	5.000000e+00	2.121452e+00	
251	4.264000e-03	5.000000e+00	2.178453e+00	
252	4.284000e-03	5.000000e+00	2.234325e+00	
253	4.304000e-03	5.000000e+00	2.289091e+00	
254	4.324000e-03	5.000000e+00	2.342772e+00	
255	4.344000e-03	5.000000e+00	2.395391e+00	
256	4.364000e-03	5.000000e+00	2.446967e+00	
257	4.384000e-03	5.000000e+00	2.497522e+00	
258	4.404000e-03	5.000000e+00	2.547076e+00	
259	4.424000e-03	5.000000e+00	2.595649e+00	
260	4.444000e-03	5.000000e+00	2.643260e+00	
261	4.464000e-03	5.000000e+00	2.689928e+00	
262	4.484000e-03	5.000000e+00	2.735672e+00	
263	4.504000e-03	5.000000e+00	2.780510e+00	
264	4.524000e-03	5.000000e+00	2.824461e+00	
265	4.544000e-03	5.000000e+00	2.867541e+00	
266	4.564000e-03	5.000000e+00	2.909767e+00	
267	4.584000e-03	5.000000e+00	2.951158e+00	
268	4.604000e-03	5.000000e+00	2.991729e+00	
269	4.624000e-03	5.000000e+00	3.031497e+00	
270	4.644000e-03	5.000000e+00	3.070477e+00	
271	4.664000e-03	5.000000e+00	3.108686e+00	
272	4.684000e-03	5.000000e+00	3.146137e+00	
273	4.704000e-03	5.000000e+00	3.182848e+00	
274	4.724000e-03	5.000000e+00	3.218831e+00	
275	4.744000e-03	5.000000e+00	3.254101e+00	
276	4.764000e-03	5.000000e+00	3.288674e+00	
277	4.784000e-03	5.000000e+00	3.322561e+00	
278	4.804000e-03	5.000000e+00	3.355778e+00	
279	4.824000e-03	5.000000e+00	3.388337e+00	
280	4.844000e-03	5.000000e+00	3.420251e+00	
281	4.864000e-03	5.000000e+00	3.451533e+00	
282	4.884000e-03	5.000000e+00	3.482196e+00	
283	4.904000e-03	5.000000e+00	3.512251e+00	
284	4.924000e-03	5.000000e+00	3.541712e+00	
285	4.944000e-03	5.000000e+00	3.570589e+00	
286	4.964000e-03	5.000000e+00	3.598894e+00	

Index   time            v(1)            v(2)            
--------------------------------------------------------------------------------
287	4.984000e-03	5.000000e+00	3.626639e+00	
288	5.004000e-03	5.000000e+00	3.653834e+00	
289	5.020000e-03	5.000000e+00	3.675202e+00	
290	5.022000e-03	4.500000e+00	3.676848e+00	
291	5.026000e-03	3.500000e+00	3.678138e+00	
292	5.034000e-03	1.500000e+00	3.668750e+00	
293	5.040000e-03	0.000000e+00	3.651290e+00	
294	5.041600e-03	0.000000e+00	3.645457e+00	
295	5.044800e-03	0.000000e+00	3.633811e+00	
296	5.051200e-03	0.000000e+00	3.610628e+00	
297	5.064000e-03	0.000000e+00	3.564706e+00	
298	5.084000e-03	0.000000e+00	3.494118e+00	
299	5.104000e-03	0.000000e+00	3.424928e+00	
300	5.124000e-03	0.000000e+00	3.357107e+00	
301	5.144000e-03	0.000000e+00	3.290630e+00	
302	5.164000e-03	0.000000e+00	3.225469e+00	
303	5.184000e-03	0.000000e+00	3.161598e+00	
304	5.204000e-03	0.000000e+00	3.098992e+00	
305	5.224000e-03	0.000000e+00	3.037626e+00	
306	5.244000e-03	0.000000e+00	2.977475e+00	
307	5.264000e-03	0.000000e+00	2.918515e+00	
308	5.284000e-03	0.000000e+00	2.860723e+00	
309	5.304000e-03	0.000000e+00	2.804075e+00	
310	5.324000e-03	0.000000e+00	2.748549e+00	
311	5.344000e-03	0.000000e+00	2.694122e+00	
312	5.364000e-03	0.000000e+00	2.640773e+00	
313	5.384000e-03	0.000000e+00	2.588480e+00	
314	5.404000e-03	0.000000e+00	2.537223e+00	
315	5.424000e-03	0.000000e+00	2.486981e+00	
316	5.444000e-03	0.000000e+00	2.437734e+00	
317	5.464000e-03	0.000000e+00	2.389462e+00	
318	5.484000e-03	0.000000e+00	2.342146e+00	
319	5.504000e-03	0.000000e+00	2.295767e+00	
320	5.524000e-03	0.000000e+00	2.250306e+00	
321	5.544000e-03	0.000000e+00	2.205746e+00	
322	5.564000e-03	0.000000e+00	2.162068e+00	
323	5.584000e-03	0.000000e+00	2.119254e+00	
324	5.604000e-03	0.000000e+00	2.077289e+00	
325	5.624000e-03	0.000000e+00	2.036155e+00	
326	5.644000e-03	0.000000e+00	1.995835e+00	
327	5.664000e-03	0.000000e+00	1.956313e+00	
328	5.684000e-03	0.000000e+00	1.917574e+00	
329	5.704000e-03	0.000000e+00	1.879603e+00	
330	5.724000e-03	0.000000e+00	1.842383e+00	
331	5.744000e-03	0.000000e+00	1.805900e+00	
332	5.764000e-03	0.000000e+00	1.770139e+00	
333	5.784000e-03	0.000000e+00	1.735087e+00	
334	5.804000e-03	0.000000e+00	1.700729e+00	
335	5.824000e-03	0.000000e+00	1.667051e+00	
336	5.844000e-03	0.000000e+00	1.634040e+00	
337	5.864000e-03	0.000000e+00	1.601683e+00	
338	5.884000e-03	0.000000e+00	1.569967e+00	
339	5.904000e-03	0.000000e+00	1.538878e+00	
340	5.924000e-03	0.000000e+00	1.508405e+00	
341	5.944000e-03	0.000000e+00	1.478536e+00	
342	5.964000e-03	0.000000e+00	1.449258e+00	
343	5.984000e-03	0.000000e+00	1.420560e+00	
344	6.000000e-03	0.000000e+00	1.398011e+00	
