
Circuit: rc integrator

                                 rc integrator
                                 Transient Analysis  Wed Jan 12 23:46:32  2022
--------------------------------------------------------------------------------
Index   time            v(1)            v(2)            
--------------------------------------------------------------------------------
0	0.000000e+00	0.000000e+00	0.000000e+00	
1	2.000000e-08	5.000000e-02	9.999800e-07	
2	2.168002e-08	5.420006e-02	1.091035e-06	
3	2.504007e-08	6.260017e-02	1.287258e-06	
4	3.176016e-08	7.940039e-02	1.764376e-06	
5	4.520034e-08	1.130008e-01	3.057298e-06	
6	7.208069e-08	1.802017e-01	6.997858e-06	
7	1.258414e-07	3.146035e-01	2.029767e-05	
8	2.333628e-07	5.834071e-01	6.857058e-05	
9	4.484057e-07	1.121014e+00	2.517980e-04	
10	8.784914e-07	2.196229e+00	9.648858e-04	
11	1.738663e-06	4.346657e+00	3.776848e-03	
12	2.000000e-06	5.000000e+00	4.997016e-03	
13	2.172034e-06	5.000000e+00	5.856180e-03	
14	2.516103e-06	5.000000e+00	7.574212e-03	
15	3.204240e-06	5.000000e+00	1.100850e-02	
16	4.580514e-06	5.000000e+00	1.787000e-02	
17	6.580514e-06	5.000000e+00	2.782431e-02	
18	8.580514e-06	5.000000e+00	3.775873e-02	
19	1.058051e-05	5.000000e+00	4.767329e-02	
20	1.258051e-05	5.000000e+00	5.756805e-02	
21	1.458051e-05	5.000000e+00	6.744304e-02	
22	1.658051e-05	5.000000e+00	7.729830e-02	
23	1.858051e-05	5.000000e+00	8.713387e-02	
24	2.058051e-05	5.000000e+00	9.694978e-02	
25	2.258051e-05	5.000000e+00	1.067461e-01	
26	2.458051e-05	5.000000e+00	1.165228e-01	
27	2.658051e-05	5.000000e+00	1.262800e-01	
28	2.858051e-05	5.000000e+00	1.360177e-01	
29	3.058051e-05	5.000000e+00	1.457360e-01	
30	3.258051e-05	5.000000e+00	1.554348e-01	
31	3.458051e-05	5.000000e+00	1.651142e-01	
32	3.658051e-05	5.000000e+00	1.747744e-01	
33	3.858051e-05	5.000000e+00	1.844152e-01	
34	4.058051e-05	5.000000e+00	1.940367e-01	
35	4.258051e-05	5.000000e+00	2.036390e-01	
36	4.458051e-05	5.000000e+00	2.132222e-01	
37	4.658051e-05	5.000000e+00	2.227862e-01	
38	4.858051e-05	5.000000e+00	2.323311e-01	
39	5.058051e-05	5.000000e+00	2.418569e-01	
40	5.258051e-05	5.000000e+00	2.513636e-01	
41	5.458051e-05	5.000000e+00	2.608514e-01	
42	5.658051e-05	5.000000e+00	2.703203e-01	
43	5.858051e-05	5.000000e+00	2.797702e-01	
44	6.058051e-05	5.000000e+00	2.892012e-01	
45	6.258051e-05	5.000000e+00	2.986134e-01	
46	6.458051e-05	5.000000e+00	3.080068e-01	
47	6.658051e-05	5.000000e+00	3.173814e-01	
48	6.858051e-05	5.000000e+00	3.267373e-01	
49	7.058051e-05	5.000000e+00	3.360744e-01	
50	7.258051e-05	5.000000e+00	3.453930e-01	
51	7.458051e-05	5.000000e+00	3.546929e-01	
52	7.658051e-05	5.000000e+00	3.639742e-01	
53	7.858051e-05	5.000000e+00	3.732370e-01	
54	8.058051e-05	5.000000e+00	3.824813e-01	

Index   time            v(1)            v(2)            
--------------------------------------------------------------------------------
55	8.258051e-05	5.000000e+00	3.917071e-01	
56	8.458051e-05	5.000000e+00	4.009145e-01	
57	8.658051e-05	5.000000e+00	4.101035e-01	
58	8.858051e-05	5.000000e+00	4.192741e-01	
59	9.058051e-05	5.000000e+00	4.284264e-01	
60	9.258051e-05	5.000000e+00	4.375604e-01	
61	9.458051e-05	5.000000e+00	4.466762e-01	
62	9.658051e-05	5.000000e+00	4.557737e-01	
63	9.858051e-05	5.000000e+00	4.648531e-01	
64	1.005805e-04	5.000000e+00	4.739143e-01	
65	1.020000e-04	5.000000e+00	4.803345e-01	
66	1.022000e-04	4.500000e+00	4.811382e-01	
67	1.026000e-04	3.500000e+00	4.825455e-01	
68	1.034000e-04	1.500000e+00	4.841588e-01	
69	1.040000e-04	0.000000e+00	4.843183e-01	
70	1.041600e-04	0.000000e+00	4.842408e-01	
71	1.044800e-04	0.000000e+00	4.840859e-01	
72	1.051200e-04	0.000000e+00	4.837762e-01	
73	1.064000e-04	0.000000e+00	4.831573e-01	
74	1.084000e-04	0.000000e+00	4.821920e-01	
75	1.104000e-04	0.000000e+00	4.812286e-01	
76	1.124000e-04	0.000000e+00	4.802671e-01	
77	1.144000e-04	0.000000e+00	4.793075e-01	
78	1.164000e-04	0.000000e+00	4.783498e-01	
79	1.184000e-04	0.000000e+00	4.773941e-01	
80	1.204000e-04	0.000000e+00	4.764402e-01	
81	1.224000e-04	0.000000e+00	4.754883e-01	
82	1.244000e-04	0.000000e+00	4.745383e-01	
83	1.264000e-04	0.000000e+00	4.735902e-01	
84	1.284000e-04	0.000000e+00	4.726439e-01	
85	1.304000e-04	0.000000e+00	4.716996e-01	
86	1.324000e-04	0.000000e+00	4.707571e-01	
87	1.344000e-04	0.000000e+00	4.698166e-01	
88	1.364000e-04	0.000000e+00	4.688779e-01	
89	1.384000e-04	0.000000e+00	4.679410e-01	
90	1.404000e-04	0.000000e+00	4.670061e-01	
91	1.424000e-04	0.000000e+00	4.660730e-01	
92	1.444000e-04	0.000000e+00	4.651418e-01	
93	1.464000e-04	0.000000e+00	4.642124e-01	
94	1.484000e-04	0.000000e+00	4.632850e-01	
95	1.504000e-04	0.000000e+00	4.623593e-01	
96	1.524000e-04	0.000000e+00	4.614355e-01	
97	1.544000e-04	0.000000e+00	4.605136e-01	
98	1.564000e-04	0.000000e+00	4.595935e-01	
99	1.584000e-04	0.000000e+00	4.586752e-01	
100	1.604000e-04	0.000000e+00	4.577588e-01	
101	1.624000e-04	0.000000e+00	4.568441e-01	
102	1.644000e-04	0.000000e+00	4.559314e-01	
103	1.664000e-04	0.000000e+00	4.550204e-01	
104	1.684000e-04	0.000000e+00	4.541113e-01	
105	1.704000e-04	0.000000e+00	4.532040e-01	
106	1.724000e-04	0.000000e+00	4.522985e-01	
107	1.744000e-04	0.000000e+00	4.513948e-01	
108	1.764000e-04	0.000000e+00	4.504929e-01	
109	1.784000e-04	0.000000e+00	4.495928e-01	
110	1.804000e-04	0.000000e+00	4.486945e-01	
111	1.824000e-04	0.000000e+00	4.477980e-01	
112	1.844000e-04	0.000000e+00	4.469033e-01	

Index   time            v(1)            v(2)            
--------------------------------------------------------------------------------
113	1.864000e-04	0.000000e+00	4.460104e-01	
114	1.884000e-04	0.000000e+00	4.451193e-01	
115	1.904000e-04	0.000000e+00	4.442299e-01	
116	1.924000e-04	0.000000e+00	4.433424e-01	
117	1.944000e-04	0.000000e+00	4.424566e-01	
118	1.964000e-04	0.000000e+00	4.415725e-01	
119	1.984000e-04	0.000000e+00	4.406903e-01	
120	2.000000e-04	0.000000e+00	4.399857e-01	
121	2.002000e-04	5.000000e-01	4.399977e-01	
122	2.006000e-04	1.500000e+00	4.402217e-01	
123	2.014000e-04	3.500000e+00	4.418688e-01	
124	2.020000e-04	5.000000e+00	4.441530e-01	
125	2.021600e-04	5.000000e+00	4.448819e-01	
126	2.024800e-04	5.000000e+00	4.463393e-01	
127	2.031200e-04	5.000000e+00	4.492527e-01	
128	2.044000e-04	5.000000e+00	4.550739e-01	
129	2.064000e-04	5.000000e+00	4.641547e-01	
130	2.084000e-04	5.000000e+00	4.732173e-01	
131	2.104000e-04	5.000000e+00	4.822618e-01	
132	2.124000e-04	5.000000e+00	4.912883e-01	
133	2.144000e-04	5.000000e+00	5.002967e-01	
134	2.164000e-04	5.000000e+00	5.092871e-01	
135	2.184000e-04	5.000000e+00	5.182596e-01	
136	2.204000e-04	5.000000e+00	5.272141e-01	
137	2.224000e-04	5.000000e+00	5.361507e-01	
138	2.244000e-04	5.000000e+00	5.450695e-01	
139	2.264000e-04	5.000000e+00	5.539705e-01	
140	2.284000e-04	5.000000e+00	5.628536e-01	
141	2.304000e-04	5.000000e+00	5.717191e-01	
142	2.324000e-04	5.000000e+00	5.805668e-01	
143	2.344000e-04	5.000000e+00	5.893968e-01	
144	2.364000e-04	5.000000e+00	5.982092e-01	
145	2.384000e-04	5.000000e+00	6.070040e-01	
146	2.404000e-04	5.000000e+00	6.157812e-01	
147	2.424000e-04	5.000000e+00	6.245409e-01	
148	2.444000e-04	5.000000e+00	6.332831e-01	
149	2.464000e-04	5.000000e+00	6.420078e-01	
150	2.484000e-04	5.000000e+00	6.507151e-01	
151	2.504000e-04	5.000000e+00	6.594049e-01	
152	2.524000e-04	5.000000e+00	6.680775e-01	
153	2.544000e-04	5.000000e+00	6.767326e-01	
154	2.564000e-04	5.000000e+00	6.853705e-01	
155	2.584000e-04	5.000000e+00	6.939912e-01	
156	2.604000e-04	5.000000e+00	7.025946e-01	
157	2.624000e-04	5.000000e+00	7.111808e-01	
158	2.644000e-04	5.000000e+00	7.197499e-01	
159	2.664000e-04	5.000000e+00	7.283018e-01	
160	2.684000e-04	5.000000e+00	7.368367e-01	
161	2.704000e-04	5.000000e+00	7.453545e-01	
162	2.724000e-04	5.000000e+00	7.538553e-01	
163	2.744000e-04	5.000000e+00	7.623391e-01	
164	2.764000e-04	5.000000e+00	7.708060e-01	
165	2.784000e-04	5.000000e+00	7.792559e-01	
166	2.804000e-04	5.000000e+00	7.876889e-01	
167	2.824000e-04	5.000000e+00	7.961052e-01	
168	2.844000e-04	5.000000e+00	8.045045e-01	
169	2.864000e-04	5.000000e+00	8.128872e-01	
170	2.884000e-04	5.000000e+00	8.212530e-01	

Index   time            v(1)            v(2)            
--------------------------------------------------------------------------------
171	2.904000e-04	5.000000e+00	8.296022e-01	
172	2.924000e-04	5.000000e+00	8.379346e-01	
173	2.944000e-04	5.000000e+00	8.462504e-01	
174	2.964000e-04	5.000000e+00	8.545496e-01	
175	2.984000e-04	5.000000e+00	8.628323e-01	
176	3.004000e-04	5.000000e+00	8.710983e-01	
177	3.020000e-04	5.000000e+00	8.776993e-01	
178	3.022000e-04	4.500000e+00	8.784236e-01	
179	3.026000e-04	3.500000e+00	8.796720e-01	
180	3.034000e-04	1.500000e+00	8.809677e-01	
181	3.040000e-04	0.000000e+00	8.808892e-01	
182	3.041600e-04	0.000000e+00	8.807482e-01	
183	3.044800e-04	0.000000e+00	8.804665e-01	
184	3.051200e-04	0.000000e+00	8.799031e-01	
185	3.064000e-04	0.000000e+00	8.787776e-01	
186	3.084000e-04	0.000000e+00	8.770218e-01	
187	3.104000e-04	0.000000e+00	8.752695e-01	
188	3.124000e-04	0.000000e+00	8.735207e-01	
189	3.144000e-04	0.000000e+00	8.717754e-01	
190	3.164000e-04	0.000000e+00	8.700336e-01	
191	3.184000e-04	0.000000e+00	8.682953e-01	
192	3.204000e-04	0.000000e+00	8.665604e-01	
193	3.224000e-04	0.000000e+00	8.648290e-01	
194	3.244000e-04	0.000000e+00	8.631011e-01	
195	3.264000e-04	0.000000e+00	8.613766e-01	
196	3.284000e-04	0.000000e+00	8.596556e-01	
197	3.304000e-04	0.000000e+00	8.579380e-01	
198	3.324000e-04	0.000000e+00	8.562238e-01	
199	3.344000e-04	0.000000e+00	8.545131e-01	
200	3.364000e-04	0.000000e+00	8.528058e-01	
201	3.384000e-04	0.000000e+00	8.511019e-01	
202	3.404000e-04	0.000000e+00	8.494014e-01	
203	3.424000e-04	0.000000e+00	8.477043e-01	
204	3.444000e-04	0.000000e+00	8.460105e-01	
205	3.464000e-04	0.000000e+00	8.443202e-01	
206	3.484000e-04	0.000000e+00	8.426333e-01	
207	3.504000e-04	0.000000e+00	8.409497e-01	
208	3.524000e-04	0.000000e+00	8.392694e-01	
209	3.544000e-04	0.000000e+00	8.375926e-01	
210	3.564000e-04	0.000000e+00	8.359191e-01	
211	3.584000e-04	0.000000e+00	8.342489e-01	
212	3.604000e-04	0.000000e+00	8.325821e-01	
213	3.624000e-04	0.000000e+00	8.309186e-01	
214	3.644000e-04	0.000000e+00	8.292584e-01	
215	3.664000e-04	0.000000e+00	8.276015e-01	
216	3.684000e-04	0.000000e+00	8.259480e-01	
217	3.704000e-04	0.000000e+00	8.242977e-01	
218	3.724000e-04	0.000000e+00	8.226508e-01	
219	3.744000e-04	0.000000e+00	8.210071e-01	
220	3.764000e-04	0.000000e+00	8.193668e-01	
221	3.784000e-04	0.000000e+00	8.177297e-01	
222	3.804000e-04	0.000000e+00	8.160958e-01	
223	3.824000e-04	0.000000e+00	8.144653e-01	
224	3.844000e-04	0.000000e+00	8.128380e-01	
225	3.864000e-04	0.000000e+00	8.112139e-01	
226	3.884000e-04	0.000000e+00	8.095931e-01	
227	3.904000e-04	0.000000e+00	8.079756e-01	
228	3.924000e-04	0.000000e+00	8.063612e-01	

Index   time            v(1)            v(2)            
--------------------------------------------------------------------------------
229	3.944000e-04	0.000000e+00	8.047501e-01	
230	3.964000e-04	0.000000e+00	8.031422e-01	
231	3.984000e-04	0.000000e+00	8.015375e-01	
232	4.000000e-04	0.000000e+00	8.002561e-01	
233	4.002000e-04	5.000000e-01	8.001961e-01	
234	4.006000e-04	1.500000e+00	8.002760e-01	
235	4.014000e-04	3.500000e+00	8.016352e-01	
236	4.020000e-04	5.000000e+00	8.037036e-01	
237	4.021600e-04	5.000000e+00	8.043749e-01	
238	4.024800e-04	5.000000e+00	8.057173e-01	
239	4.031200e-04	5.000000e+00	8.084008e-01	
240	4.044000e-04	5.000000e+00	8.137626e-01	
241	4.064000e-04	5.000000e+00	8.221267e-01	
242	4.084000e-04	5.000000e+00	8.304741e-01	
243	4.104000e-04	5.000000e+00	8.388048e-01	
244	4.124000e-04	5.000000e+00	8.471189e-01	
245	4.144000e-04	5.000000e+00	8.554164e-01	
246	4.164000e-04	5.000000e+00	8.636972e-01	
247	4.184000e-04	5.000000e+00	8.719616e-01	
248	4.204000e-04	5.000000e+00	8.802094e-01	
249	4.224000e-04	5.000000e+00	8.884408e-01	
250	4.244000e-04	5.000000e+00	8.966557e-01	
251	4.264000e-04	5.000000e+00	9.048542e-01	
252	4.284000e-04	5.000000e+00	9.130363e-01	
253	4.304000e-04	5.000000e+00	9.212020e-01	
254	4.324000e-04	5.000000e+00	9.293515e-01	
255	4.344000e-04	5.000000e+00	9.374846e-01	
256	4.364000e-04	5.000000e+00	9.456015e-01	
257	4.384000e-04	5.000000e+00	9.537022e-01	
258	4.404000e-04	5.000000e+00	9.617868e-01	
259	4.424000e-04	5.000000e+00	9.698551e-01	
260	4.444000e-04	5.000000e+00	9.779073e-01	
261	4.464000e-04	5.000000e+00	9.859435e-01	
262	4.484000e-04	5.000000e+00	9.939636e-01	
263	4.504000e-04	5.000000e+00	1.001968e+00	
264	4.524000e-04	5.000000e+00	1.009956e+00	
265	4.544000e-04	5.000000e+00	1.017928e+00	
266	4.564000e-04	5.000000e+00	1.025884e+00	
267	4.584000e-04	5.000000e+00	1.033824e+00	
268	4.604000e-04	5.000000e+00	1.041749e+00	
269	4.624000e-04	5.000000e+00	1.049657e+00	
270	4.644000e-04	5.000000e+00	1.057550e+00	
271	4.664000e-04	5.000000e+00	1.065427e+00	
272	4.684000e-04	5.000000e+00	1.073288e+00	
273	4.704000e-04	5.000000e+00	1.081134e+00	
274	4.724000e-04	5.000000e+00	1.088964e+00	
275	4.744000e-04	5.000000e+00	1.096778e+00	
276	4.764000e-04	5.000000e+00	1.104577e+00	
277	4.784000e-04	5.000000e+00	1.112360e+00	
278	4.804000e-04	5.000000e+00	1.120127e+00	
279	4.824000e-04	5.000000e+00	1.127879e+00	
280	4.844000e-04	5.000000e+00	1.135616e+00	
281	4.864000e-04	5.000000e+00	1.143337e+00	
282	4.884000e-04	5.000000e+00	1.151043e+00	
283	4.904000e-04	5.000000e+00	1.158733e+00	
284	4.924000e-04	5.000000e+00	1.166408e+00	
285	4.944000e-04	5.000000e+00	1.174067e+00	
286	4.964000e-04	5.000000e+00	1.181711e+00	

Index   time            v(1)            v(2)            
--------------------------------------------------------------------------------
287	4.984000e-04	5.000000e+00	1.189340e+00	
288	5.004000e-04	5.000000e+00	1.196954e+00	
289	5.020000e-04	5.000000e+00	1.203034e+00	
290	5.022000e-04	4.500000e+00	1.203693e+00	
291	5.026000e-04	3.500000e+00	1.204812e+00	
292	5.034000e-04	1.500000e+00	1.205847e+00	
293	5.040000e-04	0.000000e+00	1.205574e+00	
294	5.041600e-04	0.000000e+00	1.205381e+00	
295	5.044800e-04	0.000000e+00	1.204995e+00	
296	5.051200e-04	0.000000e+00	1.204224e+00	
297	5.064000e-04	0.000000e+00	1.202684e+00	
298	5.084000e-04	0.000000e+00	1.200281e+00	
299	5.104000e-04	0.000000e+00	1.197883e+00	
300	5.124000e-04	0.000000e+00	1.195490e+00	
301	5.144000e-04	0.000000e+00	1.193101e+00	
302	5.164000e-04	0.000000e+00	1.190717e+00	
303	5.184000e-04	0.000000e+00	1.188338e+00	
304	5.204000e-04	0.000000e+00	1.185964e+00	
305	5.224000e-04	0.000000e+00	1.183594e+00	
306	5.244000e-04	0.000000e+00	1.181229e+00	
307	5.264000e-04	0.000000e+00	1.178869e+00	
308	5.284000e-04	0.000000e+00	1.176514e+00	
309	5.304000e-04	0.000000e+00	1.174163e+00	
310	5.324000e-04	0.000000e+00	1.171817e+00	
311	5.344000e-04	0.000000e+00	1.169476e+00	
312	5.364000e-04	0.000000e+00	1.167139e+00	
313	5.384000e-04	0.000000e+00	1.164807e+00	
314	5.404000e-04	0.000000e+00	1.162480e+00	
315	5.424000e-04	0.000000e+00	1.160157e+00	
316	5.444000e-04	0.000000e+00	1.157839e+00	
317	5.464000e-04	0.000000e+00	1.155526e+00	
318	5.484000e-04	0.000000e+00	1.153217e+00	
319	5.504000e-04	0.000000e+00	1.150913e+00	
320	5.524000e-04	0.000000e+00	1.148614e+00	
321	5.544000e-04	0.000000e+00	1.146319e+00	
322	5.564000e-04	0.000000e+00	1.144028e+00	
323	5.584000e-04	0.000000e+00	1.141743e+00	
324	5.604000e-04	0.000000e+00	1.139461e+00	
325	5.624000e-04	0.000000e+00	1.137185e+00	
326	5.644000e-04	0.000000e+00	1.134913e+00	
327	5.664000e-04	0.000000e+00	1.132645e+00	
328	5.684000e-04	0.000000e+00	1.130382e+00	
329	5.704000e-04	0.000000e+00	1.128124e+00	
330	5.724000e-04	0.000000e+00	1.125870e+00	
331	5.744000e-04	0.000000e+00	1.123620e+00	
332	5.764000e-04	0.000000e+00	1.121375e+00	
333	5.784000e-04	0.000000e+00	1.119135e+00	
334	5.804000e-04	0.000000e+00	1.116899e+00	
335	5.824000e-04	0.000000e+00	1.114667e+00	
336	5.844000e-04	0.000000e+00	1.112440e+00	
337	5.864000e-04	0.000000e+00	1.110217e+00	
338	5.884000e-04	0.000000e+00	1.107999e+00	
339	5.904000e-04	0.000000e+00	1.105785e+00	
340	5.924000e-04	0.000000e+00	1.103576e+00	
341	5.944000e-04	0.000000e+00	1.101371e+00	
342	5.964000e-04	0.000000e+00	1.099170e+00	
343	5.984000e-04	0.000000e+00	1.096974e+00	
344	6.000000e-04	0.000000e+00	1.095221e+00	
