
Circuit: rc integrator

                                 rc integrator
                                 Transient Analysis  Wed Jan 12 23:47:12  2022
--------------------------------------------------------------------------------
Index   time            v(1)            v(2)            
--------------------------------------------------------------------------------
0	0.000000e+00	0.000000e+00	0.000000e+00	
1	1.000000e-08	5.000000e-02	4.999950e-07	
2	1.084001e-08	5.420003e-02	5.455229e-07	
3	1.252002e-08	6.260008e-02	6.436346e-07	
4	1.588004e-08	7.940020e-02	8.821941e-07	
5	2.260008e-08	1.130004e-01	1.528656e-06	
6	3.604017e-08	1.802009e-01	3.498948e-06	
7	6.292035e-08	3.146018e-01	1.014896e-05	
8	1.166807e-07	5.834036e-01	3.428631e-05	
9	2.242014e-07	1.121007e+00	1.259074e-04	
10	4.392429e-07	2.196214e+00	4.825120e-04	
11	8.693257e-07	4.346629e+00	1.888984e-03	
12	1.000000e-06	5.000000e+00	2.499380e-03	
13	1.086017e-06	5.000000e+00	2.929211e-03	
14	1.258050e-06	5.000000e+00	3.788798e-03	
15	1.602116e-06	5.000000e+00	5.507531e-03	
16	2.290249e-06	5.000000e+00	8.943222e-03	
17	3.290249e-06	5.000000e+00	1.393178e-02	
18	4.290249e-06	5.000000e+00	1.891536e-02	
19	5.290249e-06	5.000000e+00	2.389396e-02	
20	6.290249e-06	5.000000e+00	2.886758e-02	
21	7.290249e-06	5.000000e+00	3.383622e-02	
22	8.290249e-06	5.000000e+00	3.879991e-02	
23	9.290249e-06	5.000000e+00	4.375863e-02	
24	1.029025e-05	5.000000e+00	4.871239e-02	
25	1.129025e-05	5.000000e+00	5.366120e-02	
26	1.229025e-05	5.000000e+00	5.860507e-02	
27	1.329025e-05	5.000000e+00	6.354400e-02	
28	1.429025e-05	5.000000e+00	6.847798e-02	
29	1.529025e-05	5.000000e+00	7.340704e-02	
30	1.629025e-05	5.000000e+00	7.833117e-02	
31	1.729025e-05	5.000000e+00	8.325038e-02	
32	1.829025e-05	5.000000e+00	8.816467e-02	
33	1.929025e-05	5.000000e+00	9.307406e-02	
34	2.029025e-05	5.000000e+00	9.797853e-02	
35	2.129025e-05	5.000000e+00	1.028781e-01	
36	2.229025e-05	5.000000e+00	1.077728e-01	
37	2.329025e-05	5.000000e+00	1.126626e-01	
38	2.429025e-05	5.000000e+00	1.175475e-01	
39	2.529025e-05	5.000000e+00	1.224275e-01	
40	2.629025e-05	5.000000e+00	1.273026e-01	
41	2.729025e-05	5.000000e+00	1.321729e-01	
42	2.829025e-05	5.000000e+00	1.370383e-01	
43	2.929025e-05	5.000000e+00	1.418988e-01	
44	3.029025e-05	5.000000e+00	1.467545e-01	
45	3.129025e-05	5.000000e+00	1.516053e-01	
46	3.229025e-05	5.000000e+00	1.564513e-01	
47	3.329025e-05	5.000000e+00	1.612924e-01	
48	3.429025e-05	5.000000e+00	1.661287e-01	
49	3.529025e-05	5.000000e+00	1.709601e-01	
50	3.629025e-05	5.000000e+00	1.757868e-01	
51	3.729025e-05	5.000000e+00	1.806086e-01	
52	3.829025e-05	5.000000e+00	1.854255e-01	
53	3.929025e-05	5.000000e+00	1.902377e-01	
54	4.029025e-05	5.000000e+00	1.950451e-01	

Index   time            v(1)            v(2)            
--------------------------------------------------------------------------------
55	4.129025e-05	5.000000e+00	1.998476e-01	
56	4.229025e-05	5.000000e+00	2.046454e-01	
57	4.329025e-05	5.000000e+00	2.094383e-01	
58	4.429025e-05	5.000000e+00	2.142265e-01	
59	4.529025e-05	5.000000e+00	2.190099e-01	
60	4.629025e-05	5.000000e+00	2.237885e-01	
61	4.729025e-05	5.000000e+00	2.285623e-01	
62	4.829025e-05	5.000000e+00	2.333314e-01	
63	4.929025e-05	5.000000e+00	2.380956e-01	
64	5.029025e-05	5.000000e+00	2.428552e-01	
65	5.100000e-05	5.000000e+00	2.462304e-01	
66	5.110000e-05	4.500000e+00	2.466557e-01	
67	5.130000e-05	3.500000e+00	2.474063e-01	
68	5.170000e-05	1.500000e+00	2.483071e-01	
69	5.200000e-05	0.000000e+00	2.484576e-01	
70	5.208000e-05	0.000000e+00	2.484378e-01	
71	5.224000e-05	0.000000e+00	2.483980e-01	
72	5.256000e-05	0.000000e+00	2.483185e-01	
73	5.320000e-05	0.000000e+00	2.481597e-01	
74	5.420000e-05	0.000000e+00	2.479116e-01	
75	5.520000e-05	0.000000e+00	2.476638e-01	
76	5.620000e-05	0.000000e+00	2.474163e-01	
77	5.720000e-05	0.000000e+00	2.471690e-01	
78	5.820000e-05	0.000000e+00	2.469220e-01	
79	5.920000e-05	0.000000e+00	2.466752e-01	
80	6.020000e-05	0.000000e+00	2.464286e-01	
81	6.120000e-05	0.000000e+00	2.461823e-01	
82	6.220000e-05	0.000000e+00	2.459362e-01	
83	6.320000e-05	0.000000e+00	2.456904e-01	
84	6.420000e-05	0.000000e+00	2.454449e-01	
85	6.520000e-05	0.000000e+00	2.451995e-01	
86	6.620000e-05	0.000000e+00	2.449545e-01	
87	6.720000e-05	0.000000e+00	2.447096e-01	
88	6.820000e-05	0.000000e+00	2.444650e-01	
89	6.920000e-05	0.000000e+00	2.442207e-01	
90	7.020000e-05	0.000000e+00	2.439766e-01	
91	7.120000e-05	0.000000e+00	2.437328e-01	
92	7.220000e-05	0.000000e+00	2.434891e-01	
93	7.320000e-05	0.000000e+00	2.432458e-01	
94	7.420000e-05	0.000000e+00	2.430026e-01	
95	7.520000e-05	0.000000e+00	2.427598e-01	
96	7.620000e-05	0.000000e+00	2.425171e-01	
97	7.720000e-05	0.000000e+00	2.422747e-01	
98	7.820000e-05	0.000000e+00	2.420326e-01	
99	7.920000e-05	0.000000e+00	2.417907e-01	
100	8.020000e-05	0.000000e+00	2.415490e-01	
101	8.120000e-05	0.000000e+00	2.413076e-01	
102	8.220000e-05	0.000000e+00	2.410664e-01	
103	8.320000e-05	0.000000e+00	2.408254e-01	
104	8.420000e-05	0.000000e+00	2.405847e-01	
105	8.520000e-05	0.000000e+00	2.403443e-01	
106	8.620000e-05	0.000000e+00	2.401040e-01	
107	8.720000e-05	0.000000e+00	2.398641e-01	
108	8.820000e-05	0.000000e+00	2.396243e-01	
109	8.920000e-05	0.000000e+00	2.393848e-01	
110	9.020000e-05	0.000000e+00	2.391455e-01	
111	9.120000e-05	0.000000e+00	2.389065e-01	
112	9.220000e-05	0.000000e+00	2.386677e-01	

Index   time            v(1)            v(2)            
--------------------------------------------------------------------------------
113	9.320000e-05	0.000000e+00	2.384292e-01	
114	9.420000e-05	0.000000e+00	2.381909e-01	
115	9.520000e-05	0.000000e+00	2.379528e-01	
116	9.620000e-05	0.000000e+00	2.377150e-01	
117	9.720000e-05	0.000000e+00	2.374774e-01	
118	9.820000e-05	0.000000e+00	2.372400e-01	
119	9.920000e-05	0.000000e+00	2.370029e-01	
120	1.000000e-04	0.000000e+00	2.368134e-01	
121	1.001000e-04	5.000000e-01	2.368397e-01	
122	1.003000e-04	1.500000e+00	2.369923e-01	
123	1.007000e-04	3.500000e+00	2.378973e-01	
124	1.010000e-04	5.000000e+00	2.391008e-01	
125	1.010800e-04	5.000000e+00	2.394816e-01	
126	1.012400e-04	5.000000e+00	2.402432e-01	
127	1.015600e-04	5.000000e+00	2.417661e-01	
128	1.022000e-04	5.000000e+00	2.448104e-01	
129	1.032000e-04	5.000000e+00	2.495632e-01	
130	1.042000e-04	5.000000e+00	2.543113e-01	
131	1.052000e-04	5.000000e+00	2.590546e-01	
132	1.062000e-04	5.000000e+00	2.637932e-01	
133	1.072000e-04	5.000000e+00	2.685270e-01	
134	1.082000e-04	5.000000e+00	2.732561e-01	
135	1.092000e-04	5.000000e+00	2.779805e-01	
136	1.102000e-04	5.000000e+00	2.827002e-01	
137	1.112000e-04	5.000000e+00	2.874151e-01	
138	1.122000e-04	5.000000e+00	2.921253e-01	
139	1.132000e-04	5.000000e+00	2.968309e-01	
140	1.142000e-04	5.000000e+00	3.015317e-01	
141	1.152000e-04	5.000000e+00	3.062278e-01	
142	1.162000e-04	5.000000e+00	3.109192e-01	
143	1.172000e-04	5.000000e+00	3.156060e-01	
144	1.182000e-04	5.000000e+00	3.202880e-01	
145	1.192000e-04	5.000000e+00	3.249654e-01	
146	1.202000e-04	5.000000e+00	3.296381e-01	
147	1.212000e-04	5.000000e+00	3.343061e-01	
148	1.222000e-04	5.000000e+00	3.389695e-01	
149	1.232000e-04	5.000000e+00	3.436282e-01	
150	1.242000e-04	5.000000e+00	3.482822e-01	
151	1.252000e-04	5.000000e+00	3.529316e-01	
152	1.262000e-04	5.000000e+00	3.575764e-01	
153	1.272000e-04	5.000000e+00	3.622165e-01	
154	1.282000e-04	5.000000e+00	3.668519e-01	
155	1.292000e-04	5.000000e+00	3.714828e-01	
156	1.302000e-04	5.000000e+00	3.761090e-01	
157	1.312000e-04	5.000000e+00	3.807305e-01	
158	1.322000e-04	5.000000e+00	3.853475e-01	
159	1.332000e-04	5.000000e+00	3.899599e-01	
160	1.342000e-04	5.000000e+00	3.945676e-01	
161	1.352000e-04	5.000000e+00	3.991707e-01	
162	1.362000e-04	5.000000e+00	4.037693e-01	
163	1.372000e-04	5.000000e+00	4.083632e-01	
164	1.382000e-04	5.000000e+00	4.129525e-01	
165	1.392000e-04	5.000000e+00	4.175373e-01	
166	1.402000e-04	5.000000e+00	4.221175e-01	
167	1.412000e-04	5.000000e+00	4.266931e-01	
168	1.422000e-04	5.000000e+00	4.312641e-01	
169	1.432000e-04	5.000000e+00	4.358305e-01	
170	1.442000e-04	5.000000e+00	4.403924e-01	

Index   time            v(1)            v(2)            
--------------------------------------------------------------------------------
171	1.452000e-04	5.000000e+00	4.449497e-01	
172	1.462000e-04	5.000000e+00	4.495025e-01	
173	1.472000e-04	5.000000e+00	4.540507e-01	
174	1.482000e-04	5.000000e+00	4.585944e-01	
175	1.492000e-04	5.000000e+00	4.631336e-01	
176	1.502000e-04	5.000000e+00	4.676682e-01	
177	1.510000e-04	5.000000e+00	4.712926e-01	
178	1.511000e-04	4.500000e+00	4.716954e-01	
179	1.513000e-04	3.500000e+00	4.724010e-01	
180	1.517000e-04	1.500000e+00	4.732119e-01	
181	1.520000e-04	0.000000e+00	4.732949e-01	
182	1.520800e-04	0.000000e+00	4.732570e-01	
183	1.522400e-04	0.000000e+00	4.731813e-01	
184	1.525600e-04	0.000000e+00	4.730299e-01	
185	1.532000e-04	0.000000e+00	4.727273e-01	
186	1.542000e-04	0.000000e+00	4.722548e-01	
187	1.552000e-04	0.000000e+00	4.717828e-01	
188	1.562000e-04	0.000000e+00	4.713112e-01	
189	1.572000e-04	0.000000e+00	4.708401e-01	
190	1.582000e-04	0.000000e+00	4.703695e-01	
191	1.592000e-04	0.000000e+00	4.698994e-01	
192	1.602000e-04	0.000000e+00	4.694297e-01	
193	1.612000e-04	0.000000e+00	4.689605e-01	
194	1.622000e-04	0.000000e+00	4.684918e-01	
195	1.632000e-04	0.000000e+00	4.680236e-01	
196	1.642000e-04	0.000000e+00	4.675558e-01	
197	1.652000e-04	0.000000e+00	4.670885e-01	
198	1.662000e-04	0.000000e+00	4.666216e-01	
199	1.672000e-04	0.000000e+00	4.661552e-01	
200	1.682000e-04	0.000000e+00	4.656893e-01	
201	1.692000e-04	0.000000e+00	4.652238e-01	
202	1.702000e-04	0.000000e+00	4.647588e-01	
203	1.712000e-04	0.000000e+00	4.642943e-01	
204	1.722000e-04	0.000000e+00	4.638303e-01	
205	1.732000e-04	0.000000e+00	4.633667e-01	
206	1.742000e-04	0.000000e+00	4.629035e-01	
207	1.752000e-04	0.000000e+00	4.624408e-01	
208	1.762000e-04	0.000000e+00	4.619786e-01	
209	1.772000e-04	0.000000e+00	4.615169e-01	
210	1.782000e-04	0.000000e+00	4.610556e-01	
211	1.792000e-04	0.000000e+00	4.605948e-01	
212	1.802000e-04	0.000000e+00	4.601344e-01	
213	1.812000e-04	0.000000e+00	4.596745e-01	
214	1.822000e-04	0.000000e+00	4.592151e-01	
215	1.832000e-04	0.000000e+00	4.587561e-01	
216	1.842000e-04	0.000000e+00	4.582975e-01	
217	1.852000e-04	0.000000e+00	4.578395e-01	
218	1.862000e-04	0.000000e+00	4.573819e-01	
219	1.872000e-04	0.000000e+00	4.569247e-01	
220	1.882000e-04	0.000000e+00	4.564680e-01	
221	1.892000e-04	0.000000e+00	4.560118e-01	
222	1.902000e-04	0.000000e+00	4.555560e-01	
223	1.912000e-04	0.000000e+00	4.551007e-01	
224	1.922000e-04	0.000000e+00	4.546458e-01	
225	1.932000e-04	0.000000e+00	4.541914e-01	
226	1.942000e-04	0.000000e+00	4.537374e-01	
227	1.952000e-04	0.000000e+00	4.532839e-01	
228	1.962000e-04	0.000000e+00	4.528308e-01	

Index   time            v(1)            v(2)            
--------------------------------------------------------------------------------
229	1.972000e-04	0.000000e+00	4.523782e-01	
230	1.982000e-04	0.000000e+00	4.519261e-01	
231	1.992000e-04	0.000000e+00	4.514744e-01	
232	2.000000e-04	0.000000e+00	4.511134e-01	
233	2.001000e-04	5.000000e-01	4.511182e-01	
234	2.003000e-04	1.500000e+00	4.512280e-01	
235	2.007000e-04	3.500000e+00	4.520474e-01	
236	2.010000e-04	5.000000e+00	4.531866e-01	
237	2.010800e-04	5.000000e+00	4.535503e-01	
238	2.012400e-04	5.000000e+00	4.542777e-01	
239	2.015600e-04	5.000000e+00	4.557321e-01	
240	2.022000e-04	5.000000e+00	4.586395e-01	
241	2.032000e-04	5.000000e+00	4.631785e-01	
242	2.042000e-04	5.000000e+00	4.677131e-01	
243	2.052000e-04	5.000000e+00	4.722431e-01	
244	2.062000e-04	5.000000e+00	4.767686e-01	
245	2.072000e-04	5.000000e+00	4.812896e-01	
246	2.082000e-04	5.000000e+00	4.858060e-01	
247	2.092000e-04	5.000000e+00	4.903180e-01	
248	2.102000e-04	5.000000e+00	4.948254e-01	
249	2.112000e-04	5.000000e+00	4.993283e-01	
250	2.122000e-04	5.000000e+00	5.038268e-01	
251	2.132000e-04	5.000000e+00	5.083207e-01	
252	2.142000e-04	5.000000e+00	5.128101e-01	
253	2.152000e-04	5.000000e+00	5.172951e-01	
254	2.162000e-04	5.000000e+00	5.217755e-01	
255	2.172000e-04	5.000000e+00	5.262515e-01	
256	2.182000e-04	5.000000e+00	5.307230e-01	
257	2.192000e-04	5.000000e+00	5.351901e-01	
258	2.202000e-04	5.000000e+00	5.396526e-01	
259	2.212000e-04	5.000000e+00	5.441108e-01	
260	2.222000e-04	5.000000e+00	5.485644e-01	
261	2.232000e-04	5.000000e+00	5.530136e-01	
262	2.242000e-04	5.000000e+00	5.574584e-01	
263	2.252000e-04	5.000000e+00	5.618987e-01	
264	2.262000e-04	5.000000e+00	5.663346e-01	
265	2.272000e-04	5.000000e+00	5.707661e-01	
266	2.282000e-04	5.000000e+00	5.751931e-01	
267	2.292000e-04	5.000000e+00	5.796157e-01	
268	2.302000e-04	5.000000e+00	5.840338e-01	
269	2.312000e-04	5.000000e+00	5.884476e-01	
270	2.322000e-04	5.000000e+00	5.928570e-01	
271	2.332000e-04	5.000000e+00	5.972619e-01	
272	2.342000e-04	5.000000e+00	6.016624e-01	
273	2.352000e-04	5.000000e+00	6.060586e-01	
274	2.362000e-04	5.000000e+00	6.104503e-01	
275	2.372000e-04	5.000000e+00	6.148377e-01	
276	2.382000e-04	5.000000e+00	6.192206e-01	
277	2.392000e-04	5.000000e+00	6.235992e-01	
278	2.402000e-04	5.000000e+00	6.279734e-01	
279	2.412000e-04	5.000000e+00	6.323433e-01	
280	2.422000e-04	5.000000e+00	6.367088e-01	
281	2.432000e-04	5.000000e+00	6.410699e-01	
282	2.442000e-04	5.000000e+00	6.454266e-01	
283	2.452000e-04	5.000000e+00	6.497790e-01	
284	2.462000e-04	5.000000e+00	6.541271e-01	
285	2.472000e-04	5.000000e+00	6.584708e-01	
286	2.482000e-04	5.000000e+00	6.628101e-01	

Index   time            v(1)            v(2)            
--------------------------------------------------------------------------------
287	2.492000e-04	5.000000e+00	6.671452e-01	
288	2.502000e-04	5.000000e+00	6.714758e-01	
289	2.510000e-04	5.000000e+00	6.749373e-01	
290	2.511000e-04	4.500000e+00	6.753197e-01	
291	2.513000e-04	3.500000e+00	6.759846e-01	
292	2.517000e-04	1.500000e+00	6.767141e-01	
293	2.520000e-04	0.000000e+00	6.767361e-01	
294	2.520800e-04	0.000000e+00	6.766819e-01	
295	2.522400e-04	0.000000e+00	6.765737e-01	
296	2.525600e-04	0.000000e+00	6.763572e-01	
297	2.532000e-04	0.000000e+00	6.759245e-01	
298	2.542000e-04	0.000000e+00	6.752489e-01	
299	2.552000e-04	0.000000e+00	6.745740e-01	
300	2.562000e-04	0.000000e+00	6.738997e-01	
301	2.572000e-04	0.000000e+00	6.732262e-01	
302	2.582000e-04	0.000000e+00	6.725533e-01	
303	2.592000e-04	0.000000e+00	6.718811e-01	
304	2.602000e-04	0.000000e+00	6.712095e-01	
305	2.612000e-04	0.000000e+00	6.705386e-01	
306	2.622000e-04	0.000000e+00	6.698684e-01	
307	2.632000e-04	0.000000e+00	6.691989e-01	
308	2.642000e-04	0.000000e+00	6.685300e-01	
309	2.652000e-04	0.000000e+00	6.678618e-01	
310	2.662000e-04	0.000000e+00	6.671943e-01	
311	2.672000e-04	0.000000e+00	6.665275e-01	
312	2.682000e-04	0.000000e+00	6.658613e-01	
313	2.692000e-04	0.000000e+00	6.651957e-01	
314	2.702000e-04	0.000000e+00	6.645309e-01	
315	2.712000e-04	0.000000e+00	6.638667e-01	
316	2.722000e-04	0.000000e+00	6.632031e-01	
317	2.732000e-04	0.000000e+00	6.625403e-01	
318	2.742000e-04	0.000000e+00	6.618781e-01	
319	2.752000e-04	0.000000e+00	6.612165e-01	
320	2.762000e-04	0.000000e+00	6.605556e-01	
321	2.772000e-04	0.000000e+00	6.598954e-01	
322	2.782000e-04	0.000000e+00	6.592358e-01	
323	2.792000e-04	0.000000e+00	6.585769e-01	
324	2.802000e-04	0.000000e+00	6.579187e-01	
325	2.812000e-04	0.000000e+00	6.572611e-01	
326	2.822000e-04	0.000000e+00	6.566042e-01	
327	2.832000e-04	0.000000e+00	6.559479e-01	
328	2.842000e-04	0.000000e+00	6.552923e-01	
329	2.852000e-04	0.000000e+00	6.546373e-01	
330	2.862000e-04	0.000000e+00	6.539830e-01	
331	2.872000e-04	0.000000e+00	6.533293e-01	
332	2.882000e-04	0.000000e+00	6.526763e-01	
333	2.892000e-04	0.000000e+00	6.520240e-01	
334	2.902000e-04	0.000000e+00	6.513723e-01	
335	2.912000e-04	0.000000e+00	6.507212e-01	
336	2.922000e-04	0.000000e+00	6.500708e-01	
337	2.932000e-04	0.000000e+00	6.494211e-01	
338	2.942000e-04	0.000000e+00	6.487720e-01	
339	2.952000e-04	0.000000e+00	6.481235e-01	
340	2.962000e-04	0.000000e+00	6.474757e-01	
341	2.972000e-04	0.000000e+00	6.468286e-01	
342	2.982000e-04	0.000000e+00	6.461821e-01	
343	2.992000e-04	0.000000e+00	6.455362e-01	
344	3.000000e-04	0.000000e+00	6.450200e-01	
