
Circuit: rc integrator

                                 rc integrator
                                 Transient Analysis  Tue Jan 11 15:59:22  2022
--------------------------------------------------------------------------------
Index   time            v(1)            v(2)            
--------------------------------------------------------------------------------
0	0.000000e+00	0.000000e+00	0.000000e+00	
1	2.000000e-07	5.000000e-02	9.998000e-06	
2	2.168022e-07	5.420056e-02	1.090851e-05	
3	2.504067e-07	6.260168e-02	1.287065e-05	
4	3.176157e-07	7.940392e-02	1.764165e-05	
5	4.520336e-07	1.130084e-01	3.057024e-05	
6	7.208694e-07	1.802174e-01	6.997152e-05	
7	1.258541e-06	3.146353e-01	2.029323e-04	
8	2.333884e-06	5.834711e-01	6.853411e-04	
9	4.484571e-06	1.121143e+00	2.514945e-03	
10	8.785945e-06	2.196486e+00	9.624018e-03	
11	1.738869e-05	4.347173e+00	3.756775e-02	
12	2.000000e-05	5.000000e+00	4.965804e-02	
13	2.172055e-05	5.000000e+00	5.816072e-02	
14	2.516165e-05	5.000000e+00	7.513687e-02	
15	3.204385e-05	5.000000e+00	1.089145e-01	
16	4.580824e-05	5.000000e+00	1.757772e-01	
17	6.580824e-05	5.000000e+00	2.713064e-01	
18	8.580824e-05	5.000000e+00	3.649438e-01	
19	1.058082e-04	5.000000e+00	4.567271e-01	
20	1.258082e-04	5.000000e+00	5.466929e-01	
21	1.458082e-04	5.000000e+00	6.348772e-01	
22	1.658082e-04	5.000000e+00	7.213153e-01	
23	1.858082e-04	5.000000e+00	8.060417e-01	
24	2.058082e-04	5.000000e+00	8.890904e-01	
25	2.258082e-04	5.000000e+00	9.704946e-01	
26	2.458082e-04	5.000000e+00	1.050287e+00	
27	2.658082e-04	5.000000e+00	1.128499e+00	
28	2.858082e-04	5.000000e+00	1.205162e+00	
29	3.058082e-04	5.000000e+00	1.280308e+00	
30	3.258082e-04	5.000000e+00	1.353965e+00	
31	3.458082e-04	5.000000e+00	1.426164e+00	
32	3.658082e-04	5.000000e+00	1.496933e+00	
33	3.858082e-04	5.000000e+00	1.566300e+00	
34	4.058082e-04	5.000000e+00	1.634294e+00	
35	4.258082e-04	5.000000e+00	1.700942e+00	
36	4.458082e-04	5.000000e+00	1.766270e+00	
37	4.658082e-04	5.000000e+00	1.830304e+00	
38	4.858082e-04	5.000000e+00	1.893070e+00	
39	5.058082e-04	5.000000e+00	1.954594e+00	
40	5.258082e-04	5.000000e+00	2.014899e+00	
41	5.458082e-04	5.000000e+00	2.074010e+00	
42	5.658082e-04	5.000000e+00	2.131950e+00	
43	5.858082e-04	5.000000e+00	2.188743e+00	
44	6.058082e-04	5.000000e+00	2.244412e+00	
45	6.258082e-04	5.000000e+00	2.298978e+00	
46	6.458082e-04	5.000000e+00	2.352463e+00	
47	6.658082e-04	5.000000e+00	2.404890e+00	
48	6.858082e-04	5.000000e+00	2.456278e+00	
49	7.058082e-04	5.000000e+00	2.506649e+00	
50	7.258082e-04	5.000000e+00	2.556022e+00	
51	7.458082e-04	5.000000e+00	2.604418e+00	
52	7.658082e-04	5.000000e+00	2.651855e+00	
53	7.858082e-04	5.000000e+00	2.698353e+00	
54	8.058082e-04	5.000000e+00	2.743930e+00	

Index   time            v(1)            v(2)            
--------------------------------------------------------------------------------
55	8.258082e-04	5.000000e+00	2.788605e+00	
56	8.458082e-04	5.000000e+00	2.832395e+00	
57	8.658082e-04	5.000000e+00	2.875318e+00	
58	8.858082e-04	5.000000e+00	2.917391e+00	
59	9.058082e-04	5.000000e+00	2.958630e+00	
60	9.258082e-04	5.000000e+00	2.999054e+00	
61	9.458082e-04	5.000000e+00	3.038676e+00	
62	9.658082e-04	5.000000e+00	3.077514e+00	
63	9.858082e-04	5.000000e+00	3.115583e+00	
64	1.005808e-03	5.000000e+00	3.152899e+00	
65	1.025808e-03	5.000000e+00	3.189475e+00	
66	1.045808e-03	5.000000e+00	3.225327e+00	
67	1.065808e-03	5.000000e+00	3.260469e+00	
68	1.085808e-03	5.000000e+00	3.294915e+00	
69	1.105808e-03	5.000000e+00	3.328679e+00	
70	1.125808e-03	5.000000e+00	3.361774e+00	
71	1.145808e-03	5.000000e+00	3.394215e+00	
72	1.165808e-03	5.000000e+00	3.426012e+00	
73	1.185808e-03	5.000000e+00	3.457180e+00	
74	1.205808e-03	5.000000e+00	3.487731e+00	
75	1.225808e-03	5.000000e+00	3.517677e+00	
76	1.245808e-03	5.000000e+00	3.547030e+00	
77	1.265808e-03	5.000000e+00	3.575802e+00	
78	1.285808e-03	5.000000e+00	3.604004e+00	
79	1.305808e-03	5.000000e+00	3.631647e+00	
80	1.325808e-03	5.000000e+00	3.658743e+00	
81	1.345808e-03	5.000000e+00	3.685303e+00	
82	1.365808e-03	5.000000e+00	3.711336e+00	
83	1.385808e-03	5.000000e+00	3.736855e+00	
84	1.405808e-03	5.000000e+00	3.761867e+00	
85	1.425808e-03	5.000000e+00	3.786385e+00	
86	1.445808e-03	5.000000e+00	3.810417e+00	
87	1.465808e-03	5.000000e+00	3.833973e+00	
88	1.485808e-03	5.000000e+00	3.857063e+00	
89	1.505808e-03	5.000000e+00	3.879695e+00	
90	1.525808e-03	5.000000e+00	3.901879e+00	
91	1.545808e-03	5.000000e+00	3.923624e+00	
92	1.565808e-03	5.000000e+00	3.944939e+00	
93	1.585808e-03	5.000000e+00	3.965831e+00	
94	1.605808e-03	5.000000e+00	3.986309e+00	
95	1.625808e-03	5.000000e+00	4.006383e+00	
96	1.645808e-03	5.000000e+00	4.026058e+00	
97	1.665808e-03	5.000000e+00	4.045344e+00	
98	1.685808e-03	5.000000e+00	4.064248e+00	
99	1.705808e-03	5.000000e+00	4.082778e+00	
100	1.725808e-03	5.000000e+00	4.100941e+00	
101	1.745808e-03	5.000000e+00	4.118744e+00	
102	1.765808e-03	5.000000e+00	4.136195e+00	
103	1.785808e-03	5.000000e+00	4.153300e+00	
104	1.805808e-03	5.000000e+00	4.170066e+00	
105	1.825808e-03	5.000000e+00	4.186500e+00	
106	1.845808e-03	5.000000e+00	4.202609e+00	
107	1.865808e-03	5.000000e+00	4.218399e+00	
108	1.885808e-03	5.000000e+00	4.233876e+00	
109	1.905808e-03	5.000000e+00	4.249047e+00	
110	1.925808e-03	5.000000e+00	4.263917e+00	
111	1.945808e-03	5.000000e+00	4.278493e+00	
112	1.965808e-03	5.000000e+00	4.292781e+00	

Index   time            v(1)            v(2)            
--------------------------------------------------------------------------------
113	1.985808e-03	5.000000e+00	4.306785e+00	
114	2.005808e-03	5.000000e+00	4.320512e+00	
115	2.025808e-03	5.000000e+00	4.333967e+00	
116	2.045808e-03	5.000000e+00	4.347156e+00	
117	2.065808e-03	5.000000e+00	4.360084e+00	
118	2.085808e-03	5.000000e+00	4.372755e+00	
119	2.105808e-03	5.000000e+00	4.385176e+00	
120	2.125808e-03	5.000000e+00	4.397351e+00	
121	2.145808e-03	5.000000e+00	4.409284e+00	
122	2.165808e-03	5.000000e+00	4.420982e+00	
123	2.185808e-03	5.000000e+00	4.432447e+00	
124	2.205808e-03	5.000000e+00	4.443686e+00	
125	2.225808e-03	5.000000e+00	4.454702e+00	
126	2.245808e-03	5.000000e+00	4.465500e+00	
127	2.265808e-03	5.000000e+00	4.476084e+00	
128	2.285808e-03	5.000000e+00	4.486459e+00	
129	2.305808e-03	5.000000e+00	4.496628e+00	
130	2.325808e-03	5.000000e+00	4.506596e+00	
131	2.345808e-03	5.000000e+00	4.516366e+00	
132	2.365808e-03	5.000000e+00	4.525943e+00	
133	2.385808e-03	5.000000e+00	4.535330e+00	
134	2.405808e-03	5.000000e+00	4.544532e+00	
135	2.425808e-03	5.000000e+00	4.553551e+00	
136	2.445808e-03	5.000000e+00	4.562391e+00	
137	2.465808e-03	5.000000e+00	4.571057e+00	
138	2.485808e-03	5.000000e+00	4.579551e+00	
139	2.505808e-03	5.000000e+00	4.587877e+00	
140	2.525808e-03	5.000000e+00	4.596037e+00	
141	2.545808e-03	5.000000e+00	4.604037e+00	
142	2.565808e-03	5.000000e+00	4.611878e+00	
143	2.585808e-03	5.000000e+00	4.619563e+00	
144	2.605808e-03	5.000000e+00	4.627097e+00	
145	2.625808e-03	5.000000e+00	4.634481e+00	
146	2.645808e-03	5.000000e+00	4.641719e+00	
147	2.665808e-03	5.000000e+00	4.648813e+00	
148	2.685808e-03	5.000000e+00	4.655768e+00	
149	2.705808e-03	5.000000e+00	4.662584e+00	
150	2.725808e-03	5.000000e+00	4.669266e+00	
151	2.745808e-03	5.000000e+00	4.675815e+00	
152	2.765808e-03	5.000000e+00	4.682234e+00	
153	2.785808e-03	5.000000e+00	4.688527e+00	
154	2.805808e-03	5.000000e+00	4.694694e+00	
155	2.825808e-03	5.000000e+00	4.700740e+00	
156	2.845808e-03	5.000000e+00	4.706666e+00	
157	2.865808e-03	5.000000e+00	4.712475e+00	
158	2.885808e-03	5.000000e+00	4.718168e+00	
159	2.905808e-03	5.000000e+00	4.723749e+00	
160	2.925808e-03	5.000000e+00	4.729219e+00	
161	2.945808e-03	5.000000e+00	4.734581e+00	
162	2.965808e-03	5.000000e+00	4.739837e+00	
163	2.985808e-03	5.000000e+00	4.744989e+00	
164	3.005808e-03	5.000000e+00	4.750039e+00	
165	3.025808e-03	5.000000e+00	4.754988e+00	
166	3.045808e-03	5.000000e+00	4.759840e+00	
167	3.065808e-03	5.000000e+00	4.764596e+00	
168	3.085808e-03	5.000000e+00	4.769257e+00	
169	3.105808e-03	5.000000e+00	4.773826e+00	
170	3.125808e-03	5.000000e+00	4.778305e+00	

Index   time            v(1)            v(2)            
--------------------------------------------------------------------------------
171	3.145808e-03	5.000000e+00	4.782695e+00	
172	3.165808e-03	5.000000e+00	4.786998e+00	
173	3.185808e-03	5.000000e+00	4.791216e+00	
174	3.205808e-03	5.000000e+00	4.795350e+00	
175	3.225808e-03	5.000000e+00	4.799403e+00	
176	3.245808e-03	5.000000e+00	4.803375e+00	
177	3.265808e-03	5.000000e+00	4.807269e+00	
178	3.285808e-03	5.000000e+00	4.811085e+00	
179	3.305808e-03	5.000000e+00	4.814826e+00	
180	3.325808e-03	5.000000e+00	4.818493e+00	
181	3.345808e-03	5.000000e+00	4.822087e+00	
182	3.365808e-03	5.000000e+00	4.825610e+00	
183	3.385808e-03	5.000000e+00	4.829063e+00	
184	3.405808e-03	5.000000e+00	4.832448e+00	
185	3.425808e-03	5.000000e+00	4.835766e+00	
186	3.445808e-03	5.000000e+00	4.839018e+00	
187	3.465808e-03	5.000000e+00	4.842206e+00	
188	3.485808e-03	5.000000e+00	4.845331e+00	
189	3.505808e-03	5.000000e+00	4.848393e+00	
190	3.525808e-03	5.000000e+00	4.851395e+00	
191	3.545808e-03	5.000000e+00	4.854338e+00	
192	3.565808e-03	5.000000e+00	4.857222e+00	
193	3.585808e-03	5.000000e+00	4.860050e+00	
194	3.605808e-03	5.000000e+00	4.862821e+00	
195	3.625808e-03	5.000000e+00	4.865537e+00	
196	3.645808e-03	5.000000e+00	4.868200e+00	
197	3.665808e-03	5.000000e+00	4.870810e+00	
198	3.685808e-03	5.000000e+00	4.873368e+00	
199	3.705808e-03	5.000000e+00	4.875876e+00	
200	3.725808e-03	5.000000e+00	4.878334e+00	
201	3.745808e-03	5.000000e+00	4.880743e+00	
202	3.765808e-03	5.000000e+00	4.883104e+00	
203	3.785808e-03	5.000000e+00	4.885419e+00	
204	3.805808e-03	5.000000e+00	4.887688e+00	
205	3.825808e-03	5.000000e+00	4.889912e+00	
206	3.845808e-03	5.000000e+00	4.892092e+00	
207	3.865808e-03	5.000000e+00	4.894229e+00	
208	3.885808e-03	5.000000e+00	4.896323e+00	
209	3.905808e-03	5.000000e+00	4.898376e+00	
210	3.925808e-03	5.000000e+00	4.900389e+00	
211	3.945808e-03	5.000000e+00	4.902361e+00	
212	3.965808e-03	5.000000e+00	4.904295e+00	
213	3.985808e-03	5.000000e+00	4.906190e+00	
214	4.005808e-03	5.000000e+00	4.908047e+00	
215	4.025808e-03	5.000000e+00	4.909868e+00	
216	4.045808e-03	5.000000e+00	4.911653e+00	
217	4.065808e-03	5.000000e+00	4.913403e+00	
218	4.085808e-03	5.000000e+00	4.915117e+00	
219	4.105808e-03	5.000000e+00	4.916798e+00	
220	4.125808e-03	5.000000e+00	4.918446e+00	
221	4.145808e-03	5.000000e+00	4.920061e+00	
222	4.165808e-03	5.000000e+00	4.921644e+00	
223	4.185808e-03	5.000000e+00	4.923195e+00	
224	4.205808e-03	5.000000e+00	4.924716e+00	
225	4.225808e-03	5.000000e+00	4.926207e+00	
226	4.245808e-03	5.000000e+00	4.927668e+00	
227	4.265808e-03	5.000000e+00	4.929100e+00	
228	4.285808e-03	5.000000e+00	4.930504e+00	

Index   time            v(1)            v(2)            
--------------------------------------------------------------------------------
229	4.305808e-03	5.000000e+00	4.931881e+00	
230	4.325808e-03	5.000000e+00	4.933229e+00	
231	4.345808e-03	5.000000e+00	4.934552e+00	
232	4.365808e-03	5.000000e+00	4.935848e+00	
233	4.385808e-03	5.000000e+00	4.937118e+00	
234	4.405808e-03	5.000000e+00	4.938363e+00	
235	4.425808e-03	5.000000e+00	4.939584e+00	
236	4.445808e-03	5.000000e+00	4.940780e+00	
237	4.465808e-03	5.000000e+00	4.941953e+00	
238	4.485808e-03	5.000000e+00	4.943102e+00	
239	4.505808e-03	5.000000e+00	4.944229e+00	
240	4.525808e-03	5.000000e+00	4.945333e+00	
241	4.545808e-03	5.000000e+00	4.946416e+00	
242	4.565808e-03	5.000000e+00	4.947477e+00	
243	4.585808e-03	5.000000e+00	4.948517e+00	
244	4.605808e-03	5.000000e+00	4.949536e+00	
245	4.625808e-03	5.000000e+00	4.950536e+00	
246	4.645808e-03	5.000000e+00	4.951515e+00	
247	4.665808e-03	5.000000e+00	4.952475e+00	
248	4.685808e-03	5.000000e+00	4.953416e+00	
249	4.705808e-03	5.000000e+00	4.954339e+00	
250	4.725808e-03	5.000000e+00	4.955243e+00	
251	4.745808e-03	5.000000e+00	4.956129e+00	
252	4.765808e-03	5.000000e+00	4.956998e+00	
253	4.785808e-03	5.000000e+00	4.957849e+00	
254	4.805808e-03	5.000000e+00	4.958684e+00	
255	4.825808e-03	5.000000e+00	4.959502e+00	
256	4.845808e-03	5.000000e+00	4.960304e+00	
257	4.865808e-03	5.000000e+00	4.961090e+00	
258	4.885808e-03	5.000000e+00	4.961861e+00	
259	4.905808e-03	5.000000e+00	4.962616e+00	
260	4.925808e-03	5.000000e+00	4.963356e+00	
261	4.945808e-03	5.000000e+00	4.964082e+00	
262	4.965808e-03	5.000000e+00	4.964793e+00	
263	4.985808e-03	5.000000e+00	4.965490e+00	
264	5.005808e-03	5.000000e+00	4.966174e+00	
265	5.025808e-03	5.000000e+00	4.966843e+00	
266	5.045808e-03	5.000000e+00	4.967500e+00	
267	5.065808e-03	5.000000e+00	4.968144e+00	
268	5.085808e-03	5.000000e+00	4.968774e+00	
269	5.105808e-03	5.000000e+00	4.969393e+00	
270	5.125808e-03	5.000000e+00	4.969999e+00	
271	5.145808e-03	5.000000e+00	4.970593e+00	
272	5.165808e-03	5.000000e+00	4.971175e+00	
273	5.185808e-03	5.000000e+00	4.971746e+00	
274	5.205808e-03	5.000000e+00	4.972306e+00	
275	5.225808e-03	5.000000e+00	4.972854e+00	
276	5.245808e-03	5.000000e+00	4.973391e+00	
277	5.265808e-03	5.000000e+00	4.973918e+00	
278	5.285808e-03	5.000000e+00	4.974435e+00	
279	5.305808e-03	5.000000e+00	4.974941e+00	
280	5.325808e-03	5.000000e+00	4.975437e+00	
281	5.345808e-03	5.000000e+00	4.975924e+00	
282	5.365808e-03	5.000000e+00	4.976400e+00	
283	5.385808e-03	5.000000e+00	4.976868e+00	
284	5.405808e-03	5.000000e+00	4.977326e+00	
285	5.425808e-03	5.000000e+00	4.977775e+00	
286	5.445808e-03	5.000000e+00	4.978215e+00	

Index   time            v(1)            v(2)            
--------------------------------------------------------------------------------
287	5.465808e-03	5.000000e+00	4.978646e+00	
288	5.485808e-03	5.000000e+00	4.979069e+00	
289	5.505808e-03	5.000000e+00	4.979484e+00	
290	5.525808e-03	5.000000e+00	4.979890e+00	
291	5.545808e-03	5.000000e+00	4.980288e+00	
292	5.565808e-03	5.000000e+00	4.980678e+00	
293	5.585808e-03	5.000000e+00	4.981061e+00	
294	5.605808e-03	5.000000e+00	4.981436e+00	
295	5.625808e-03	5.000000e+00	4.981804e+00	
296	5.645808e-03	5.000000e+00	4.982164e+00	
297	5.665808e-03	5.000000e+00	4.982517e+00	
298	5.685808e-03	5.000000e+00	4.982863e+00	
299	5.705808e-03	5.000000e+00	4.983203e+00	
300	5.725808e-03	5.000000e+00	4.983535e+00	
301	5.745808e-03	5.000000e+00	4.983861e+00	
302	5.765808e-03	5.000000e+00	4.984181e+00	
303	5.785808e-03	5.000000e+00	4.984494e+00	
304	5.805808e-03	5.000000e+00	4.984801e+00	
305	5.825808e-03	5.000000e+00	4.985102e+00	
306	5.845808e-03	5.000000e+00	4.985397e+00	
307	5.865808e-03	5.000000e+00	4.985686e+00	
308	5.885808e-03	5.000000e+00	4.985970e+00	
309	5.905808e-03	5.000000e+00	4.986248e+00	
310	5.925808e-03	5.000000e+00	4.986520e+00	
311	5.945808e-03	5.000000e+00	4.986787e+00	
312	5.965808e-03	5.000000e+00	4.987049e+00	
313	5.985808e-03	5.000000e+00	4.987305e+00	
314	6.005808e-03	5.000000e+00	4.987556e+00	
315	6.025808e-03	5.000000e+00	4.987803e+00	
316	6.045808e-03	5.000000e+00	4.988044e+00	
317	6.065808e-03	5.000000e+00	4.988281e+00	
318	6.085808e-03	5.000000e+00	4.988513e+00	
319	6.105808e-03	5.000000e+00	4.988741e+00	
320	6.125808e-03	5.000000e+00	4.988964e+00	
321	6.145808e-03	5.000000e+00	4.989182e+00	
322	6.165808e-03	5.000000e+00	4.989396e+00	
323	6.185808e-03	5.000000e+00	4.989606e+00	
324	6.205808e-03	5.000000e+00	4.989812e+00	
325	6.225808e-03	5.000000e+00	4.990014e+00	
326	6.245808e-03	5.000000e+00	4.990212e+00	
327	6.265808e-03	5.000000e+00	4.990405e+00	
328	6.285808e-03	5.000000e+00	4.990595e+00	
329	6.305808e-03	5.000000e+00	4.990782e+00	
330	6.325808e-03	5.000000e+00	4.990964e+00	
331	6.345808e-03	5.000000e+00	4.991143e+00	
332	6.365808e-03	5.000000e+00	4.991319e+00	
333	6.385808e-03	5.000000e+00	4.991490e+00	
334	6.405808e-03	5.000000e+00	4.991659e+00	
335	6.425808e-03	5.000000e+00	4.991824e+00	
336	6.445808e-03	5.000000e+00	4.991986e+00	
337	6.465808e-03	5.000000e+00	4.992145e+00	
338	6.485808e-03	5.000000e+00	4.992300e+00	
339	6.505808e-03	5.000000e+00	4.992453e+00	
340	6.525808e-03	5.000000e+00	4.992602e+00	
341	6.545808e-03	5.000000e+00	4.992749e+00	
342	6.565808e-03	5.000000e+00	4.992892e+00	
343	6.585808e-03	5.000000e+00	4.993033e+00	
344	6.605808e-03	5.000000e+00	4.993171e+00	

Index   time            v(1)            v(2)            
--------------------------------------------------------------------------------
345	6.625808e-03	5.000000e+00	4.993306e+00	
346	6.645808e-03	5.000000e+00	4.993439e+00	
347	6.665808e-03	5.000000e+00	4.993569e+00	
348	6.685808e-03	5.000000e+00	4.993696e+00	
349	6.705808e-03	5.000000e+00	4.993821e+00	
350	6.725808e-03	5.000000e+00	4.993943e+00	
351	6.745808e-03	5.000000e+00	4.994063e+00	
352	6.765808e-03	5.000000e+00	4.994181e+00	
353	6.785808e-03	5.000000e+00	4.994296e+00	
354	6.805808e-03	5.000000e+00	4.994409e+00	
355	6.825808e-03	5.000000e+00	4.994520e+00	
356	6.845808e-03	5.000000e+00	4.994628e+00	
357	6.865808e-03	5.000000e+00	4.994734e+00	
358	6.885808e-03	5.000000e+00	4.994839e+00	
359	6.905808e-03	5.000000e+00	4.994941e+00	
360	6.925808e-03	5.000000e+00	4.995041e+00	
361	6.945808e-03	5.000000e+00	4.995139e+00	
362	6.965808e-03	5.000000e+00	4.995236e+00	
363	6.985808e-03	5.000000e+00	4.995330e+00	
364	7.005808e-03	5.000000e+00	4.995422e+00	
365	7.025808e-03	5.000000e+00	4.995513e+00	
366	7.045808e-03	5.000000e+00	4.995602e+00	
367	7.065808e-03	5.000000e+00	4.995689e+00	
368	7.085808e-03	5.000000e+00	4.995774e+00	
369	7.105808e-03	5.000000e+00	4.995858e+00	
370	7.125808e-03	5.000000e+00	4.995940e+00	
371	7.145808e-03	5.000000e+00	4.996020e+00	
372	7.165808e-03	5.000000e+00	4.996099e+00	
373	7.185808e-03	5.000000e+00	4.996176e+00	
374	7.205808e-03	5.000000e+00	4.996252e+00	
375	7.225808e-03	5.000000e+00	4.996326e+00	
376	7.245808e-03	5.000000e+00	4.996399e+00	
377	7.265808e-03	5.000000e+00	4.996470e+00	
378	7.285808e-03	5.000000e+00	4.996540e+00	
379	7.305808e-03	5.000000e+00	4.996609e+00	
380	7.325808e-03	5.000000e+00	4.996676e+00	
381	7.345808e-03	5.000000e+00	4.996742e+00	
382	7.365808e-03	5.000000e+00	4.996806e+00	
383	7.385808e-03	5.000000e+00	4.996870e+00	
384	7.405808e-03	5.000000e+00	4.996932e+00	
385	7.425808e-03	5.000000e+00	4.996992e+00	
386	7.445808e-03	5.000000e+00	4.997052e+00	
387	7.465808e-03	5.000000e+00	4.997110e+00	
388	7.485808e-03	5.000000e+00	4.997168e+00	
389	7.505808e-03	5.000000e+00	4.997224e+00	
390	7.525808e-03	5.000000e+00	4.997279e+00	
391	7.545808e-03	5.000000e+00	4.997332e+00	
392	7.565808e-03	5.000000e+00	4.997385e+00	
393	7.585808e-03	5.000000e+00	4.997437e+00	
394	7.605808e-03	5.000000e+00	4.997488e+00	
395	7.625808e-03	5.000000e+00	4.997538e+00	
396	7.645808e-03	5.000000e+00	4.997586e+00	
397	7.665808e-03	5.000000e+00	4.997634e+00	
398	7.685808e-03	5.000000e+00	4.997681e+00	
399	7.705808e-03	5.000000e+00	4.997727e+00	
400	7.725808e-03	5.000000e+00	4.997772e+00	
401	7.745808e-03	5.000000e+00	4.997816e+00	
402	7.765808e-03	5.000000e+00	4.997859e+00	

Index   time            v(1)            v(2)            
--------------------------------------------------------------------------------
403	7.785808e-03	5.000000e+00	4.997902e+00	
404	7.805808e-03	5.000000e+00	4.997943e+00	
405	7.825808e-03	5.000000e+00	4.997984e+00	
406	7.845808e-03	5.000000e+00	4.998024e+00	
407	7.865808e-03	5.000000e+00	4.998063e+00	
408	7.885808e-03	5.000000e+00	4.998101e+00	
409	7.905808e-03	5.000000e+00	4.998139e+00	
410	7.925808e-03	5.000000e+00	4.998176e+00	
411	7.945808e-03	5.000000e+00	4.998212e+00	
412	7.965808e-03	5.000000e+00	4.998247e+00	
413	7.985808e-03	5.000000e+00	4.998282e+00	
414	8.005808e-03	5.000000e+00	4.998316e+00	
415	8.025808e-03	5.000000e+00	4.998349e+00	
416	8.045808e-03	5.000000e+00	4.998382e+00	
417	8.065808e-03	5.000000e+00	4.998414e+00	
418	8.085808e-03	5.000000e+00	4.998446e+00	
419	8.105808e-03	5.000000e+00	4.998476e+00	
420	8.125808e-03	5.000000e+00	4.998506e+00	
421	8.145808e-03	5.000000e+00	4.998536e+00	
422	8.165808e-03	5.000000e+00	4.998565e+00	
423	8.185808e-03	5.000000e+00	4.998593e+00	
424	8.205808e-03	5.000000e+00	4.998621e+00	
425	8.225808e-03	5.000000e+00	4.998649e+00	
