
Circuit: rc integrator

                                 rc integrator
                                 Transient Analysis  Wed Jan 12 23:44:23  2022
--------------------------------------------------------------------------------
Index   time            v(1)            v(2)            
--------------------------------------------------------------------------------
0	0.000000e+00	0.000000e+00	0.000000e+00	
1	2.000000e-07	5.000000e-02	9.998000e-06	
2	2.168022e-07	5.420056e-02	1.090851e-05	
3	2.504067e-07	6.260168e-02	1.287065e-05	
4	3.176157e-07	7.940392e-02	1.764165e-05	
5	4.520336e-07	1.130084e-01	3.057024e-05	
6	7.208694e-07	1.802174e-01	6.997152e-05	
7	1.258541e-06	3.146353e-01	2.029323e-04	
8	2.333884e-06	5.834711e-01	6.853411e-04	
9	4.484571e-06	1.121143e+00	2.514945e-03	
10	8.785945e-06	2.196486e+00	9.624018e-03	
11	1.738869e-05	4.347173e+00	3.756775e-02	
12	2.000000e-05	5.000000e+00	4.965804e-02	
13	2.172055e-05	5.000000e+00	5.816072e-02	
14	2.516165e-05	5.000000e+00	7.513687e-02	
15	3.204385e-05	5.000000e+00	1.089145e-01	
16	4.580824e-05	5.000000e+00	1.757772e-01	
17	6.580824e-05	5.000000e+00	2.713064e-01	
18	8.580824e-05	5.000000e+00	3.649438e-01	
19	1.058082e-04	5.000000e+00	4.567271e-01	
20	1.258082e-04	5.000000e+00	5.466929e-01	
21	1.458082e-04	5.000000e+00	6.348772e-01	
22	1.658082e-04	5.000000e+00	7.213153e-01	
23	1.858082e-04	5.000000e+00	8.060417e-01	
24	2.058082e-04	5.000000e+00	8.890904e-01	
25	2.258082e-04	5.000000e+00	9.704946e-01	
26	2.458082e-04	5.000000e+00	1.050287e+00	
27	2.658082e-04	5.000000e+00	1.128499e+00	
28	2.858082e-04	5.000000e+00	1.205162e+00	
29	3.058082e-04	5.000000e+00	1.280308e+00	
30	3.258082e-04	5.000000e+00	1.353965e+00	
31	3.458082e-04	5.000000e+00	1.426164e+00	
32	3.658082e-04	5.000000e+00	1.496933e+00	
33	3.858082e-04	5.000000e+00	1.566300e+00	
34	4.058082e-04	5.000000e+00	1.634294e+00	
35	4.258082e-04	5.000000e+00	1.700942e+00	
36	4.458082e-04	5.000000e+00	1.766270e+00	
37	4.658082e-04	5.000000e+00	1.830304e+00	
38	4.858082e-04	5.000000e+00	1.893070e+00	
39	5.058082e-04	5.000000e+00	1.954594e+00	
40	5.258082e-04	5.000000e+00	2.014899e+00	
41	5.458082e-04	5.000000e+00	2.074010e+00	
42	5.658082e-04	5.000000e+00	2.131950e+00	
43	5.858082e-04	5.000000e+00	2.188743e+00	
44	6.058082e-04	5.000000e+00	2.244412e+00	
45	6.258082e-04	5.000000e+00	2.298978e+00	
46	6.458082e-04	5.000000e+00	2.352463e+00	
47	6.658082e-04	5.000000e+00	2.404890e+00	
48	6.858082e-04	5.000000e+00	2.456278e+00	
49	7.058082e-04	5.000000e+00	2.506649e+00	
50	7.258082e-04	5.000000e+00	2.556022e+00	
51	7.458082e-04	5.000000e+00	2.604418e+00	
52	7.658082e-04	5.000000e+00	2.651855e+00	
53	7.858082e-04	5.000000e+00	2.698353e+00	
54	8.058082e-04	5.000000e+00	2.743930e+00	

Index   time            v(1)            v(2)            
--------------------------------------------------------------------------------
55	8.258082e-04	5.000000e+00	2.788605e+00	
56	8.458082e-04	5.000000e+00	2.832395e+00	
57	8.658082e-04	5.000000e+00	2.875318e+00	
58	8.858082e-04	5.000000e+00	2.917391e+00	
59	9.058082e-04	5.000000e+00	2.958630e+00	
60	9.258082e-04	5.000000e+00	2.999054e+00	
61	9.458082e-04	5.000000e+00	3.038676e+00	
62	9.658082e-04	5.000000e+00	3.077514e+00	
63	9.858082e-04	5.000000e+00	3.115583e+00	
64	1.005808e-03	5.000000e+00	3.152899e+00	
65	1.025808e-03	5.000000e+00	3.189475e+00	
66	1.045808e-03	5.000000e+00	3.225327e+00	
67	1.065808e-03	5.000000e+00	3.260469e+00	
68	1.085808e-03	5.000000e+00	3.294915e+00	
69	1.105808e-03	5.000000e+00	3.328679e+00	
70	1.125808e-03	5.000000e+00	3.361774e+00	
71	1.145808e-03	5.000000e+00	3.394215e+00	
72	1.165808e-03	5.000000e+00	3.426012e+00	
73	1.185808e-03	5.000000e+00	3.457180e+00	
74	1.205808e-03	5.000000e+00	3.487731e+00	
75	1.225808e-03	5.000000e+00	3.517677e+00	
76	1.245808e-03	5.000000e+00	3.547030e+00	
77	1.265808e-03	5.000000e+00	3.575802e+00	
78	1.285808e-03	5.000000e+00	3.604004e+00	
79	1.305808e-03	5.000000e+00	3.631647e+00	
80	1.325808e-03	5.000000e+00	3.658743e+00	
81	1.345808e-03	5.000000e+00	3.685303e+00	
82	1.365808e-03	5.000000e+00	3.711336e+00	
83	1.385808e-03	5.000000e+00	3.736855e+00	
84	1.405808e-03	5.000000e+00	3.761867e+00	
85	1.425808e-03	5.000000e+00	3.786385e+00	
86	1.445808e-03	5.000000e+00	3.810417e+00	
87	1.465808e-03	5.000000e+00	3.833973e+00	
88	1.485808e-03	5.000000e+00	3.857063e+00	
89	1.505808e-03	5.000000e+00	3.879695e+00	
90	1.525808e-03	5.000000e+00	3.901879e+00	
91	1.545808e-03	5.000000e+00	3.923624e+00	
92	1.565808e-03	5.000000e+00	3.944939e+00	
93	1.585808e-03	5.000000e+00	3.965831e+00	
94	1.605808e-03	5.000000e+00	3.986309e+00	
95	1.625808e-03	5.000000e+00	4.006383e+00	
96	1.645808e-03	5.000000e+00	4.026058e+00	
97	1.665808e-03	5.000000e+00	4.045344e+00	
98	1.685808e-03	5.000000e+00	4.064248e+00	
99	1.705808e-03	5.000000e+00	4.082778e+00	
100	1.725808e-03	5.000000e+00	4.100941e+00	
101	1.745808e-03	5.000000e+00	4.118744e+00	
102	1.765808e-03	5.000000e+00	4.136195e+00	
103	1.785808e-03	5.000000e+00	4.153300e+00	
104	1.805808e-03	5.000000e+00	4.170066e+00	
105	1.825808e-03	5.000000e+00	4.186500e+00	
106	1.845808e-03	5.000000e+00	4.202609e+00	
107	1.865808e-03	5.000000e+00	4.218399e+00	
108	1.885808e-03	5.000000e+00	4.233876e+00	
109	1.905808e-03	5.000000e+00	4.249047e+00	
110	1.925808e-03	5.000000e+00	4.263917e+00	
111	1.945808e-03	5.000000e+00	4.278493e+00	
112	1.965808e-03	5.000000e+00	4.292781e+00	

Index   time            v(1)            v(2)            
--------------------------------------------------------------------------------
113	1.985808e-03	5.000000e+00	4.306785e+00	
114	2.005808e-03	5.000000e+00	4.320512e+00	
115	2.025808e-03	5.000000e+00	4.333967e+00	
116	2.045808e-03	5.000000e+00	4.347156e+00	
117	2.065808e-03	5.000000e+00	4.360084e+00	
118	2.085808e-03	5.000000e+00	4.372755e+00	
119	2.105808e-03	5.000000e+00	4.385176e+00	
120	2.125808e-03	5.000000e+00	4.397351e+00	
121	2.145808e-03	5.000000e+00	4.409284e+00	
122	2.165808e-03	5.000000e+00	4.420982e+00	
123	2.185808e-03	5.000000e+00	4.432447e+00	
124	2.205808e-03	5.000000e+00	4.443686e+00	
125	2.225808e-03	5.000000e+00	4.454702e+00	
126	2.245808e-03	5.000000e+00	4.465500e+00	
127	2.265808e-03	5.000000e+00	4.476084e+00	
128	2.285808e-03	5.000000e+00	4.486459e+00	
129	2.305808e-03	5.000000e+00	4.496628e+00	
130	2.325808e-03	5.000000e+00	4.506596e+00	
131	2.345808e-03	5.000000e+00	4.516366e+00	
132	2.365808e-03	5.000000e+00	4.525943e+00	
133	2.385808e-03	5.000000e+00	4.535330e+00	
134	2.405808e-03	5.000000e+00	4.544532e+00	
135	2.425808e-03	5.000000e+00	4.553551e+00	
136	2.445808e-03	5.000000e+00	4.562391e+00	
137	2.465808e-03	5.000000e+00	4.571057e+00	
138	2.485808e-03	5.000000e+00	4.579551e+00	
139	2.505808e-03	5.000000e+00	4.587877e+00	
140	2.525808e-03	5.000000e+00	4.596037e+00	
141	2.545808e-03	5.000000e+00	4.604037e+00	
142	2.565808e-03	5.000000e+00	4.611878e+00	
143	2.585808e-03	5.000000e+00	4.619563e+00	
144	2.605808e-03	5.000000e+00	4.627097e+00	
145	2.625808e-03	5.000000e+00	4.634481e+00	
146	2.645808e-03	5.000000e+00	4.641719e+00	
147	2.665808e-03	5.000000e+00	4.648813e+00	
148	2.685808e-03	5.000000e+00	4.655768e+00	
149	2.705808e-03	5.000000e+00	4.662584e+00	
150	2.725808e-03	5.000000e+00	4.669266e+00	
151	2.745808e-03	5.000000e+00	4.675815e+00	
152	2.765808e-03	5.000000e+00	4.682234e+00	
153	2.785808e-03	5.000000e+00	4.688527e+00	
154	2.805808e-03	5.000000e+00	4.694694e+00	
155	2.825808e-03	5.000000e+00	4.700740e+00	
156	2.845808e-03	5.000000e+00	4.706666e+00	
157	2.865808e-03	5.000000e+00	4.712475e+00	
158	2.885808e-03	5.000000e+00	4.718168e+00	
159	2.905808e-03	5.000000e+00	4.723749e+00	
160	2.925808e-03	5.000000e+00	4.729219e+00	
161	2.945808e-03	5.000000e+00	4.734581e+00	
162	2.965808e-03	5.000000e+00	4.739837e+00	
163	2.985808e-03	5.000000e+00	4.744989e+00	
164	3.005808e-03	5.000000e+00	4.750039e+00	
165	3.025808e-03	5.000000e+00	4.754988e+00	
166	3.045808e-03	5.000000e+00	4.759840e+00	
167	3.065808e-03	5.000000e+00	4.764596e+00	
168	3.085808e-03	5.000000e+00	4.769257e+00	
169	3.105808e-03	5.000000e+00	4.773826e+00	
170	3.125808e-03	5.000000e+00	4.778305e+00	

Index   time            v(1)            v(2)            
--------------------------------------------------------------------------------
171	3.145808e-03	5.000000e+00	4.782695e+00	
172	3.165808e-03	5.000000e+00	4.786998e+00	
173	3.185808e-03	5.000000e+00	4.791216e+00	
174	3.205808e-03	5.000000e+00	4.795350e+00	
175	3.225808e-03	5.000000e+00	4.799403e+00	
176	3.245808e-03	5.000000e+00	4.803375e+00	
177	3.265808e-03	5.000000e+00	4.807269e+00	
178	3.285808e-03	5.000000e+00	4.811085e+00	
179	3.305808e-03	5.000000e+00	4.814826e+00	
180	3.325808e-03	5.000000e+00	4.818493e+00	
181	3.345808e-03	5.000000e+00	4.822087e+00	
182	3.365808e-03	5.000000e+00	4.825610e+00	
183	3.385808e-03	5.000000e+00	4.829063e+00	
184	3.405808e-03	5.000000e+00	4.832448e+00	
185	3.425808e-03	5.000000e+00	4.835766e+00	
186	3.445808e-03	5.000000e+00	4.839018e+00	
187	3.465808e-03	5.000000e+00	4.842206e+00	
188	3.485808e-03	5.000000e+00	4.845331e+00	
189	3.505808e-03	5.000000e+00	4.848393e+00	
190	3.525808e-03	5.000000e+00	4.851395e+00	
191	3.545808e-03	5.000000e+00	4.854338e+00	
192	3.565808e-03	5.000000e+00	4.857222e+00	
193	3.585808e-03	5.000000e+00	4.860050e+00	
194	3.605808e-03	5.000000e+00	4.862821e+00	
195	3.625808e-03	5.000000e+00	4.865537e+00	
196	3.645808e-03	5.000000e+00	4.868200e+00	
197	3.665808e-03	5.000000e+00	4.870810e+00	
198	3.685808e-03	5.000000e+00	4.873368e+00	
199	3.705808e-03	5.000000e+00	4.875876e+00	
200	3.725808e-03	5.000000e+00	4.878334e+00	
201	3.745808e-03	5.000000e+00	4.880743e+00	
202	3.765808e-03	5.000000e+00	4.883104e+00	
203	3.785808e-03	5.000000e+00	4.885419e+00	
204	3.805808e-03	5.000000e+00	4.887688e+00	
205	3.825808e-03	5.000000e+00	4.889912e+00	
206	3.845808e-03	5.000000e+00	4.892092e+00	
207	3.865808e-03	5.000000e+00	4.894229e+00	
208	3.885808e-03	5.000000e+00	4.896323e+00	
209	3.905808e-03	5.000000e+00	4.898376e+00	
210	3.925808e-03	5.000000e+00	4.900389e+00	
211	3.945808e-03	5.000000e+00	4.902361e+00	
212	3.965808e-03	5.000000e+00	4.904295e+00	
213	3.985808e-03	5.000000e+00	4.906190e+00	
214	4.005808e-03	5.000000e+00	4.908047e+00	
215	4.025808e-03	5.000000e+00	4.909868e+00	
216	4.045808e-03	5.000000e+00	4.911653e+00	
217	4.065808e-03	5.000000e+00	4.913403e+00	
218	4.085808e-03	5.000000e+00	4.915117e+00	
219	4.105808e-03	5.000000e+00	4.916798e+00	
220	4.125808e-03	5.000000e+00	4.918446e+00	
221	4.145808e-03	5.000000e+00	4.920061e+00	
222	4.165808e-03	5.000000e+00	4.921644e+00	
223	4.185808e-03	5.000000e+00	4.923195e+00	
224	4.205808e-03	5.000000e+00	4.924716e+00	
225	4.225808e-03	5.000000e+00	4.926207e+00	
226	4.245808e-03	5.000000e+00	4.927668e+00	
227	4.265808e-03	5.000000e+00	4.929100e+00	
228	4.285808e-03	5.000000e+00	4.930504e+00	

Index   time            v(1)            v(2)            
--------------------------------------------------------------------------------
229	4.305808e-03	5.000000e+00	4.931881e+00	
230	4.325808e-03	5.000000e+00	4.933229e+00	
231	4.345808e-03	5.000000e+00	4.934552e+00	
232	4.365808e-03	5.000000e+00	4.935848e+00	
233	4.385808e-03	5.000000e+00	4.937118e+00	
234	4.405808e-03	5.000000e+00	4.938363e+00	
235	4.425808e-03	5.000000e+00	4.939584e+00	
236	4.445808e-03	5.000000e+00	4.940780e+00	
237	4.465808e-03	5.000000e+00	4.941953e+00	
238	4.485808e-03	5.000000e+00	4.943102e+00	
239	4.505808e-03	5.000000e+00	4.944229e+00	
240	4.525808e-03	5.000000e+00	4.945333e+00	
241	4.545808e-03	5.000000e+00	4.946416e+00	
242	4.565808e-03	5.000000e+00	4.947477e+00	
243	4.585808e-03	5.000000e+00	4.948517e+00	
244	4.605808e-03	5.000000e+00	4.949536e+00	
245	4.625808e-03	5.000000e+00	4.950536e+00	
246	4.645808e-03	5.000000e+00	4.951515e+00	
247	4.665808e-03	5.000000e+00	4.952475e+00	
248	4.685808e-03	5.000000e+00	4.953416e+00	
249	4.705808e-03	5.000000e+00	4.954339e+00	
250	4.725808e-03	5.000000e+00	4.955243e+00	
251	4.745808e-03	5.000000e+00	4.956129e+00	
252	4.765808e-03	5.000000e+00	4.956998e+00	
253	4.785808e-03	5.000000e+00	4.957849e+00	
254	4.805808e-03	5.000000e+00	4.958684e+00	
255	4.825808e-03	5.000000e+00	4.959502e+00	
256	4.845808e-03	5.000000e+00	4.960304e+00	
257	4.865808e-03	5.000000e+00	4.961090e+00	
258	4.885808e-03	5.000000e+00	4.961861e+00	
259	4.905808e-03	5.000000e+00	4.962616e+00	
260	4.925808e-03	5.000000e+00	4.963356e+00	
261	4.945808e-03	5.000000e+00	4.964082e+00	
262	4.965808e-03	5.000000e+00	4.964793e+00	
263	4.985808e-03	5.000000e+00	4.965490e+00	
264	5.005808e-03	5.000000e+00	4.966174e+00	
265	5.020000e-03	5.000000e+00	4.966650e+00	
266	5.022000e-03	4.500000e+00	4.965719e+00	
267	5.026000e-03	3.500000e+00	4.961864e+00	
268	5.034000e-03	1.500000e+00	4.942247e+00	
269	5.040000e-03	0.000000e+00	4.917169e+00	
270	5.041600e-03	0.000000e+00	4.909314e+00	
271	5.044800e-03	0.000000e+00	4.893629e+00	
272	5.051200e-03	0.000000e+00	4.862410e+00	
273	5.064000e-03	0.000000e+00	4.800567e+00	
274	5.084000e-03	0.000000e+00	4.705506e+00	
275	5.104000e-03	0.000000e+00	4.612328e+00	
276	5.124000e-03	0.000000e+00	4.520995e+00	
277	5.144000e-03	0.000000e+00	4.431470e+00	
278	5.164000e-03	0.000000e+00	4.343718e+00	
279	5.184000e-03	0.000000e+00	4.257704e+00	
280	5.204000e-03	0.000000e+00	4.173393e+00	
281	5.224000e-03	0.000000e+00	4.090752e+00	
282	5.244000e-03	0.000000e+00	4.009747e+00	
283	5.264000e-03	0.000000e+00	3.930346e+00	
284	5.284000e-03	0.000000e+00	3.852517e+00	
285	5.304000e-03	0.000000e+00	3.776230e+00	
286	5.324000e-03	0.000000e+00	3.701453e+00	

Index   time            v(1)            v(2)            
--------------------------------------------------------------------------------
287	5.344000e-03	0.000000e+00	3.628157e+00	
288	5.364000e-03	0.000000e+00	3.556312e+00	
289	5.384000e-03	0.000000e+00	3.485890e+00	
290	5.404000e-03	0.000000e+00	3.416862e+00	
291	5.424000e-03	0.000000e+00	3.349202e+00	
292	5.444000e-03	0.000000e+00	3.282881e+00	
293	5.464000e-03	0.000000e+00	3.217873e+00	
294	5.484000e-03	0.000000e+00	3.154153e+00	
295	5.504000e-03	0.000000e+00	3.091695e+00	
296	5.524000e-03	0.000000e+00	3.030473e+00	
297	5.544000e-03	0.000000e+00	2.970464e+00	
298	5.564000e-03	0.000000e+00	2.911643e+00	
299	5.584000e-03	0.000000e+00	2.853986e+00	
300	5.604000e-03	0.000000e+00	2.797472e+00	
301	5.624000e-03	0.000000e+00	2.742076e+00	
302	5.644000e-03	0.000000e+00	2.687778e+00	
303	5.664000e-03	0.000000e+00	2.634554e+00	
304	5.684000e-03	0.000000e+00	2.582385e+00	
305	5.704000e-03	0.000000e+00	2.531249e+00	
306	5.724000e-03	0.000000e+00	2.481125e+00	
307	5.744000e-03	0.000000e+00	2.431994e+00	
308	5.764000e-03	0.000000e+00	2.383835e+00	
309	5.784000e-03	0.000000e+00	2.336631e+00	
310	5.804000e-03	0.000000e+00	2.290361e+00	
311	5.824000e-03	0.000000e+00	2.245007e+00	
312	5.844000e-03	0.000000e+00	2.200552e+00	
313	5.864000e-03	0.000000e+00	2.156976e+00	
314	5.884000e-03	0.000000e+00	2.114264e+00	
315	5.904000e-03	0.000000e+00	2.072397e+00	
316	5.924000e-03	0.000000e+00	2.031360e+00	
317	5.944000e-03	0.000000e+00	1.991135e+00	
318	5.964000e-03	0.000000e+00	1.951706e+00	
319	5.984000e-03	0.000000e+00	1.913059e+00	
320	6.004000e-03	0.000000e+00	1.875176e+00	
321	6.024000e-03	0.000000e+00	1.838044e+00	
322	6.044000e-03	0.000000e+00	1.801647e+00	
323	6.064000e-03	0.000000e+00	1.765971e+00	
324	6.084000e-03	0.000000e+00	1.731001e+00	
325	6.104000e-03	0.000000e+00	1.696724e+00	
326	6.124000e-03	0.000000e+00	1.663126e+00	
327	6.144000e-03	0.000000e+00	1.630192e+00	
328	6.164000e-03	0.000000e+00	1.597911e+00	
329	6.184000e-03	0.000000e+00	1.566270e+00	
330	6.204000e-03	0.000000e+00	1.535254e+00	
331	6.224000e-03	0.000000e+00	1.504853e+00	
332	6.244000e-03	0.000000e+00	1.475054e+00	
333	6.264000e-03	0.000000e+00	1.445845e+00	
334	6.284000e-03	0.000000e+00	1.417215e+00	
335	6.304000e-03	0.000000e+00	1.389151e+00	
336	6.324000e-03	0.000000e+00	1.361643e+00	
337	6.344000e-03	0.000000e+00	1.334680e+00	
338	6.364000e-03	0.000000e+00	1.308250e+00	
339	6.384000e-03	0.000000e+00	1.282345e+00	
340	6.404000e-03	0.000000e+00	1.256952e+00	
341	6.424000e-03	0.000000e+00	1.232061e+00	
342	6.444000e-03	0.000000e+00	1.207664e+00	
343	6.464000e-03	0.000000e+00	1.183750e+00	
344	6.484000e-03	0.000000e+00	1.160309e+00	

Index   time            v(1)            v(2)            
--------------------------------------------------------------------------------
345	6.504000e-03	0.000000e+00	1.137333e+00	
346	6.524000e-03	0.000000e+00	1.114812e+00	
347	6.544000e-03	0.000000e+00	1.092736e+00	
348	6.564000e-03	0.000000e+00	1.071098e+00	
349	6.584000e-03	0.000000e+00	1.049888e+00	
350	6.604000e-03	0.000000e+00	1.029098e+00	
351	6.624000e-03	0.000000e+00	1.008720e+00	
352	6.644000e-03	0.000000e+00	9.887452e-01	
353	6.664000e-03	0.000000e+00	9.691661e-01	
354	6.684000e-03	0.000000e+00	9.499747e-01	
355	6.704000e-03	0.000000e+00	9.311633e-01	
356	6.724000e-03	0.000000e+00	9.127244e-01	
357	6.744000e-03	0.000000e+00	8.946507e-01	
358	6.764000e-03	0.000000e+00	8.769348e-01	
359	6.784000e-03	0.000000e+00	8.595698e-01	
360	6.804000e-03	0.000000e+00	8.425486e-01	
361	6.824000e-03	0.000000e+00	8.258644e-01	
362	6.844000e-03	0.000000e+00	8.095107e-01	
363	6.864000e-03	0.000000e+00	7.934808e-01	
364	6.884000e-03	0.000000e+00	7.777683e-01	
365	6.904000e-03	0.000000e+00	7.623669e-01	
366	6.924000e-03	0.000000e+00	7.472706e-01	
367	6.944000e-03	0.000000e+00	7.324731e-01	
368	6.964000e-03	0.000000e+00	7.179687e-01	
369	6.984000e-03	0.000000e+00	7.037515e-01	
370	7.004000e-03	0.000000e+00	6.898158e-01	
371	7.024000e-03	0.000000e+00	6.761561e-01	
372	7.044000e-03	0.000000e+00	6.627669e-01	
373	7.064000e-03	0.000000e+00	6.496428e-01	
374	7.084000e-03	0.000000e+00	6.367786e-01	
375	7.104000e-03	0.000000e+00	6.241691e-01	
376	7.124000e-03	0.000000e+00	6.118093e-01	
377	7.144000e-03	0.000000e+00	5.996943e-01	
378	7.164000e-03	0.000000e+00	5.878191e-01	
379	7.184000e-03	0.000000e+00	5.761792e-01	
380	7.204000e-03	0.000000e+00	5.647697e-01	
381	7.224000e-03	0.000000e+00	5.535861e-01	
382	7.244000e-03	0.000000e+00	5.426240e-01	
383	7.264000e-03	0.000000e+00	5.318790e-01	
384	7.284000e-03	0.000000e+00	5.213467e-01	
385	7.304000e-03	0.000000e+00	5.110230e-01	
386	7.324000e-03	0.000000e+00	5.009038e-01	
387	7.344000e-03	0.000000e+00	4.909849e-01	
388	7.364000e-03	0.000000e+00	4.812624e-01	
389	7.384000e-03	0.000000e+00	4.717325e-01	
390	7.404000e-03	0.000000e+00	4.623912e-01	
391	7.424000e-03	0.000000e+00	4.532350e-01	
392	7.444000e-03	0.000000e+00	4.442600e-01	
393	7.464000e-03	0.000000e+00	4.354628e-01	
394	7.484000e-03	0.000000e+00	4.268398e-01	
395	7.504000e-03	0.000000e+00	4.183875e-01	
396	7.524000e-03	0.000000e+00	4.101026e-01	
397	7.544000e-03	0.000000e+00	4.019817e-01	
398	7.564000e-03	0.000000e+00	3.940217e-01	
399	7.584000e-03	0.000000e+00	3.862193e-01	
400	7.604000e-03	0.000000e+00	3.785714e-01	
401	7.624000e-03	0.000000e+00	3.710749e-01	
402	7.644000e-03	0.000000e+00	3.637269e-01	

Index   time            v(1)            v(2)            
--------------------------------------------------------------------------------
403	7.664000e-03	0.000000e+00	3.565244e-01	
404	7.684000e-03	0.000000e+00	3.494645e-01	
405	7.704000e-03	0.000000e+00	3.425444e-01	
406	7.724000e-03	0.000000e+00	3.357614e-01	
407	7.744000e-03	0.000000e+00	3.291126e-01	
408	7.764000e-03	0.000000e+00	3.225955e-01	
409	7.784000e-03	0.000000e+00	3.162075e-01	
410	7.804000e-03	0.000000e+00	3.099460e-01	
411	7.824000e-03	0.000000e+00	3.038084e-01	
412	7.844000e-03	0.000000e+00	2.977924e-01	
413	7.864000e-03	0.000000e+00	2.918955e-01	
414	7.884000e-03	0.000000e+00	2.861154e-01	
415	7.904000e-03	0.000000e+00	2.804498e-01	
416	7.924000e-03	0.000000e+00	2.748963e-01	
417	7.944000e-03	0.000000e+00	2.694528e-01	
418	7.964000e-03	0.000000e+00	2.641171e-01	
419	7.984000e-03	0.000000e+00	2.588871e-01	
420	8.004000e-03	0.000000e+00	2.537606e-01	
421	8.024000e-03	0.000000e+00	2.487356e-01	
422	8.044000e-03	0.000000e+00	2.438102e-01	
423	8.064000e-03	0.000000e+00	2.389823e-01	
424	8.084000e-03	0.000000e+00	2.342499e-01	
425	8.104000e-03	0.000000e+00	2.296113e-01	
