
Circuit: astable multivibrator

                             astable multivibrator
                             Transient Analysis  Sun Feb  6 05:11:05  2022
--------------------------------------------------------------------------------
Index   time            v(3)            v(1)            
--------------------------------------------------------------------------------
0	0.000000e+00	5.050422e-03	1.062313e-03	
1	1.000000e-07	5.050422e-03	1.062313e-03	
2	2.000000e-07	5.050422e-03	1.062313e-03	
3	4.000000e-07	5.050422e-03	1.062313e-03	
4	8.000000e-07	5.050422e-03	1.062313e-03	
5	1.600000e-06	5.050422e-03	1.062313e-03	
6	3.200000e-06	5.050421e-03	1.062313e-03	
7	6.400000e-06	5.050424e-03	1.062313e-03	
8	1.280000e-05	5.050420e-03	1.062313e-03	
9	2.280000e-05	5.050425e-03	1.062313e-03	
10	3.280000e-05	5.050419e-03	1.062313e-03	
11	4.280000e-05	5.050426e-03	1.062313e-03	
12	5.280000e-05	5.050417e-03	1.062313e-03	
13	6.280000e-05	5.050428e-03	1.062313e-03	
14	7.280000e-05	5.050415e-03	1.062313e-03	
15	8.280000e-05	5.050431e-03	1.062313e-03	
16	9.280000e-05	5.050411e-03	1.062313e-03	
17	1.028000e-04	5.050436e-03	1.062313e-03	
18	1.128000e-04	5.050405e-03	1.062313e-03	
19	1.228000e-04	5.050443e-03	1.062313e-03	
20	1.328000e-04	5.050397e-03	1.062313e-03	
21	1.428000e-04	5.050453e-03	1.062313e-03	
22	1.528000e-04	5.050384e-03	1.062313e-03	
23	1.628000e-04	5.050469e-03	1.062313e-03	
24	1.728000e-04	5.050365e-03	1.062313e-03	
25	1.828000e-04	5.050492e-03	1.062313e-03	
26	1.928000e-04	5.050337e-03	1.062313e-03	
27	2.028000e-04	5.050526e-03	1.062313e-03	
28	2.128000e-04	5.050294e-03	1.062313e-03	
29	2.228000e-04	5.050578e-03	1.062313e-03	
30	2.328000e-04	5.050231e-03	1.062313e-03	
31	2.428000e-04	5.050656e-03	1.062313e-03	
32	2.528000e-04	5.050136e-03	1.062313e-03	
33	2.628000e-04	5.050773e-03	1.062313e-03	
34	2.728000e-04	5.049993e-03	1.062312e-03	
35	2.828000e-04	5.050947e-03	1.062313e-03	
36	2.928000e-04	5.049779e-03	1.062312e-03	
37	3.028000e-04	5.051209e-03	1.062314e-03	
38	3.128000e-04	5.049459e-03	1.062312e-03	
39	3.228000e-04	5.051601e-03	1.062314e-03	
40	3.328000e-04	5.048980e-03	1.062311e-03	
41	3.428000e-04	5.052188e-03	1.062315e-03	
42	3.528000e-04	5.048261e-03	1.062311e-03	
43	3.628000e-04	5.053067e-03	1.062316e-03	
44	3.728000e-04	5.047185e-03	1.062309e-03	
45	3.828000e-04	5.054384e-03	1.062317e-03	
46	3.928000e-04	5.045573e-03	1.062308e-03	
47	4.028000e-04	5.056357e-03	1.062319e-03	
48	4.128000e-04	5.043157e-03	1.062305e-03	
49	4.228000e-04	5.059314e-03	1.062322e-03	
50	4.328000e-04	5.039539e-03	1.062302e-03	
51	4.428000e-04	5.063742e-03	1.062327e-03	
52	4.528000e-04	5.034119e-03	1.062296e-03	
53	4.628000e-04	5.070376e-03	1.062333e-03	
54	4.728000e-04	5.025999e-03	1.062288e-03	

Index   time            v(3)            v(1)            
--------------------------------------------------------------------------------
55	4.827172e-04	5.080366e-03	1.062344e-03	
56	4.917056e-04	5.012923e-03	1.062274e-03	
57	4.985278e-04	5.100909e-03	1.062365e-03	
58	5.033296e-04	4.973141e-03	1.062233e-03	
59	5.062042e-04	5.211045e-03	1.062478e-03	
60	5.071523e-04	1.037057e-02	1.067787e-03	
61	5.076173e-04	1.948756e-02	1.077173e-03	
62	5.078988e-04	3.066390e-02	1.088691e-03	
63	5.081569e-04	4.820313e-02	1.106823e-03	
64	5.084450e-04	8.198045e-02	1.142145e-03	
65	5.087129e-04	1.342226e-01	1.198461e-03	
66	5.089876e-04	2.157176e-01	1.293383e-03	
67	5.091991e-04	2.980211e-01	1.401334e-03	
68	5.094427e-04	4.069214e-01	1.572344e-03	
69	5.096792e-04	5.188492e-01	1.790492e-03	
70	5.099697e-04	6.572496e-01	2.130905e-03	
71	5.102844e-04	8.034382e-01	2.589143e-03	
72	5.106890e-04	9.863801e-01	3.310915e-03	
73	5.111164e-04	1.187597e+00	4.236849e-03	
74	5.114797e-04	1.364065e+00	5.160554e-03	
75	5.119935e-04	1.614446e+00	6.684873e-03	
76	5.126334e-04	1.926038e+00	8.940272e-03	
77	5.139131e-04	2.548518e+00	1.463624e-02	
78	5.164725e-04	3.792775e+00	3.075011e-02	
79	5.176779e-04	4.378640e+00	4.051409e-02	
80	5.185244e-04	4.775073e+00	4.818707e-02	
81	5.191371e-04	4.904740e+00	5.405562e-02	
82	5.197274e-04	4.953909e+00	5.980765e-02	
83	5.203359e-04	4.986574e+00	6.577994e-02	
84	5.209559e-04	5.007845e+00	7.189145e-02	
85	5.219306e-04	5.034347e+00	8.153010e-02	
86	5.238800e-04	5.067129e+00	1.008665e-01	
87	5.277789e-04	5.107930e+00	1.395997e-01	
88	5.316294e-04	5.135055e+00	1.778184e-01	
89	5.348167e-04	5.150547e+00	2.093675e-01	
90	5.370358e-04	5.159780e+00	2.312699e-01	
91	5.392796e-04	5.167006e+00	2.533532e-01	
92	5.399265e-04	5.167136e+00	2.597069e-01	
93	5.406821e-04	5.167310e+00	2.671171e-01	
94	5.413767e-04	5.167296e+00	2.739200e-01	
95	5.427659e-04	5.167469e+00	2.874977e-01	
96	5.453177e-04	5.167396e+00	3.123386e-01	
97	5.493209e-04	5.167496e+00	3.510564e-01	
98	5.530569e-04	5.167409e+00	3.869098e-01	
99	5.590334e-04	5.167511e+00	4.437124e-01	
100	5.663331e-04	5.167428e+00	5.121768e-01	
101	5.763331e-04	5.167537e+00	6.043611e-01	
102	5.863331e-04	5.167456e+00	6.947202e-01	
103	5.963331e-04	5.167565e+00	7.832903e-01	
104	6.063331e-04	5.167483e+00	8.701068e-01	
105	6.163331e-04	5.167591e+00	9.552045e-01	
106	6.263331e-04	5.167508e+00	1.038617e+00	
107	6.363331e-04	5.167618e+00	1.120379e+00	
108	6.463331e-04	5.167533e+00	1.200521e+00	
109	6.563331e-04	5.167643e+00	1.279077e+00	
110	6.663331e-04	5.167558e+00	1.356077e+00	
111	6.763331e-04	5.167667e+00	1.431553e+00	
112	6.863331e-04	5.167581e+00	1.505535e+00	

Index   time            v(3)            v(1)            
--------------------------------------------------------------------------------
113	6.963331e-04	5.167691e+00	1.578052e+00	
114	7.063331e-04	5.167603e+00	1.649133e+00	
115	7.163331e-04	5.167713e+00	1.718807e+00	
116	7.263331e-04	5.167624e+00	1.787101e+00	
117	7.363331e-04	5.167735e+00	1.854043e+00	
118	7.463331e-04	5.167645e+00	1.919660e+00	
119	7.563331e-04	5.167756e+00	1.983978e+00	
120	7.663331e-04	5.167665e+00	2.047022e+00	
121	7.763331e-04	5.167776e+00	2.108818e+00	
122	7.863331e-04	5.167684e+00	2.169390e+00	
123	7.963331e-04	5.167795e+00	2.228763e+00	
124	8.063331e-04	5.167701e+00	2.286955e+00	
125	8.119102e-04	5.167809e+00	2.318900e+00	
126	8.190368e-04	5.167712e+00	2.359190e+00	
127	8.231238e-04	5.167819e+00	2.382026e+00	
128	8.267821e-04	5.167659e+00	2.402302e+00	
129	8.304581e-04	5.167595e+00	2.422518e+00	
130	8.326947e-04	5.166943e+00	2.434741e+00	
131	8.335629e-04	5.165385e+00	2.439469e+00	
132	8.341010e-04	5.163899e+00	2.442393e+00	
133	8.347140e-04	5.162393e+00	2.445718e+00	
134	8.353143e-04	5.160543e+00	2.448969e+00	
135	8.365151e-04	5.156909e+00	2.455451e+00	
136	8.379881e-04	5.151516e+00	2.463369e+00	
137	8.404543e-04	5.141183e+00	2.476533e+00	
138	8.439368e-04	5.121996e+00	2.494906e+00	
139	8.495695e-04	5.071824e+00	2.523965e+00	
140	8.546553e-04	4.901035e+00	2.548804e+00	
141	8.572055e-04	3.906783e+00	2.558201e+00	
142	8.585855e-04	3.196517e+00	2.560917e+00	
143	8.598512e-04	2.611282e+00	2.561763e+00	
144	8.612914e-04	1.882938e+00	2.560835e+00	
145	8.626863e-04	1.225945e+00	2.558009e+00	
146	8.645542e-04	2.964170e-01	2.551279e+00	
147	8.668644e-04	-8.11314e-01	2.538294e+00	
148	8.700843e-04	-2.39541e+00	2.511656e+00	
149	8.735607e-04	-4.07244e+00	2.471790e+00	
150	8.749420e-04	-4.73406e+00	2.452802e+00	
151	8.763516e-04	-4.96124e+00	2.432226e+00	
152	8.776955e-04	-5.01487e+00	2.412287e+00	
153	8.793459e-04	-5.05128e+00	2.387726e+00	
154	8.808384e-04	-5.07398e+00	2.365495e+00	
155	8.838236e-04	-5.10394e+00	2.321074e+00	
156	8.873677e-04	-5.12987e+00	2.268481e+00	
157	8.915714e-04	-5.15189e+00	2.206381e+00	
158	8.938715e-04	-5.16125e+00	2.172551e+00	
159	8.954239e-04	-5.16644e+00	2.149784e+00	
160	8.958931e-04	-5.16670e+00	2.142914e+00	
161	8.964324e-04	-5.16680e+00	2.135025e+00	
162	8.970180e-04	-5.16689e+00	2.126468e+00	
163	8.980181e-04	-5.16698e+00	2.111879e+00	
164	8.997324e-04	-5.16706e+00	2.086938e+00	
165	9.025227e-04	-5.16707e+00	2.046523e+00	
166	9.074120e-04	-5.16708e+00	1.976249e+00	
167	9.120760e-04	-5.16709e+00	1.909851e+00	
168	9.180791e-04	-5.16710e+00	1.825294e+00	
169	9.275750e-04	-5.16713e+00	1.693593e+00	
170	9.375750e-04	-5.16715e+00	1.557578e+00	

Index   time            v(3)            v(1)            
--------------------------------------------------------------------------------
171	9.475750e-04	-5.16717e+00	1.424256e+00	
172	9.575750e-04	-5.16719e+00	1.293574e+00	
173	9.675750e-04	-5.16721e+00	1.165479e+00	
174	9.775750e-04	-5.16723e+00	1.039920e+00	
175	9.875750e-04	-5.16725e+00	9.168473e-01	
176	9.975750e-04	-5.16726e+00	7.962114e-01	
177	1.007575e-03	-5.16729e+00	6.779640e-01	
178	1.017575e-03	-5.16730e+00	5.620579e-01	
179	1.027575e-03	-5.16733e+00	4.484468e-01	
180	1.037575e-03	-5.16734e+00	3.370850e-01	
181	1.047575e-03	-5.16736e+00	2.279282e-01	
182	1.057575e-03	-5.16737e+00	1.209327e-01	
183	1.067575e-03	-5.16739e+00	1.605567e-02	
184	1.077575e-03	-5.16740e+00	-8.67448e-02	
185	1.087575e-03	-5.16743e+00	-1.87510e-01	
186	1.097575e-03	-5.16743e+00	-2.86280e-01	
187	1.107575e-03	-5.16746e+00	-3.83094e-01	
188	1.117575e-03	-5.16746e+00	-4.77992e-01	
189	1.127575e-03	-5.16749e+00	-5.71010e-01	
190	1.137575e-03	-5.16749e+00	-6.62187e-01	
191	1.147575e-03	-5.16752e+00	-7.51559e-01	
192	1.157575e-03	-5.16752e+00	-8.39161e-01	
193	1.167575e-03	-5.16754e+00	-9.25028e-01	
194	1.177575e-03	-5.16755e+00	-1.00920e+00	
195	1.187575e-03	-5.16757e+00	-1.09170e+00	
196	1.197575e-03	-5.16757e+00	-1.17256e+00	
197	1.207575e-03	-5.16760e+00	-1.25183e+00	
198	1.217575e-03	-5.16760e+00	-1.32953e+00	
199	1.227575e-03	-5.16762e+00	-1.40569e+00	
200	1.237575e-03	-5.16762e+00	-1.48034e+00	
201	1.247575e-03	-5.16764e+00	-1.55351e+00	
202	1.257575e-03	-5.16764e+00	-1.62523e+00	
203	1.267575e-03	-5.16767e+00	-1.69554e+00	
204	1.277575e-03	-5.16767e+00	-1.76445e+00	
205	1.287575e-03	-5.16769e+00	-1.83199e+00	
206	1.297575e-03	-5.16769e+00	-1.89820e+00	
207	1.307575e-03	-5.16771e+00	-1.96310e+00	
208	1.317575e-03	-5.16771e+00	-2.02672e+00	
209	1.327575e-03	-5.16773e+00	-2.08907e+00	
210	1.337575e-03	-5.16773e+00	-2.15019e+00	
211	1.347575e-03	-5.16775e+00	-2.21010e+00	
212	1.357575e-03	-5.16774e+00	-2.26882e+00	
213	1.363689e-03	-5.16776e+00	-2.30414e+00	
214	1.369398e-03	-5.16775e+00	-2.33673e+00	
215	1.375819e-03	-5.16777e+00	-2.37292e+00	
216	1.379564e-03	-5.16774e+00	-2.39381e+00	
217	1.383414e-03	-5.16766e+00	-2.41511e+00	
218	1.387205e-03	-5.16717e+00	-2.43591e+00	
219	1.388286e-03	-5.16554e+00	-2.44181e+00	
220	1.389575e-03	-5.16223e+00	-2.44882e+00	
221	1.390318e-03	-5.16013e+00	-2.45286e+00	
222	1.390998e-03	-5.15802e+00	-2.45654e+00	
223	1.392359e-03	-5.15346e+00	-2.46387e+00	
224	1.394573e-03	-5.14469e+00	-2.47574e+00	
225	1.397931e-03	-5.12794e+00	-2.49355e+00	
226	1.402816e-03	-5.09294e+00	-2.51900e+00	
227	1.408159e-03	-5.00394e+00	-2.54588e+00	
228	1.411523e-03	-4.34541e+00	-2.56016e+00	

Index   time            v(3)            v(1)            
--------------------------------------------------------------------------------
229	1.415237e-03	-2.58631e+00	-2.56686e+00	
230	1.417677e-03	-1.40606e+00	-2.56408e+00	
231	1.420440e-03	-9.09458e-02	-2.55407e+00	
232	1.425378e-03	2.297897e+00	-2.51813e+00	
233	1.430446e-03	4.726232e+00	-2.45731e+00	
234	1.432976e-03	5.009033e+00	-2.42034e+00	
235	1.436007e-03	5.068732e+00	-2.37527e+00	
236	1.439094e-03	5.102105e+00	-2.32934e+00	
237	1.443641e-03	5.133354e+00	-2.26192e+00	
238	1.446440e-03	5.148394e+00	-2.22060e+00	
239	1.449061e-03	5.159713e+00	-2.18204e+00	
240	1.451196e-03	5.166666e+00	-2.15074e+00	
241	1.451742e-03	5.166680e+00	-2.14276e+00	
242	1.452377e-03	5.166955e+00	-2.13348e+00	
243	1.453079e-03	5.166851e+00	-2.12323e+00	
244	1.454484e-03	5.167144e+00	-2.10278e+00	
245	1.456887e-03	5.166969e+00	-2.06793e+00	
246	1.459705e-03	5.167168e+00	-2.02726e+00	
247	1.462653e-03	5.166984e+00	-1.98497e+00	
248	1.468547e-03	5.167194e+00	-1.90115e+00	
249	1.474556e-03	5.167010e+00	-1.81672e+00	
250	1.484556e-03	5.167229e+00	-1.67842e+00	
251	1.494556e-03	5.167053e+00	-1.54287e+00	
252	1.504556e-03	5.167270e+00	-1.41000e+00	
253	1.514556e-03	5.167094e+00	-1.27976e+00	
254	1.524556e-03	5.167310e+00	-1.15209e+00	
255	1.534556e-03	5.167133e+00	-1.02696e+00	
256	1.544556e-03	5.167350e+00	-9.04300e-01	
257	1.554556e-03	5.167171e+00	-7.84071e-01	
258	1.564556e-03	5.167388e+00	-6.66223e-01	
259	1.574556e-03	5.167208e+00	-5.50708e-01	
260	1.584556e-03	5.167424e+00	-4.37479e-01	
261	1.594556e-03	5.167243e+00	-3.26493e-01	
262	1.604556e-03	5.167459e+00	-2.17704e-01	
263	1.614556e-03	5.167277e+00	-1.11069e-01	
264	1.624556e-03	5.167493e+00	-6.54493e-03	
265	1.634556e-03	5.167309e+00	9.590946e-02	
266	1.644556e-03	5.167525e+00	1.963354e-01	
267	1.654556e-03	5.167341e+00	2.947730e-01	
268	1.664556e-03	5.167556e+00	3.912616e-01	
269	1.674556e-03	5.167371e+00	4.858399e-01	
270	1.684556e-03	5.167585e+00	5.785456e-01	
271	1.694556e-03	5.167399e+00	6.694158e-01	
272	1.704556e-03	5.167614e+00	7.584869e-01	
273	1.714556e-03	5.167427e+00	8.457946e-01	
274	1.724556e-03	5.167641e+00	9.313736e-01	
275	1.734556e-03	5.167453e+00	1.015258e+00	
276	1.744556e-03	5.167668e+00	1.097482e+00	
277	1.754556e-03	5.167479e+00	1.178078e+00	
278	1.764556e-03	5.167693e+00	1.257078e+00	
279	1.774556e-03	5.167503e+00	1.334514e+00	
280	1.784556e-03	5.167717e+00	1.410417e+00	
281	1.794556e-03	5.167527e+00	1.484817e+00	
282	1.804556e-03	5.167741e+00	1.557744e+00	
283	1.814556e-03	5.167550e+00	1.629227e+00	
284	1.824556e-03	5.167763e+00	1.699295e+00	
285	1.834556e-03	5.167571e+00	1.767976e+00	
286	1.844556e-03	5.167785e+00	1.835297e+00	

Index   time            v(3)            v(1)            
--------------------------------------------------------------------------------
287	1.854556e-03	5.167592e+00	1.901285e+00	
288	1.864556e-03	5.167805e+00	1.965966e+00	
289	1.874556e-03	5.167612e+00	2.029367e+00	
290	1.884556e-03	5.167825e+00	2.091513e+00	
291	1.894556e-03	5.167631e+00	2.152428e+00	
292	1.904556e-03	5.167844e+00	2.212137e+00	
293	1.914556e-03	5.167650e+00	2.270660e+00	
294	1.920476e-03	5.167857e+00	2.304752e+00	
295	1.926442e-03	5.167658e+00	2.338697e+00	
296	1.932901e-03	5.167868e+00	2.374972e+00	
297	1.936725e-03	5.167630e+00	2.396220e+00	
298	1.940643e-03	5.167700e+00	2.417808e+00	
299	1.942919e-03	5.167234e+00	2.430271e+00	
300	1.943962e-03	5.166729e+00	2.435960e+00	
301	1.944641e-03	5.165013e+00	2.439656e+00	
302	1.945013e-03	5.164270e+00	2.441679e+00	
303	1.945463e-03	5.162896e+00	2.444120e+00	
304	1.946362e-03	5.160563e+00	2.448991e+00	
305	1.947341e-03	5.157301e+00	2.454280e+00	
306	1.949300e-03	5.150510e+00	2.464808e+00	
307	1.951660e-03	5.140037e+00	2.477394e+00	
308	1.955816e-03	5.116346e+00	2.499267e+00	
309	1.960921e-03	5.066627e+00	2.525518e+00	
310	1.966360e-03	4.762801e+00	2.551284e+00	
311	1.969165e-03	3.423802e+00	2.559863e+00	
312	1.971507e-03	2.281305e+00	2.561193e+00	
313	1.974101e-03	1.018520e+00	2.556436e+00	
314	1.979288e-03	-1.50944e+00	2.527431e+00	
315	1.985409e-03	-4.48693e+00	2.460106e+00	
316	1.988211e-03	-4.99967e+00	2.419808e+00	
317	1.991957e-03	-5.07477e+00	2.364090e+00	
318	1.995746e-03	-5.11197e+00	2.307722e+00	
319	1.999256e-03	-5.13528e+00	2.255680e+00	
320	2.002413e-03	-5.15078e+00	2.209066e+00	
321	2.005047e-03	-5.16186e+00	2.170322e+00	
322	2.006514e-03	-5.16653e+00	2.148812e+00	
323	2.006982e-03	-5.16669e+00	2.141955e+00	
324	2.007482e-03	-5.16684e+00	2.134641e+00	
325	2.008048e-03	-5.16686e+00	2.126376e+00	
326	2.009179e-03	-5.16704e+00	2.109873e+00	
327	2.011007e-03	-5.16703e+00	2.083291e+00	
328	2.013819e-03	-5.16711e+00	2.042590e+00	
329	2.016898e-03	-5.16704e+00	1.998278e+00	
330	2.021450e-03	-5.16713e+00	1.933262e+00	
331	2.026763e-03	-5.16706e+00	1.858136e+00	
332	2.036415e-03	-5.16716e+00	1.723661e+00	
333	2.046415e-03	-5.16710e+00	1.587050e+00	
334	2.056415e-03	-5.16720e+00	1.453144e+00	
335	2.066415e-03	-5.16715e+00	1.321890e+00	
336	2.076415e-03	-5.16724e+00	1.193234e+00	
337	2.086415e-03	-5.16719e+00	1.067126e+00	
338	2.096415e-03	-5.16728e+00	9.435146e-01	
339	2.106415e-03	-5.16722e+00	8.223507e-01	
340	2.116415e-03	-5.16732e+00	7.035858e-01	
341	2.126415e-03	-5.16726e+00	5.871724e-01	
342	2.136415e-03	-5.16736e+00	4.730640e-01	
343	2.146415e-03	-5.16730e+00	3.612148e-01	
344	2.156415e-03	-5.16739e+00	2.515803e-01	

Index   time            v(3)            v(1)            
--------------------------------------------------------------------------------
345	2.166415e-03	-5.16733e+00	1.441164e-01	
346	2.176415e-03	-5.16743e+00	3.878035e-02	
347	2.186415e-03	-5.16736e+00	-6.44701e-02	
348	2.196415e-03	-5.16746e+00	-1.65676e-01	
349	2.206415e-03	-5.16739e+00	-2.64879e-01	
350	2.216415e-03	-5.16749e+00	-3.62117e-01	
351	2.226415e-03	-5.16743e+00	-4.57430e-01	
352	2.236415e-03	-5.16752e+00	-5.50855e-01	
353	2.246415e-03	-5.16745e+00	-6.42431e-01	
354	2.256415e-03	-5.16755e+00	-7.32194e-01	
355	2.266415e-03	-5.16748e+00	-8.20179e-01	
356	2.276415e-03	-5.16758e+00	-9.06423e-01	
357	2.286415e-03	-5.16751e+00	-9.90958e-01	
358	2.296415e-03	-5.16760e+00	-1.07382e+00	
359	2.306415e-03	-5.16753e+00	-1.15504e+00	
360	2.316415e-03	-5.16763e+00	-1.23465e+00	
361	2.326415e-03	-5.16756e+00	-1.31269e+00	
362	2.336415e-03	-5.16765e+00	-1.38918e+00	
363	2.346415e-03	-5.16758e+00	-1.46416e+00	
364	2.356415e-03	-5.16768e+00	-1.53765e+00	
365	2.366415e-03	-5.16761e+00	-1.60969e+00	
366	2.376415e-03	-5.16770e+00	-1.68030e+00	
367	2.386415e-03	-5.16763e+00	-1.74952e+00	
368	2.396415e-03	-5.16772e+00	-1.81736e+00	
369	2.406415e-03	-5.16765e+00	-1.88386e+00	
370	2.416415e-03	-5.16774e+00	-1.94904e+00	
371	2.426415e-03	-5.16767e+00	-2.01293e+00	
372	2.436415e-03	-5.16776e+00	-2.07556e+00	
373	2.446415e-03	-5.16769e+00	-2.13695e+00	
374	2.456415e-03	-5.16778e+00	-2.19712e+00	
375	2.466415e-03	-5.16771e+00	-2.25610e+00	
376	2.473349e-03	-5.16780e+00	-2.29630e+00	
377	2.478758e-03	-5.16772e+00	-2.32727e+00	
378	2.485324e-03	-5.16781e+00	-2.36441e+00	
379	2.489176e-03	-5.16773e+00	-2.38596e+00	
380	2.492545e-03	-5.16776e+00	-2.40466e+00	
381	2.495895e-03	-5.16753e+00	-2.42313e+00	
382	2.497257e-03	-5.16748e+00	-2.43060e+00	
383	2.498250e-03	-5.16715e+00	-2.43603e+00	
384	2.498810e-03	-5.16675e+00	-2.43909e+00	
385	2.499464e-03	-5.16524e+00	-2.44266e+00	
386	2.499779e-03	-5.16454e+00	-2.44437e+00	
387	2.500178e-03	-5.16344e+00	-2.44654e+00	
388	2.500977e-03	-5.16135e+00	-2.45088e+00	
389	2.502357e-03	-5.15705e+00	-2.45835e+00	
390	2.503723e-03	-5.15240e+00	-2.46571e+00	
391	2.505953e-03	-5.14324e+00	-2.47765e+00	
392	2.509342e-03	-5.12594e+00	-2.49560e+00	
393	2.514688e-03	-5.08373e+00	-2.52335e+00	
394	2.519896e-03	-4.97852e+00	-2.54933e+00	
395	2.522926e-03	-4.18286e+00	-2.56161e+00	
396	2.525255e-03	-3.08271e+00	-2.56658e+00	
397	2.527235e-03	-2.12625e+00	-2.56673e+00	
398	2.529224e-03	-1.18199e+00	-2.56311e+00	
399	2.533203e-03	7.375761e-01	-2.54455e+00	
400	2.537983e-03	3.035882e+00	-2.50239e+00	
401	2.541295e-03	4.641587e+00	-2.46053e+00	
402	2.543466e-03	4.987490e+00	-2.42900e+00	

Index   time            v(3)            v(1)            
--------------------------------------------------------------------------------
403	2.546033e-03	5.052699e+00	-2.39087e+00	
404	2.548924e-03	5.090704e+00	-2.34783e+00	
405	2.552103e-03	5.118560e+00	-2.30060e+00	
406	2.557068e-03	5.147845e+00	-2.22715e+00	
407	2.560442e-03	5.161393e+00	-2.17751e+00	
408	2.562057e-03	5.166485e+00	-2.15383e+00	
409	2.562691e-03	5.166729e+00	-2.14456e+00	
410	2.563259e-03	5.166867e+00	-2.13626e+00	
411	2.563870e-03	5.166883e+00	-2.12734e+00	
412	2.565092e-03	5.167052e+00	-2.10953e+00	
413	2.566909e-03	5.167025e+00	-2.08314e+00	
414	2.570039e-03	5.167108e+00	-2.03789e+00	
415	2.574661e-03	5.167043e+00	-1.97159e+00	
416	2.580370e-03	5.167134e+00	-1.89055e+00	
417	2.586364e-03	5.167068e+00	-1.80644e+00	
418	2.596364e-03	5.167170e+00	-1.66835e+00	
419	2.606364e-03	5.167111e+00	-1.53300e+00	
420	2.616364e-03	5.167213e+00	-1.40032e+00	
421	2.626364e-03	5.167152e+00	-1.27027e+00	
422	2.636364e-03	5.167253e+00	-1.14279e+00	
423	2.646364e-03	5.167190e+00	-1.01784e+00	
424	2.656364e-03	5.167293e+00	-8.95367e-01	
425	2.666364e-03	5.167228e+00	-7.75315e-01	
