
Circuit: astable multivibrator

                             astable multivibrator
                             Transient Analysis  Sun Feb  6 05:12:03  2022
--------------------------------------------------------------------------------
Index   time            v(2)            v(3)            
--------------------------------------------------------------------------------
0	0.000000e+00	5.244685e-03	5.050422e-03	
1	1.000000e-07	5.244685e-03	5.050422e-03	
2	2.000000e-07	5.244685e-03	5.050422e-03	
3	4.000000e-07	5.244685e-03	5.050422e-03	
4	8.000000e-07	5.244685e-03	5.050422e-03	
5	1.600000e-06	5.244685e-03	5.050422e-03	
6	3.200000e-06	5.244684e-03	5.050421e-03	
7	6.400000e-06	5.244687e-03	5.050424e-03	
8	1.280000e-05	5.244682e-03	5.050420e-03	
9	2.280000e-05	5.244688e-03	5.050425e-03	
10	3.280000e-05	5.244681e-03	5.050419e-03	
11	4.280000e-05	5.244690e-03	5.050426e-03	
12	5.280000e-05	5.244679e-03	5.050417e-03	
13	6.280000e-05	5.244692e-03	5.050428e-03	
14	7.280000e-05	5.244676e-03	5.050415e-03	
15	8.280000e-05	5.244696e-03	5.050431e-03	
16	9.280000e-05	5.244671e-03	5.050411e-03	
17	1.028000e-04	5.244701e-03	5.050436e-03	
18	1.128000e-04	5.244665e-03	5.050405e-03	
19	1.228000e-04	5.244710e-03	5.050443e-03	
20	1.328000e-04	5.244654e-03	5.050397e-03	
21	1.428000e-04	5.244722e-03	5.050453e-03	
22	1.528000e-04	5.244639e-03	5.050384e-03	
23	1.628000e-04	5.244741e-03	5.050469e-03	
24	1.728000e-04	5.244617e-03	5.050365e-03	
25	1.828000e-04	5.244768e-03	5.050492e-03	
26	1.928000e-04	5.244583e-03	5.050337e-03	
27	2.028000e-04	5.244810e-03	5.050526e-03	
28	2.128000e-04	5.244532e-03	5.050294e-03	
29	2.228000e-04	5.244872e-03	5.050578e-03	
30	2.328000e-04	5.244456e-03	5.050231e-03	
31	2.428000e-04	5.244965e-03	5.050656e-03	
32	2.528000e-04	5.244341e-03	5.050136e-03	
33	2.628000e-04	5.245105e-03	5.050773e-03	
34	2.728000e-04	5.244170e-03	5.049993e-03	
35	2.828000e-04	5.245315e-03	5.050947e-03	
36	2.928000e-04	5.243914e-03	5.049779e-03	
37	3.028000e-04	5.245628e-03	5.051209e-03	
38	3.128000e-04	5.243530e-03	5.049459e-03	
39	3.228000e-04	5.246098e-03	5.051601e-03	
40	3.328000e-04	5.242955e-03	5.048980e-03	
41	3.428000e-04	5.246802e-03	5.052188e-03	
42	3.528000e-04	5.242093e-03	5.048261e-03	
43	3.628000e-04	5.247857e-03	5.053067e-03	
44	3.728000e-04	5.240803e-03	5.047185e-03	
45	3.828000e-04	5.249436e-03	5.054384e-03	
46	3.928000e-04	5.238869e-03	5.045573e-03	
47	4.028000e-04	5.251803e-03	5.056357e-03	
48	4.128000e-04	5.235972e-03	5.043157e-03	
49	4.228000e-04	5.255348e-03	5.059314e-03	
50	4.328000e-04	5.231633e-03	5.039539e-03	
51	4.428000e-04	5.260659e-03	5.063742e-03	
52	4.528000e-04	5.225133e-03	5.034119e-03	
53	4.628000e-04	5.268616e-03	5.070376e-03	
54	4.728000e-04	5.215394e-03	5.025999e-03	

Index   time            v(2)            v(3)            
--------------------------------------------------------------------------------
55	4.827172e-04	5.280596e-03	5.080366e-03	
56	4.917056e-04	5.199712e-03	5.012923e-03	
57	4.985278e-04	5.305233e-03	5.100909e-03	
58	5.033296e-04	5.152002e-03	4.973141e-03	
59	5.062042e-04	5.437318e-03	5.211045e-03	
60	5.071523e-04	1.162494e-02	1.037057e-02	
61	5.076173e-04	2.255687e-02	1.948756e-02	
62	5.078988e-04	3.595362e-02	3.066390e-02	
63	5.081569e-04	5.695014e-02	4.820313e-02	
64	5.084450e-04	9.722334e-02	8.198045e-02	
65	5.087129e-04	1.588492e-01	1.342226e-01	
66	5.089876e-04	2.525109e-01	2.157176e-01	
67	5.091991e-04	3.437736e-01	2.980211e-01	
68	5.094427e-04	4.601679e-01	4.069214e-01	
69	5.096792e-04	5.771573e-01	5.188492e-01	
70	5.099697e-04	7.216604e-01	6.572496e-01	
71	5.102844e-04	8.782337e-01	8.034382e-01	
72	5.106890e-04	1.079354e+00	9.863801e-01	
73	5.111164e-04	1.292268e+00	1.187597e+00	
74	5.114797e-04	1.473594e+00	1.364065e+00	
75	5.119935e-04	1.730162e+00	1.614446e+00	
76	5.126334e-04	2.049833e+00	1.926038e+00	
77	5.139131e-04	2.689728e+00	2.548518e+00	
78	5.164725e-04	3.971825e+00	3.792775e+00	
79	5.176779e-04	4.576727e+00	4.378640e+00	
80	5.185244e-04	5.001187e+00	4.775073e+00	
81	5.191371e-04	5.301136e+00	4.904740e+00	
82	5.197274e-04	5.586528e+00	4.953909e+00	
83	5.203359e-04	5.879899e+00	4.986574e+00	
84	5.209559e-04	6.178268e+00	5.007845e+00	
85	5.219306e-04	6.647001e+00	5.034347e+00	
86	5.238800e-04	7.583505e+00	5.067129e+00	
87	5.277789e-04	9.455299e+00	5.107930e+00	
88	5.316294e-04	1.130314e+01	5.135055e+00	
89	5.348167e-04	1.283224e+01	5.150547e+00	
90	5.370358e-04	1.389667e+01	5.159780e+00	
91	5.392796e-04	1.475394e+01	5.167006e+00	
92	5.399265e-04	1.477594e+01	5.167136e+00	
93	5.406821e-04	1.478917e+01	5.167310e+00	
94	5.413767e-04	1.479714e+01	5.167296e+00	
95	5.427659e-04	1.480772e+01	5.167469e+00	
96	5.453177e-04	1.480929e+01	5.167396e+00	
97	5.493209e-04	1.480948e+01	5.167496e+00	
98	5.530569e-04	1.480943e+01	5.167409e+00	
99	5.590334e-04	1.480945e+01	5.167511e+00	
100	5.663331e-04	1.480947e+01	5.167428e+00	
101	5.763331e-04	1.480947e+01	5.167537e+00	
102	5.863331e-04	1.480945e+01	5.167456e+00	
103	5.963331e-04	1.480940e+01	5.167565e+00	
104	6.063331e-04	1.480934e+01	5.167483e+00	
105	6.163331e-04	1.480927e+01	5.167591e+00	
106	6.263331e-04	1.480930e+01	5.167508e+00	
107	6.363331e-04	1.480929e+01	5.167618e+00	
108	6.463331e-04	1.480928e+01	5.167533e+00	
109	6.563331e-04	1.480926e+01	5.167643e+00	
110	6.663331e-04	1.480928e+01	5.167558e+00	
111	6.763331e-04	1.480927e+01	5.167667e+00	
112	6.863331e-04	1.480927e+01	5.167581e+00	

Index   time            v(2)            v(3)            
--------------------------------------------------------------------------------
113	6.963331e-04	1.480926e+01	5.167691e+00	
114	7.063331e-04	1.480927e+01	5.167603e+00	
115	7.163331e-04	1.480926e+01	5.167713e+00	
116	7.263331e-04	1.480927e+01	5.167624e+00	
117	7.363331e-04	1.480926e+01	5.167735e+00	
118	7.463331e-04	1.480927e+01	5.167645e+00	
119	7.563331e-04	1.480926e+01	5.167756e+00	
120	7.663331e-04	1.480927e+01	5.167665e+00	
121	7.763331e-04	1.480926e+01	5.167776e+00	
122	7.863331e-04	1.480927e+01	5.167684e+00	
123	7.963331e-04	1.480926e+01	5.167795e+00	
124	8.063331e-04	1.480927e+01	5.167701e+00	
125	8.119102e-04	1.480926e+01	5.167809e+00	
126	8.190368e-04	1.480925e+01	5.167712e+00	
127	8.231238e-04	1.480920e+01	5.167819e+00	
128	8.267821e-04	1.480167e+01	5.167659e+00	
129	8.304581e-04	1.477964e+01	5.167595e+00	
130	8.326947e-04	1.470943e+01	5.166943e+00	
131	8.335629e-04	1.449454e+01	5.165385e+00	
132	8.341010e-04	1.432907e+01	5.163899e+00	
133	8.347140e-04	1.413070e+01	5.162393e+00	
134	8.353143e-04	1.392771e+01	5.160543e+00	
135	8.365151e-04	1.349600e+01	5.156909e+00	
136	8.379881e-04	1.292634e+01	5.151516e+00	
137	8.404543e-04	1.189382e+01	5.141183e+00	
138	8.439368e-04	1.032647e+01	5.121996e+00	
139	8.495695e-04	7.668755e+00	5.071824e+00	
140	8.546553e-04	5.219872e+00	4.901035e+00	
141	8.572055e-04	3.945267e+00	3.906783e+00	
142	8.585855e-04	3.247642e+00	3.196517e+00	
143	8.598512e-04	2.610530e+00	2.611282e+00	
144	8.612914e-04	1.883147e+00	1.882938e+00	
145	8.626863e-04	1.180532e+00	1.225945e+00	
146	8.645542e-04	2.379149e-01	2.964170e-01	
147	8.668644e-04	-9.26326e-01	-8.11314e-01	
148	8.700843e-04	-2.55010e+00	-2.39541e+00	
149	8.735607e-04	-4.30162e+00	-4.07244e+00	
150	8.749420e-04	-4.99684e+00	-4.73406e+00	
151	8.763516e-04	-5.68537e+00	-4.96124e+00	
152	8.776955e-04	-6.33346e+00	-5.01487e+00	
153	8.793459e-04	-7.12833e+00	-5.05128e+00	
154	8.808384e-04	-7.84614e+00	-5.07398e+00	
155	8.838236e-04	-9.28138e+00	-5.10394e+00	
156	8.873677e-04	-1.09837e+01	-5.12987e+00	
157	8.915714e-04	-1.30021e+01	-5.15189e+00	
158	8.938715e-04	-1.41055e+01	-5.16125e+00	
159	8.954239e-04	-1.47373e+01	-5.16644e+00	
160	8.958931e-04	-1.47638e+01	-5.16670e+00	
161	8.964324e-04	-1.47785e+01	-5.16680e+00	
162	8.970180e-04	-1.47885e+01	-5.16689e+00	
163	8.980181e-04	-1.47995e+01	-5.16698e+00	
164	8.997324e-04	-1.48092e+01	-5.16706e+00	
165	9.025227e-04	-1.48093e+01	-5.16707e+00	
166	9.074120e-04	-1.48094e+01	-5.16708e+00	
167	9.120760e-04	-1.48094e+01	-5.16709e+00	
168	9.180791e-04	-1.48094e+01	-5.16710e+00	
169	9.275750e-04	-1.48094e+01	-5.16713e+00	
170	9.375750e-04	-1.48094e+01	-5.16715e+00	

Index   time            v(2)            v(3)            
--------------------------------------------------------------------------------
171	9.475750e-04	-1.48094e+01	-5.16717e+00	
172	9.575750e-04	-1.48093e+01	-5.16719e+00	
173	9.675750e-04	-1.48093e+01	-5.16721e+00	
174	9.775750e-04	-1.48093e+01	-5.16723e+00	
175	9.875750e-04	-1.48093e+01	-5.16725e+00	
176	9.975750e-04	-1.48093e+01	-5.16726e+00	
177	1.007575e-03	-1.48093e+01	-5.16729e+00	
178	1.017575e-03	-1.48093e+01	-5.16730e+00	
179	1.027575e-03	-1.48093e+01	-5.16733e+00	
180	1.037575e-03	-1.48093e+01	-5.16734e+00	
181	1.047575e-03	-1.48093e+01	-5.16736e+00	
182	1.057575e-03	-1.48093e+01	-5.16737e+00	
183	1.067575e-03	-1.48093e+01	-5.16739e+00	
184	1.077575e-03	-1.48093e+01	-5.16740e+00	
185	1.087575e-03	-1.48093e+01	-5.16743e+00	
186	1.097575e-03	-1.48093e+01	-5.16743e+00	
187	1.107575e-03	-1.48093e+01	-5.16746e+00	
188	1.117575e-03	-1.48093e+01	-5.16746e+00	
189	1.127575e-03	-1.48093e+01	-5.16749e+00	
190	1.137575e-03	-1.48093e+01	-5.16749e+00	
191	1.147575e-03	-1.48093e+01	-5.16752e+00	
192	1.157575e-03	-1.48093e+01	-5.16752e+00	
193	1.167575e-03	-1.48093e+01	-5.16754e+00	
194	1.177575e-03	-1.48093e+01	-5.16755e+00	
195	1.187575e-03	-1.48093e+01	-5.16757e+00	
196	1.197575e-03	-1.48093e+01	-5.16757e+00	
197	1.207575e-03	-1.48093e+01	-5.16760e+00	
198	1.217575e-03	-1.48093e+01	-5.16760e+00	
199	1.227575e-03	-1.48093e+01	-5.16762e+00	
200	1.237575e-03	-1.48093e+01	-5.16762e+00	
201	1.247575e-03	-1.48093e+01	-5.16764e+00	
202	1.257575e-03	-1.48093e+01	-5.16764e+00	
203	1.267575e-03	-1.48093e+01	-5.16767e+00	
204	1.277575e-03	-1.48093e+01	-5.16767e+00	
205	1.287575e-03	-1.48093e+01	-5.16769e+00	
206	1.297575e-03	-1.48093e+01	-5.16769e+00	
207	1.307575e-03	-1.48093e+01	-5.16771e+00	
208	1.317575e-03	-1.48093e+01	-5.16771e+00	
209	1.327575e-03	-1.48093e+01	-5.16773e+00	
210	1.337575e-03	-1.48093e+01	-5.16773e+00	
211	1.347575e-03	-1.48093e+01	-5.16775e+00	
212	1.357575e-03	-1.48093e+01	-5.16774e+00	
213	1.363689e-03	-1.48093e+01	-5.16776e+00	
214	1.369398e-03	-1.48093e+01	-5.16775e+00	
215	1.375819e-03	-1.48092e+01	-5.16777e+00	
216	1.379564e-03	-1.48066e+01	-5.16774e+00	
217	1.383414e-03	-1.47934e+01	-5.16766e+00	
218	1.387205e-03	-1.47333e+01	-5.16717e+00	
219	1.388286e-03	-1.45209e+01	-5.16554e+00	
220	1.389575e-03	-1.41204e+01	-5.16223e+00	
221	1.390318e-03	-1.38704e+01	-5.16013e+00	
222	1.390998e-03	-1.36310e+01	-5.15802e+00	
223	1.392359e-03	-1.31238e+01	-5.15346e+00	
224	1.394573e-03	-1.22330e+01	-5.14469e+00	
225	1.397931e-03	-1.07751e+01	-5.12794e+00	
226	1.402816e-03	-8.54067e+00	-5.09294e+00	
227	1.408159e-03	-6.03855e+00	-5.00394e+00	
228	1.411523e-03	-4.42627e+00	-4.34541e+00	

Index   time            v(2)            v(3)            
--------------------------------------------------------------------------------
229	1.415237e-03	-2.59226e+00	-2.58631e+00	
230	1.417677e-03	-1.38267e+00	-1.40606e+00	
231	1.420440e-03	-1.02869e-02	-9.09458e-02	
232	1.425378e-03	2.452474e+00	2.297897e+00	
233	1.430446e-03	4.991413e+00	4.726232e+00	
234	1.432976e-03	6.218092e+00	5.009033e+00	
235	1.436007e-03	7.674308e+00	5.068732e+00	
236	1.439094e-03	9.156448e+00	5.102105e+00	
237	1.443641e-03	1.133860e+01	5.133354e+00	
238	1.446440e-03	1.268145e+01	5.148394e+00	
239	1.449061e-03	1.393882e+01	5.159713e+00	
240	1.451196e-03	1.475290e+01	5.166666e+00	
241	1.451742e-03	1.477311e+01	5.166680e+00	
242	1.452377e-03	1.478572e+01	5.166955e+00	
243	1.453079e-03	1.479518e+01	5.166851e+00	
244	1.454484e-03	1.480739e+01	5.167144e+00	
245	1.456887e-03	1.480928e+01	5.166969e+00	
246	1.459705e-03	1.480929e+01	5.167168e+00	
247	1.462653e-03	1.480933e+01	5.166984e+00	
248	1.468547e-03	1.480935e+01	5.167194e+00	
249	1.474556e-03	1.480937e+01	5.167010e+00	
250	1.484556e-03	1.480936e+01	5.167229e+00	
251	1.494556e-03	1.480935e+01	5.167053e+00	
252	1.504556e-03	1.480929e+01	5.167270e+00	
253	1.514556e-03	1.480928e+01	5.167094e+00	
254	1.524556e-03	1.480928e+01	5.167310e+00	
255	1.534556e-03	1.480928e+01	5.167133e+00	
256	1.544556e-03	1.480926e+01	5.167350e+00	
257	1.554556e-03	1.480928e+01	5.167171e+00	
258	1.564556e-03	1.480926e+01	5.167388e+00	
259	1.574556e-03	1.480927e+01	5.167208e+00	
260	1.584556e-03	1.480926e+01	5.167424e+00	
261	1.594556e-03	1.480927e+01	5.167243e+00	
262	1.604556e-03	1.480926e+01	5.167459e+00	
263	1.614556e-03	1.480927e+01	5.167277e+00	
264	1.624556e-03	1.480926e+01	5.167493e+00	
265	1.634556e-03	1.480927e+01	5.167309e+00	
266	1.644556e-03	1.480926e+01	5.167525e+00	
267	1.654556e-03	1.480927e+01	5.167341e+00	
268	1.664556e-03	1.480926e+01	5.167556e+00	
269	1.674556e-03	1.480927e+01	5.167371e+00	
270	1.684556e-03	1.480926e+01	5.167585e+00	
271	1.694556e-03	1.480927e+01	5.167399e+00	
272	1.704556e-03	1.480926e+01	5.167614e+00	
273	1.714556e-03	1.480927e+01	5.167427e+00	
274	1.724556e-03	1.480926e+01	5.167641e+00	
275	1.734556e-03	1.480927e+01	5.167453e+00	
276	1.744556e-03	1.480926e+01	5.167668e+00	
277	1.754556e-03	1.480927e+01	5.167479e+00	
278	1.764556e-03	1.480926e+01	5.167693e+00	
279	1.774556e-03	1.480927e+01	5.167503e+00	
280	1.784556e-03	1.480926e+01	5.167717e+00	
281	1.794556e-03	1.480927e+01	5.167527e+00	
282	1.804556e-03	1.480926e+01	5.167741e+00	
283	1.814556e-03	1.480927e+01	5.167550e+00	
284	1.824556e-03	1.480926e+01	5.167763e+00	
285	1.834556e-03	1.480927e+01	5.167571e+00	
286	1.844556e-03	1.480926e+01	5.167785e+00	

Index   time            v(2)            v(3)            
--------------------------------------------------------------------------------
287	1.854556e-03	1.480927e+01	5.167592e+00	
288	1.864556e-03	1.480926e+01	5.167805e+00	
289	1.874556e-03	1.480927e+01	5.167612e+00	
290	1.884556e-03	1.480926e+01	5.167825e+00	
291	1.894556e-03	1.480927e+01	5.167631e+00	
292	1.904556e-03	1.480926e+01	5.167844e+00	
293	1.914556e-03	1.480927e+01	5.167650e+00	
294	1.920476e-03	1.480926e+01	5.167857e+00	
295	1.926442e-03	1.480926e+01	5.167658e+00	
296	1.932901e-03	1.480922e+01	5.167868e+00	
297	1.936725e-03	1.480451e+01	5.167630e+00	
298	1.940643e-03	1.478682e+01	5.167700e+00	
299	1.942919e-03	1.475319e+01	5.167234e+00	
300	1.943962e-03	1.466093e+01	5.166729e+00	
301	1.944641e-03	1.446886e+01	5.165013e+00	
302	1.945013e-03	1.435368e+01	5.164270e+00	
303	1.945463e-03	1.421161e+01	5.162896e+00	
304	1.946362e-03	1.390943e+01	5.160563e+00	
305	1.947341e-03	1.356036e+01	5.157301e+00	
306	1.949300e-03	1.280125e+01	5.150510e+00	
307	1.951660e-03	1.180643e+01	5.140037e+00	
308	1.955816e-03	9.922719e+00	5.116346e+00	
309	1.960921e-03	7.504463e+00	5.066627e+00	
310	1.966360e-03	4.877188e+00	4.762801e+00	
311	1.969165e-03	3.464950e+00	3.423802e+00	
312	1.971507e-03	2.282856e+00	2.281305e+00	
313	1.974101e-03	9.756313e-01	1.018520e+00	
314	1.979288e-03	-1.64107e+00	-1.50944e+00	
315	1.985409e-03	-4.72468e+00	-4.48693e+00	
316	1.988211e-03	-6.09655e+00	-4.99967e+00	
317	1.991957e-03	-7.89881e+00	-5.07477e+00	
318	1.995746e-03	-9.72123e+00	-5.11197e+00	
319	1.999256e-03	-1.14063e+01	-5.13528e+00	
320	2.002413e-03	-1.29225e+01	-5.15078e+00	
321	2.005047e-03	-1.41856e+01	-5.16186e+00	
322	2.006514e-03	-1.47440e+01	-5.16653e+00	
323	2.006982e-03	-1.47666e+01	-5.16669e+00	
324	2.007482e-03	-1.47794e+01	-5.16684e+00	
325	2.008048e-03	-1.47892e+01	-5.16686e+00	
326	2.009179e-03	-1.48019e+01	-5.16704e+00	
327	2.011007e-03	-1.48092e+01	-5.16703e+00	
328	2.013819e-03	-1.48093e+01	-5.16711e+00	
329	2.016898e-03	-1.48093e+01	-5.16704e+00	
330	2.021450e-03	-1.48094e+01	-5.16713e+00	
331	2.026763e-03	-1.48094e+01	-5.16706e+00	
332	2.036415e-03	-1.48094e+01	-5.16716e+00	
333	2.046415e-03	-1.48094e+01	-5.16710e+00	
334	2.056415e-03	-1.48094e+01	-5.16720e+00	
335	2.066415e-03	-1.48093e+01	-5.16715e+00	
336	2.076415e-03	-1.48093e+01	-5.16724e+00	
337	2.086415e-03	-1.48093e+01	-5.16719e+00	
338	2.096415e-03	-1.48093e+01	-5.16728e+00	
339	2.106415e-03	-1.48093e+01	-5.16722e+00	
340	2.116415e-03	-1.48093e+01	-5.16732e+00	
341	2.126415e-03	-1.48093e+01	-5.16726e+00	
342	2.136415e-03	-1.48093e+01	-5.16736e+00	
343	2.146415e-03	-1.48093e+01	-5.16730e+00	
344	2.156415e-03	-1.48093e+01	-5.16739e+00	

Index   time            v(2)            v(3)            
--------------------------------------------------------------------------------
345	2.166415e-03	-1.48093e+01	-5.16733e+00	
346	2.176415e-03	-1.48093e+01	-5.16743e+00	
347	2.186415e-03	-1.48093e+01	-5.16736e+00	
348	2.196415e-03	-1.48093e+01	-5.16746e+00	
349	2.206415e-03	-1.48093e+01	-5.16739e+00	
350	2.216415e-03	-1.48093e+01	-5.16749e+00	
351	2.226415e-03	-1.48093e+01	-5.16743e+00	
352	2.236415e-03	-1.48093e+01	-5.16752e+00	
353	2.246415e-03	-1.48093e+01	-5.16745e+00	
354	2.256415e-03	-1.48093e+01	-5.16755e+00	
355	2.266415e-03	-1.48093e+01	-5.16748e+00	
356	2.276415e-03	-1.48093e+01	-5.16758e+00	
357	2.286415e-03	-1.48093e+01	-5.16751e+00	
358	2.296415e-03	-1.48093e+01	-5.16760e+00	
359	2.306415e-03	-1.48093e+01	-5.16753e+00	
360	2.316415e-03	-1.48093e+01	-5.16763e+00	
361	2.326415e-03	-1.48093e+01	-5.16756e+00	
362	2.336415e-03	-1.48093e+01	-5.16765e+00	
363	2.346415e-03	-1.48093e+01	-5.16758e+00	
364	2.356415e-03	-1.48093e+01	-5.16768e+00	
365	2.366415e-03	-1.48093e+01	-5.16761e+00	
366	2.376415e-03	-1.48093e+01	-5.16770e+00	
367	2.386415e-03	-1.48093e+01	-5.16763e+00	
368	2.396415e-03	-1.48093e+01	-5.16772e+00	
369	2.406415e-03	-1.48093e+01	-5.16765e+00	
370	2.416415e-03	-1.48093e+01	-5.16774e+00	
371	2.426415e-03	-1.48093e+01	-5.16767e+00	
372	2.436415e-03	-1.48093e+01	-5.16776e+00	
373	2.446415e-03	-1.48093e+01	-5.16769e+00	
374	2.456415e-03	-1.48093e+01	-5.16778e+00	
375	2.466415e-03	-1.48093e+01	-5.16771e+00	
376	2.473349e-03	-1.48093e+01	-5.16780e+00	
377	2.478758e-03	-1.48093e+01	-5.16772e+00	
378	2.485324e-03	-1.48092e+01	-5.16781e+00	
379	2.489176e-03	-1.48092e+01	-5.16773e+00	
380	2.492545e-03	-1.48020e+01	-5.16776e+00	
381	2.495895e-03	-1.47837e+01	-5.16753e+00	
382	2.497257e-03	-1.47661e+01	-5.16748e+00	
383	2.498250e-03	-1.47347e+01	-5.16715e+00	
384	2.498810e-03	-1.46705e+01	-5.16675e+00	
385	2.499464e-03	-1.44892e+01	-5.16524e+00	
386	2.499779e-03	-1.43942e+01	-5.16454e+00	
387	2.500178e-03	-1.42696e+01	-5.16344e+00	
388	2.500977e-03	-1.40091e+01	-5.16135e+00	
389	2.502357e-03	-1.35240e+01	-5.15705e+00	
390	2.503723e-03	-1.30066e+01	-5.15240e+00	
391	2.505953e-03	-1.20977e+01	-5.14324e+00	
392	2.509342e-03	-1.06165e+01	-5.12594e+00	
393	2.514688e-03	-8.16176e+00	-5.08373e+00	
394	2.519896e-03	-5.71933e+00	-4.97852e+00	
395	2.522926e-03	-4.25636e+00	-4.18286e+00	
396	2.525255e-03	-3.10707e+00	-3.08271e+00	
397	2.527235e-03	-2.12673e+00	-2.12625e+00	
398	2.529224e-03	-1.14087e+00	-1.18199e+00	
399	2.533203e-03	8.385159e-01	7.375761e-01	
400	2.537983e-03	3.225477e+00	3.035882e+00	
401	2.541295e-03	4.886613e+00	4.641587e+00	
402	2.543466e-03	5.943983e+00	4.987490e+00	

Index   time            v(2)            v(3)            
--------------------------------------------------------------------------------
403	2.546033e-03	7.178075e+00	5.052699e+00	
404	2.548924e-03	8.566552e+00	5.090704e+00	
405	2.552103e-03	1.009263e+01	5.118560e+00	
406	2.557068e-03	1.247477e+01	5.147845e+00	
407	2.560442e-03	1.409313e+01	5.161393e+00	
408	2.562057e-03	1.474032e+01	5.166485e+00	
409	2.562691e-03	1.477031e+01	5.166729e+00	
410	2.563259e-03	1.478304e+01	5.166867e+00	
411	2.563870e-03	1.479179e+01	5.166883e+00	
412	2.565092e-03	1.480393e+01	5.167052e+00	
413	2.566909e-03	1.480924e+01	5.167025e+00	
414	2.570039e-03	1.480928e+01	5.167108e+00	
415	2.574661e-03	1.480934e+01	5.167043e+00	
416	2.580370e-03	1.480937e+01	5.167134e+00	
417	2.586364e-03	1.480941e+01	5.167068e+00	
418	2.596364e-03	1.480941e+01	5.167170e+00	
419	2.606364e-03	1.480941e+01	5.167111e+00	
420	2.616364e-03	1.480937e+01	5.167213e+00	
421	2.626364e-03	1.480933e+01	5.167152e+00	
422	2.636364e-03	1.480926e+01	5.167253e+00	
423	2.646364e-03	1.480929e+01	5.167190e+00	
424	2.656364e-03	1.480928e+01	5.167293e+00	
425	2.666364e-03	1.480928e+01	5.167228e+00	
