
Circuit: astable multivibrator

                             astable multivibrator
                             Transient Analysis  Sun Feb  6 05:07:07  2022
--------------------------------------------------------------------------------
Index   time            v(2)            v(1)            
--------------------------------------------------------------------------------
0	0.000000e+00	5.050424e-03	1.062315e-03	
1	1.000000e-07	5.050424e-03	1.062315e-03	
2	2.000000e-07	5.050424e-03	1.062315e-03	
3	4.000000e-07	5.050424e-03	1.062315e-03	
4	8.000000e-07	5.050424e-03	1.062315e-03	
5	1.600000e-06	5.050427e-03	1.062315e-03	
6	3.200000e-06	5.050414e-03	1.062315e-03	
7	6.400000e-06	5.050441e-03	1.062315e-03	
8	1.280000e-05	5.050401e-03	1.062315e-03	
9	2.280000e-05	5.050451e-03	1.062315e-03	
10	3.280000e-05	5.050392e-03	1.062315e-03	
11	4.280000e-05	5.050462e-03	1.062315e-03	
12	5.280000e-05	5.050379e-03	1.062315e-03	
13	6.280000e-05	5.050477e-03	1.062315e-03	
14	7.280000e-05	5.050361e-03	1.062315e-03	
15	8.280000e-05	5.050499e-03	1.062315e-03	
16	9.280000e-05	5.050335e-03	1.062315e-03	
17	1.028000e-04	5.050530e-03	1.062315e-03	
18	1.128000e-04	5.050298e-03	1.062315e-03	
19	1.228000e-04	5.050573e-03	1.062315e-03	
20	1.328000e-04	5.050247e-03	1.062315e-03	
21	1.428000e-04	5.050634e-03	1.062315e-03	
22	1.528000e-04	5.050174e-03	1.062314e-03	
23	1.628000e-04	5.050721e-03	1.062315e-03	
24	1.728000e-04	5.050072e-03	1.062314e-03	
25	1.828000e-04	5.050842e-03	1.062315e-03	
26	1.928000e-04	5.049927e-03	1.062314e-03	
27	2.028000e-04	5.051014e-03	1.062315e-03	
28	2.128000e-04	5.049724e-03	1.062314e-03	
29	2.228000e-04	5.051256e-03	1.062315e-03	
30	2.328000e-04	5.049437e-03	1.062314e-03	
31	2.428000e-04	5.051596e-03	1.062316e-03	
32	2.528000e-04	5.049032e-03	1.062313e-03	
33	2.628000e-04	5.052077e-03	1.062316e-03	
34	2.728000e-04	5.048461e-03	1.062313e-03	
35	2.828000e-04	5.052754e-03	1.062317e-03	
36	2.928000e-04	5.047657e-03	1.062312e-03	
37	3.028000e-04	5.053709e-03	1.062318e-03	
38	3.128000e-04	5.046523e-03	1.062311e-03	
39	3.228000e-04	5.055056e-03	1.062319e-03	
40	3.328000e-04	5.044924e-03	1.062310e-03	
41	3.428000e-04	5.056954e-03	1.062320e-03	
42	3.528000e-04	5.042670e-03	1.062308e-03	
43	3.628000e-04	5.059631e-03	1.062323e-03	
44	3.728000e-04	5.039492e-03	1.062305e-03	
45	3.828000e-04	5.063405e-03	1.062326e-03	
46	3.928000e-04	5.035011e-03	1.062301e-03	
47	4.028000e-04	5.068725e-03	1.062331e-03	
48	4.128000e-04	5.028693e-03	1.062296e-03	
49	4.228000e-04	5.076226e-03	1.062337e-03	
50	4.328000e-04	5.019787e-03	1.062288e-03	
51	4.428000e-04	5.086802e-03	1.062347e-03	
52	4.528000e-04	5.007230e-03	1.062277e-03	
53	4.628000e-04	5.101712e-03	1.062360e-03	
54	4.726224e-04	4.989335e-03	1.062261e-03	

Index   time            v(2)            v(1)            
--------------------------------------------------------------------------------
55	4.817968e-04	5.124096e-03	1.062379e-03	
56	4.889420e-04	4.956681e-03	1.062233e-03	
57	4.934254e-04	5.188451e-03	1.062436e-03	
58	4.958156e-04	4.758193e-03	1.062059e-03	
59	4.966691e-04	-3.67909e-02	1.025320e-03	
60	4.970407e-04	-9.65341e-02	9.709261e-04	
61	4.973528e-04	-1.90452e-01	8.765545e-04	
62	4.975478e-04	-2.71290e-01	7.832268e-04	
63	4.977928e-04	-3.86731e-01	6.178413e-04	
64	4.980297e-04	-5.03625e-01	4.029233e-04	
65	4.982891e-04	-6.32561e-01	1.038312e-04	
66	4.985662e-04	-7.70345e-01	-2.89261e-04	
67	4.991204e-04	-1.04594e+00	-1.30374e-03	
68	5.002287e-04	-1.59710e+00	-4.24466e-03	
69	5.024454e-04	-2.69934e+00	-1.37639e-02	
70	5.068788e-04	-4.90335e+00	-4.72695e-02	
71	5.157455e-04	-9.30860e+00	-1.71485e-01	
72	5.207883e-04	-1.18119e+01	-2.75817e-01	
73	5.241066e-04	-1.34581e+01	-3.57621e-01	
74	5.279989e-04	-1.47783e+01	-4.64386e-01	
75	5.290946e-04	-1.47945e+01	-4.95755e-01	
76	5.301849e-04	-1.48039e+01	-5.26928e-01	
77	5.312182e-04	-1.48102e+01	-5.56426e-01	
78	5.332849e-04	-1.48159e+01	-6.15265e-01	
79	5.374182e-04	-1.48160e+01	-7.32240e-01	
80	5.426385e-04	-1.48160e+01	-8.78602e-01	
81	5.489534e-04	-1.48161e+01	-1.05362e+00	
82	5.554243e-04	-1.48161e+01	-1.23069e+00	
83	5.654243e-04	-1.48161e+01	-1.49987e+00	
84	5.754243e-04	-1.48161e+01	-1.76371e+00	
85	5.854243e-04	-1.48161e+01	-2.02233e+00	
86	5.954243e-04	-1.48160e+01	-2.27583e+00	
87	6.054243e-04	-1.48160e+01	-2.52430e+00	
88	6.154243e-04	-1.48160e+01	-2.76786e+00	
89	6.254243e-04	-1.48160e+01	-3.00659e+00	
90	6.354243e-04	-1.48160e+01	-3.24060e+00	
91	6.454243e-04	-1.48160e+01	-3.46997e+00	
92	6.554243e-04	-1.48160e+01	-3.69480e+00	
93	6.654243e-04	-1.48160e+01	-3.91517e+00	
94	6.754243e-04	-1.48160e+01	-4.13119e+00	
95	6.854243e-04	-1.48160e+01	-4.34292e+00	
96	6.954243e-04	-1.48160e+01	-4.55046e+00	
97	7.054243e-04	-1.48160e+01	-4.75390e+00	
98	7.154243e-04	-1.48160e+01	-4.95330e+00	
99	7.254243e-04	-1.48160e+01	-5.14876e+00	
100	7.354243e-04	-1.48160e+01	-5.34034e+00	
101	7.454243e-04	-1.48160e+01	-5.52813e+00	
102	7.554243e-04	-1.48160e+01	-5.71220e+00	
103	7.654243e-04	-1.48160e+01	-5.89263e+00	
104	7.754243e-04	-1.48160e+01	-6.06948e+00	
105	7.854243e-04	-1.48160e+01	-6.24284e+00	
106	7.954243e-04	-1.48160e+01	-6.41276e+00	
107	8.054243e-04	-1.48160e+01	-6.57931e+00	
108	8.133975e-04	-1.48160e+01	-6.70974e+00	
109	8.169434e-04	-1.48160e+01	-6.76707e+00	
110	8.190456e-04	-1.48160e+01	-6.80087e+00	
111	8.214689e-04	-1.48160e+01	-6.83964e+00	
112	8.228259e-04	-1.48157e+01	-6.86127e+00	

Index   time            v(2)            v(1)            
--------------------------------------------------------------------------------
113	8.241129e-04	-1.48111e+01	-6.88172e+00	
114	8.254605e-04	-1.48033e+01	-6.90305e+00	
115	8.270960e-04	-1.47857e+01	-6.92883e+00	
116	8.280895e-04	-1.47615e+01	-6.94440e+00	
117	8.288131e-04	-1.46884e+01	-6.95565e+00	
118	8.291914e-04	-1.45240e+01	-6.96144e+00	
119	8.294278e-04	-1.44099e+01	-6.96499e+00	
120	8.297216e-04	-1.42681e+01	-6.96932e+00	
121	8.301430e-04	-1.40645e+01	-6.97538e+00	
122	8.306088e-04	-1.38395e+01	-6.98188e+00	
123	8.311290e-04	-1.35879e+01	-6.98888e+00	
124	8.319488e-04	-1.31914e+01	-6.99936e+00	
125	8.331327e-04	-1.26180e+01	-7.01333e+00	
126	8.347802e-04	-1.18191e+01	-7.03045e+00	
127	8.370953e-04	-1.06940e+01	-7.04998e+00	
128	8.403341e-04	-9.11562e+00	-7.06841e+00	
129	8.449030e-04	-6.88004e+00	-7.07686e+00	
130	8.513238e-04	-3.72048e+00	-7.05419e+00	
131	8.604048e-04	7.839931e-01	-6.95366e+00	
132	8.704048e-04	5.793278e+00	-6.75084e+00	
133	8.804048e-04	1.085445e+01	-6.45233e+00	
134	8.852142e-04	1.330708e+01	-6.27491e+00	
135	8.890393e-04	1.477272e+01	-6.12009e+00	
136	8.900692e-04	1.479144e+01	-6.07708e+00	
137	8.910350e-04	1.480126e+01	-6.03681e+00	
138	8.920631e-04	1.480849e+01	-5.99399e+00	
139	8.941194e-04	1.481584e+01	-5.90860e+00	
140	8.982321e-04	1.481593e+01	-5.73884e+00	
141	9.042299e-04	1.481597e+01	-5.49374e+00	
142	9.101851e-04	1.481598e+01	-5.25327e+00	
143	9.167901e-04	1.481597e+01	-4.98990e+00	
144	9.267901e-04	1.481595e+01	-4.59770e+00	
145	9.367901e-04	1.481591e+01	-4.21327e+00	
146	9.467901e-04	1.481596e+01	-3.83646e+00	
147	9.567901e-04	1.481598e+01	-3.46710e+00	
148	9.667901e-04	1.481600e+01	-3.10506e+00	
149	9.767901e-04	1.481599e+01	-2.75019e+00	
150	9.867901e-04	1.481598e+01	-2.40234e+00	
151	9.967901e-04	1.481594e+01	-2.06139e+00	
152	1.006790e-03	1.481596e+01	-1.72718e+00	
153	1.016790e-03	1.481595e+01	-1.39960e+00	
154	1.026790e-03	1.481595e+01	-1.07850e+00	
155	1.036790e-03	1.481594e+01	-7.63755e-01	
156	1.046790e-03	1.481595e+01	-4.55246e-01	
157	1.056790e-03	1.481595e+01	-1.52846e-01	
158	1.066790e-03	1.481596e+01	1.435656e-01	
159	1.076790e-03	1.481595e+01	4.341080e-01	
160	1.086790e-03	1.481596e+01	7.188971e-01	
161	1.096790e-03	1.481596e+01	9.980470e-01	
162	1.106790e-03	1.481597e+01	1.271669e+00	
163	1.116790e-03	1.481597e+01	1.539873e+00	
164	1.126790e-03	1.481598e+01	1.802766e+00	
165	1.136790e-03	1.481598e+01	2.060454e+00	
166	1.146790e-03	1.481598e+01	2.313038e+00	
167	1.156790e-03	1.481598e+01	2.560621e+00	
168	1.166790e-03	1.481599e+01	2.803302e+00	
169	1.176790e-03	1.481599e+01	3.041177e+00	
170	1.186790e-03	1.481600e+01	3.274342e+00	

Index   time            v(2)            v(1)            
--------------------------------------------------------------------------------
171	1.196790e-03	1.481599e+01	3.502889e+00	
172	1.206790e-03	1.481600e+01	3.726911e+00	
173	1.216790e-03	1.481600e+01	3.946497e+00	
174	1.226790e-03	1.481601e+01	4.161735e+00	
175	1.236790e-03	1.481601e+01	4.372711e+00	
176	1.246790e-03	1.481601e+01	4.579509e+00	
177	1.256790e-03	1.481601e+01	4.782212e+00	
178	1.266790e-03	1.481602e+01	4.980901e+00	
179	1.276790e-03	1.481602e+01	5.175656e+00	
180	1.286790e-03	1.481602e+01	5.366554e+00	
181	1.296790e-03	1.481602e+01	5.553672e+00	
182	1.306790e-03	1.481603e+01	5.737085e+00	
183	1.316790e-03	1.481602e+01	5.916866e+00	
184	1.326790e-03	1.481603e+01	6.093087e+00	
185	1.336790e-03	1.481603e+01	6.265819e+00	
186	1.346790e-03	1.481604e+01	6.435130e+00	
187	1.356790e-03	1.481603e+01	6.601088e+00	
188	1.362247e-03	1.481604e+01	6.690257e+00	
189	1.365382e-03	1.481603e+01	6.741048e+00	
190	1.367273e-03	1.481604e+01	6.771529e+00	
191	1.369892e-03	1.481603e+01	6.813533e+00	
192	1.371385e-03	1.481602e+01	6.837383e+00	
193	1.372694e-03	1.481595e+01	6.858243e+00	
194	1.373949e-03	1.481155e+01	6.878161e+00	
195	1.375260e-03	1.480386e+01	6.898906e+00	
196	1.376891e-03	1.478589e+01	6.924603e+00	
197	1.377815e-03	1.476257e+01	6.939079e+00	
198	1.378506e-03	1.469318e+01	6.949824e+00	
199	1.378857e-03	1.453365e+01	6.955199e+00	
200	1.379087e-03	1.441512e+01	6.958650e+00	
201	1.379370e-03	1.426855e+01	6.962832e+00	
202	1.379720e-03	1.408791e+01	6.967872e+00	
203	1.380188e-03	1.384594e+01	6.974416e+00	
204	1.380682e-03	1.359120e+01	6.981057e+00	
205	1.381441e-03	1.319879e+01	6.990781e+00	
206	1.382523e-03	1.263987e+01	7.003579e+00	
207	1.384070e-03	1.184051e+01	7.019733e+00	
208	1.386198e-03	1.074145e+01	7.037833e+00	
209	1.389215e-03	9.182699e+00	7.055376e+00	
210	1.393423e-03	7.008715e+00	7.064026e+00	
211	1.399375e-03	3.934748e+00	7.045088e+00	
212	1.407732e-03	-3.80025e-01	6.957628e+00	
213	1.417732e-03	-5.53745e+00	6.761101e+00	
214	1.427732e-03	-1.06867e+01	6.466420e+00	
215	1.432700e-03	-1.32406e+01	6.284150e+00	
216	1.436706e-03	-1.47742e+01	6.122136e+00	
217	1.437785e-03	-1.47928e+01	6.077058e+00	
218	1.438786e-03	-1.48024e+01	6.035283e+00	
219	1.439848e-03	-1.48097e+01	5.991055e+00	
220	1.441972e-03	-1.48158e+01	5.902853e+00	
221	1.446219e-03	-1.48160e+01	5.727540e+00	
222	1.451294e-03	-1.48160e+01	5.519992e+00	
223	1.457666e-03	-1.48160e+01	5.262354e+00	
224	1.463938e-03	-1.48160e+01	5.011955e+00	
225	1.473938e-03	-1.48160e+01	4.619161e+00	
226	1.483938e-03	-1.48160e+01	4.234144e+00	
227	1.493938e-03	-1.48159e+01	3.856753e+00	
228	1.503938e-03	-1.48159e+01	3.486837e+00	

Index   time            v(2)            v(1)            
--------------------------------------------------------------------------------
229	1.513938e-03	-1.48159e+01	3.124245e+00	
230	1.523938e-03	-1.48159e+01	2.768834e+00	
231	1.533938e-03	-1.48159e+01	2.420461e+00	
232	1.543938e-03	-1.48159e+01	2.078987e+00	
233	1.553938e-03	-1.48159e+01	1.744275e+00	
234	1.563938e-03	-1.48159e+01	1.416191e+00	
235	1.573938e-03	-1.48159e+01	1.094603e+00	
236	1.583938e-03	-1.48159e+01	7.793846e-01	
237	1.593938e-03	-1.48159e+01	4.704078e-01	
238	1.603938e-03	-1.48159e+01	1.675496e-01	
239	1.613938e-03	-1.48160e+01	-1.29311e-01	
240	1.623938e-03	-1.48160e+01	-4.20294e-01	
241	1.633938e-03	-1.48160e+01	-7.05514e-01	
242	1.643938e-03	-1.48160e+01	-9.85086e-01	
243	1.653938e-03	-1.48160e+01	-1.25912e+00	
244	1.663938e-03	-1.48160e+01	-1.52773e+00	
245	1.673938e-03	-1.48160e+01	-1.79102e+00	
246	1.683938e-03	-1.48160e+01	-2.04910e+00	
247	1.693938e-03	-1.48160e+01	-2.30206e+00	
248	1.703938e-03	-1.48160e+01	-2.55002e+00	
249	1.713938e-03	-1.48160e+01	-2.79307e+00	
250	1.723938e-03	-1.48160e+01	-3.03130e+00	
251	1.733938e-03	-1.48160e+01	-3.26481e+00	
252	1.743938e-03	-1.48160e+01	-3.49371e+00	
253	1.753938e-03	-1.48160e+01	-3.71806e+00	
254	1.763938e-03	-1.48160e+01	-3.93798e+00	
255	1.773938e-03	-1.48160e+01	-4.15354e+00	
256	1.783938e-03	-1.48160e+01	-4.36483e+00	
257	1.793938e-03	-1.48160e+01	-4.57194e+00	
258	1.803938e-03	-1.48160e+01	-4.77495e+00	
259	1.813938e-03	-1.48160e+01	-4.97394e+00	
260	1.823938e-03	-1.48160e+01	-5.16898e+00	
261	1.833938e-03	-1.48160e+01	-5.36017e+00	
262	1.843938e-03	-1.48160e+01	-5.54757e+00	
263	1.853938e-03	-1.48160e+01	-5.73125e+00	
264	1.863938e-03	-1.48160e+01	-5.91130e+00	
265	1.873938e-03	-1.48160e+01	-6.08779e+00	
266	1.883938e-03	-1.48160e+01	-6.26078e+00	
267	1.893938e-03	-1.48160e+01	-6.43034e+00	
268	1.903938e-03	-1.48160e+01	-6.59655e+00	
269	1.910080e-03	-1.48160e+01	-6.69698e+00	
270	1.913323e-03	-1.48160e+01	-6.74953e+00	
271	1.915261e-03	-1.48160e+01	-6.78075e+00	
272	1.917841e-03	-1.48160e+01	-6.82214e+00	
273	1.919257e-03	-1.48160e+01	-6.84476e+00	
274	1.920684e-03	-1.48144e+01	-6.86749e+00	
275	1.922096e-03	-1.48084e+01	-6.88989e+00	
276	1.923553e-03	-1.47978e+01	-6.91291e+00	
277	1.925198e-03	-1.47725e+01	-6.93878e+00	
278	1.925819e-03	-1.47476e+01	-6.94848e+00	
279	1.926330e-03	-1.46658e+01	-6.95642e+00	
280	1.926730e-03	-1.44809e+01	-6.96250e+00	
281	1.926931e-03	-1.43839e+01	-6.96551e+00	
282	1.927184e-03	-1.42615e+01	-6.96923e+00	
283	1.927690e-03	-1.40172e+01	-6.97648e+00	
284	1.928206e-03	-1.37678e+01	-6.98361e+00	
285	1.928782e-03	-1.34895e+01	-6.99126e+00	
286	1.929734e-03	-1.30285e+01	-7.00319e+00	

Index   time            v(2)            v(1)            
--------------------------------------------------------------------------------
287	1.930979e-03	-1.24255e+01	-7.01742e+00	
288	1.932882e-03	-1.15020e+01	-7.03621e+00	
289	1.935366e-03	-1.02940e+01	-7.05535e+00	
290	1.939032e-03	-8.50539e+00	-7.07248e+00	
291	1.944016e-03	-6.06325e+00	-7.07458e+00	
292	1.951216e-03	-2.51266e+00	-7.03474e+00	
293	1.961213e-03	2.461002e+00	-6.89598e+00	
294	1.971213e-03	7.487855e+00	-6.66093e+00	
295	1.978688e-03	1.127907e+01	-6.42284e+00	
296	1.982682e-03	1.331676e+01	-6.27391e+00	
297	1.986464e-03	1.477212e+01	-6.12079e+00	
298	1.987517e-03	1.479146e+01	-6.07680e+00	
299	1.988571e-03	1.480200e+01	-6.03288e+00	
300	1.989556e-03	1.480894e+01	-5.99186e+00	
301	1.991526e-03	1.481584e+01	-5.91005e+00	
302	1.995466e-03	1.481591e+01	-5.74736e+00	
303	2.001271e-03	1.481598e+01	-5.51000e+00	
304	2.007245e-03	1.481602e+01	-5.26860e+00	
305	2.013680e-03	1.481600e+01	-5.01175e+00	
306	2.023680e-03	1.481596e+01	-4.61912e+00	
307	2.033680e-03	1.481589e+01	-4.23426e+00	
308	2.043680e-03	1.481593e+01	-3.85703e+00	
309	2.053680e-03	1.481592e+01	-3.48727e+00	
310	2.063680e-03	1.481592e+01	-3.12483e+00	
311	2.073680e-03	1.481591e+01	-2.76957e+00	
312	2.083680e-03	1.481593e+01	-2.42134e+00	
313	2.093680e-03	1.481592e+01	-2.08001e+00	
314	2.103680e-03	1.481593e+01	-1.74544e+00	
315	2.113680e-03	1.481593e+01	-1.41749e+00	
316	2.123680e-03	1.481594e+01	-1.09604e+00	
317	2.133680e-03	1.481594e+01	-7.80947e-01	
318	2.143680e-03	1.481595e+01	-4.72098e-01	
319	2.153680e-03	1.481595e+01	-1.69364e-01	
320	2.163680e-03	1.481596e+01	1.273749e-01	
321	2.173680e-03	1.481595e+01	4.182379e-01	
322	2.183680e-03	1.481596e+01	7.033413e-01	
323	2.193680e-03	1.481596e+01	9.827992e-01	
324	2.203680e-03	1.481597e+01	1.256723e+00	
325	2.213680e-03	1.481597e+01	1.525223e+00	
326	2.223680e-03	1.481598e+01	1.788406e+00	
327	2.233680e-03	1.481597e+01	2.046378e+00	
328	2.243680e-03	1.481599e+01	2.299242e+00	
329	2.253680e-03	1.481598e+01	2.547098e+00	
330	2.263680e-03	1.481599e+01	2.790046e+00	
331	2.273680e-03	1.481599e+01	3.028184e+00	
332	2.283680e-03	1.481600e+01	3.261606e+00	
333	2.293680e-03	1.481599e+01	3.490405e+00	
334	2.303680e-03	1.481600e+01	3.714675e+00	
335	2.313680e-03	1.481600e+01	3.934503e+00	
336	2.323680e-03	1.481601e+01	4.149978e+00	
337	2.333680e-03	1.481600e+01	4.361187e+00	
338	2.343680e-03	1.481601e+01	4.568213e+00	
339	2.353680e-03	1.481601e+01	4.771140e+00	
340	2.363680e-03	1.481602e+01	4.970048e+00	
341	2.373680e-03	1.481601e+01	5.165018e+00	
342	2.383680e-03	1.481602e+01	5.356127e+00	
343	2.393680e-03	1.481602e+01	5.543451e+00	
344	2.403680e-03	1.481603e+01	5.727067e+00	

Index   time            v(2)            v(1)            
--------------------------------------------------------------------------------
345	2.413680e-03	1.481602e+01	5.907046e+00	
346	2.423680e-03	1.481603e+01	6.083462e+00	
347	2.433680e-03	1.481603e+01	6.256384e+00	
348	2.443680e-03	1.481604e+01	6.425882e+00	
349	2.453680e-03	1.481603e+01	6.592023e+00	
350	2.459857e-03	1.481604e+01	6.692998e+00	
351	2.463108e-03	1.481603e+01	6.745629e+00	
352	2.465060e-03	1.481604e+01	6.777073e+00	
353	2.467670e-03	1.481602e+01	6.818919e+00	
354	2.469112e-03	1.481602e+01	6.841933e+00	
355	2.470556e-03	1.481460e+01	6.864919e+00	
356	2.471988e-03	1.480834e+01	6.887628e+00	
357	2.473405e-03	1.479787e+01	6.910002e+00	
358	2.475134e-03	1.476639e+01	6.937149e+00	
359	2.475706e-03	1.473212e+01	6.946083e+00	
360	2.476131e-03	1.460868e+01	6.952632e+00	
361	2.476592e-03	1.437097e+01	6.959573e+00	
362	2.476797e-03	1.426587e+01	6.962583e+00	
363	2.477045e-03	1.413675e+01	6.966176e+00	
364	2.477488e-03	1.390896e+01	6.972409e+00	
365	2.478212e-03	1.353391e+01	6.982171e+00	
366	2.478912e-03	1.317297e+01	6.991074e+00	
367	2.480175e-03	1.252021e+01	7.005816e+00	
368	2.481584e-03	1.179303e+01	7.020287e+00	
369	2.484055e-03	1.051560e+01	7.040629e+00	
370	2.486956e-03	9.017562e+00	7.056352e+00	
371	2.491601e-03	6.617241e+00	7.063313e+00	
372	2.497559e-03	3.540911e+00	7.039713e+00	
373	2.506544e-03	-1.09818e+00	6.935936e+00	
374	2.516544e-03	-6.25387e+00	6.725635e+00	
375	2.526544e-03	-1.14025e+01	6.417475e+00	
376	2.535943e-03	-1.47973e+01	6.053857e+00	
377	2.538125e-03	-1.48139e+01	5.962998e+00	
378	2.540220e-03	-1.48159e+01	5.876072e+00	
379	2.542193e-03	-1.48159e+01	5.794549e+00	
380	2.546139e-03	-1.48159e+01	5.632463e+00	
381	2.551772e-03	-1.48160e+01	5.403298e+00	
382	2.557728e-03	-1.48160e+01	5.163754e+00	
383	2.567728e-03	-1.48160e+01	4.767953e+00	
384	2.577728e-03	-1.48160e+01	4.379991e+00	
385	2.587728e-03	-1.48160e+01	3.999711e+00	
386	2.597728e-03	-1.48159e+01	3.626963e+00	
387	2.607728e-03	-1.48159e+01	3.261596e+00	
388	2.617728e-03	-1.48160e+01	2.903464e+00	
389	2.627728e-03	-1.48161e+01	2.552423e+00	
390	2.637728e-03	-1.48161e+01	2.208332e+00	
391	2.647728e-03	-1.48161e+01	1.871055e+00	
392	2.657728e-03	-1.48161e+01	1.540458e+00	
393	2.667728e-03	-1.48160e+01	1.216407e+00	
394	2.677728e-03	-1.48160e+01	8.987748e-01	
395	2.687728e-03	-1.48160e+01	5.874333e-01	
396	2.697728e-03	-1.48160e+01	2.822568e-01	
397	2.707728e-03	-1.48161e+01	-1.68777e-02	
398	2.717728e-03	-1.48161e+01	-3.10089e-01	
399	2.727728e-03	-1.48160e+01	-5.97493e-01	
400	2.737728e-03	-1.48160e+01	-8.79205e-01	
401	2.747728e-03	-1.48161e+01	-1.15534e+00	
402	2.757728e-03	-1.48161e+01	-1.42600e+00	

Index   time            v(2)            v(1)            
--------------------------------------------------------------------------------
403	2.767728e-03	-1.48161e+01	-1.69131e+00	
404	2.777728e-03	-1.48160e+01	-1.95136e+00	
405	2.787728e-03	-1.48160e+01	-2.20626e+00	
406	2.797728e-03	-1.48160e+01	-2.45612e+00	
407	2.807728e-03	-1.48160e+01	-2.70102e+00	
408	2.817728e-03	-1.48160e+01	-2.94108e+00	
409	2.827728e-03	-1.48160e+01	-3.17638e+00	
410	2.837728e-03	-1.48160e+01	-3.40702e+00	
411	2.847728e-03	-1.48160e+01	-3.63310e+00	
412	2.857728e-03	-1.48160e+01	-3.85470e+00	
413	2.867728e-03	-1.48160e+01	-4.07191e+00	
414	2.877728e-03	-1.48160e+01	-4.28482e+00	
415	2.887728e-03	-1.48160e+01	-4.49351e+00	
416	2.897728e-03	-1.48160e+01	-4.69807e+00	
417	2.907728e-03	-1.48160e+01	-4.89858e+00	
418	2.917728e-03	-1.48160e+01	-5.09512e+00	
419	2.927728e-03	-1.48160e+01	-5.28777e+00	
420	2.937728e-03	-1.48160e+01	-5.47660e+00	
421	2.947728e-03	-1.48160e+01	-5.66169e+00	
422	2.957728e-03	-1.48160e+01	-5.84312e+00	
423	2.967728e-03	-1.48160e+01	-6.02095e+00	
424	2.977728e-03	-1.48160e+01	-6.19527e+00	
425	2.987728e-03	-1.48160e+01	-6.36613e+00	
